Time [s],Packet ID,Address,Data,Read/Write,ACK/NAK
0.003869350,0,r(0x72),(149)(0x95),Write,ACK
0.004145810,2,~(0x7E),BS (0x08),Write,ACK
0.004238390,2,~(0x7E),NUL(0x00),Write,ACK
0.004488420,4,s(0x73),LF (0x0A),Read,ACK
0.004770140,6,~(0x7E),HT (0x09),Write,ACK
0.004862720,6,~(0x7E),NUL(0x00),Write,ACK
0.005123930,8,r(0x72),(150)(0x96),Write,ACK
0.005384550,10,DEL(0x7F),ENQ(0x05),Read,ACK
0.005477120,10,DEL(0x7F),NUL(0x00),Read,ACK
0.005747420,12,s(0x73),(158)(0x9E),Read,NAK
0.006007410,14,~(0x7E),VT (0x0B),Write,ACK
0.006099990,14,~(0x7E),NUL(0x00),Write,ACK
0.006360750,16,r(0x72),(151)(0x97),Write,NAK
0.006616540,18,?(0x3F),ACK(0x06),Read,ACK
0.006709120,18,?(0x3F),NUL(0x00),Read,ACK
0.006886700,,y(0x79),,Read,NAK
0.006968990,20,y(0x79),STX(0x02),Read,NAK
0.007240060,22,~(0x7E),CR (0x0D),Write,ACK
0.007332650,22,~(0x7E),NUL(0x00),Write,ACK
0.007592850,24,r(0x72),(230)(0xE6),Write,ACK
0.007851310,26,~(0x7E),SO (0x0E),Write,ACK
0.007943890,26,~(0x7E),NUL(0x00),Write,ACK
0.008203460,28,r(0x72),(137)(0x89),Write,NAK
0.008452520,30,?(0x3F),BEL(0x07),Read,NAK
0.008545110,30,?(0x3F),NUL(0x00),Read,ACK
0.008814720,32,s(0x73),SOH(0x01),Read,NAK
0.009074920,34,~(0x7E),DLE(0x10),Write,ACK
0.009167500,34,~(0x7E),(198)(0xC6),Write,ACK
0.009429830,36,r(0x72),(148)(0x94),Write,ACK
0.009692030,38,~(0x7E),DC1(0x11),Write,ACK
0.009784610,38,~(0x7E),a(0x61),Write,ACK
0.009954150,,9(0x39),,Read,NAK
0.010026170,40,9(0x39),(176)(0xB0),Read,NAK
0.010306230,42,~(0x7E),DC2(0x12),Write,ACK
0.010398810,42,~(0x7E),NUL(0x00),Write,ACK
0.010661050,44,r(0x72),(149)(0x95),Write,ACK
0.010830610,,DEL(0x7F),,Read,NAK
0.010902610,46,DEL(0x7F),EOT(0x04),Read,NAK
0.010995190,46,DEL(0x7F),(177)(0xB1),Read,NAK
0.011277400,48,s(0x73),DC4(0x14),Read,NAK
0.011535540,50,~(0x7E),DC4(0x14),Write,ACK
0.011628140,50,~(0x7E),a(0x61),Write,ACK
0.011890250,52,r(0x72),(150)(0x96),Write,ACK
0.012152370,54,~(0x7E),SUB(0x1A),Write,NAK
0.012234670,54,~(0x7E),NUL(0x00),Write,ACK
0.012507120,56,s(0x73),(159)(0x9F),Read,ACK
0.012766400,58,~(0x7E),SYN(0x16),Write,ACK
0.012858980,58,~(0x7E),(198)(0xC6),Write,ACK
0.013125120,60,r(0x72),(151)(0x97),Write,ACK
0.013386580,62,~(0x7E),ETB(0x17),Write,ACK
0.013479160,62,~(0x7E),a(0x61),Write,ACK
0.013648500,,s(0x73),,Read,NAK
0.013730790,64,s(0x73),STX(0x02),Read,NAK
0.013999130,66,~(0x7E),CAN(0x18),Write,ACK
0.014091680,66,~(0x7E),NUL(0x00),Write,ACK
0.014354870,68,r(0x72),(230)(0xE6),Write,ACK
0.014664020,70,~(0x7E),FS (0x1C),Write,NAK
0.014746320,70,~(0x7E),NUL(0x00),Write,ACK
0.015002530,72,~(0x7E),CR (0x0D),Write,ACK
0.015084820,72,~(0x7E),NUL(0x00),Write,ACK
0.015341060,74,~(0x7E),CR (0x0D),Write,NAK
0.015423360,74,~(0x7E),NUL(0x00),Write,ACK
0.015679030,76,~(0x7E),FS (0x1C),Write,ACK
0.015761320,76,~(0x7E),NUL(0x00),Write,ACK
0.016002900,78,~(0x7E),SO (0x0E),Write,NAK
0.016095480,78,~(0x7E),NUL(0x00),Write,ACK
0.016349120,80,DEL(0x7F),SI (0x0F),Read,ACK
0.016441700,80,DEL(0x7F),NUL(0x00),Read,ACK
0.016697780,82,~(0x7E),US (0x1F),Write,ACK
0.016790360,82,~(0x7E),NUL(0x00),Write,ACK
0.017039170,84,~(0x7E),(SP)(0x20),Write,ACK
0.017131750,84,~(0x7E),NUL(0x00),Write,ACK
0.017377220,86,~(0x7E),!(0x21),Write,ACK
0.017469810,86,~(0x7E),NUL(0x00),Write,ACK
0.017716170,88,~(0x7E),"(0x22),Write,ACK
0.017808760,88,~(0x7E),NUL(0x00),Write,ACK
0.018054310,90,~(0x7E),#(0x23),Write,ACK
0.018146890,90,~(0x7E),NUL(0x00),Write,ACK
0.018392920,92,~(0x7E),$(0x24),Write,ACK
0.018485470,92,~(0x7E),NUL(0x00),Write,ACK
0.018727540,94,~(0x7E),SOH(0x01),Write,ACK
0.018820110,94,~(0x7E),NUL(0x00),Write,ACK
0.019065410,96,~(0x7E),STX(0x02),Write,ACK
0.019157990,96,~(0x7E),NUL(0x00),Write,ACK
0.019403870,98,~(0x7E),ETX(0x03),Write,ACK
0.019496540,98,~(0x7E),NUL(0x00),Write,ACK
0.019741940,100,~(0x7E),%(0x25),Write,ACK
0.019834520,100,~(0x7E),NUL(0x00),Write,ACK
0.021213480,102,~(0x7E),&(0x26),Write,ACK
0.021306060,102,~(0x7E),SOH(0x01),Write,ACK
0.021552100,104,~(0x7E),'(0x27),Write,ACK
0.021644680,104,~(0x7E),SOH(0x01),Write,ACK
0.021876830,106,DEL(0x7F),SYN(0x16),Read,ACK
0.021959130,106,DEL(0x7F),NUL(0x00),Read,ACK
0.036063830,108,~(0x7E),)(0x29),Write,ACK
0.036156410,108,~(0x7E),NUL(0x00),Write,NAK
0.036420400,110,~(0x7E),*(0x2A),Write,ACK
0.036512980,110,~(0x7E),SOH(0x01),Write,ACK
0.036760420,112,~(0x7E),+(0x2B),Write,ACK
0.036852980,112,~(0x7E),NUL(0x00),Write,NAK
0.037104310,114,~(0x7E),,(0x2C),Write,ACK
0.037196890,114,~(0x7E),SOH(0x01),Write,ACK
0.037440880,116,DEL(0x7F),SYN(0x16),Read,NAK
0.037533470,116,DEL(0x7F),NUL(0x00),Read,NAK
0.037776280,118,DEL(0x7F),ETB(0x17),Read,ACK
0.037868850,118,DEL(0x7F),NUL(0x00),Read,NAK
0.038134850,120,~(0x7E),/(0x2F),Write,NAK
0.038206860,120,~(0x7E),(128)(0x80),Write,ACK
0.038462880,122,?(0x3F),CAN(0x18),Read,ACK
0.038555460,122,?(0x3F),NUL(0x00),Read,NAK
0.038811570,124,~(0x7E),1(0x31),Write,ACK
0.038904160,124,~(0x7E),SOH(0x01),Write,ACK
0.039149380,126,~(0x7E),9(0x39),Write,ACK
0.039231660,126,~(0x7E),NUL(0x00),Write,NAK
0.039487680,128,~(0x7E),3(0x33),Write,ACK
0.039580350,128,~(0x7E),SOH(0x01),Write,ACK
0.039826450,130,~(0x7E),4(0x34),Write,ACK
0.039919030,130,~(0x7E),SOH(0x01),Write,ACK
0.040150980,132,~(0x7E),SUB(0x1A),Write,NAK
0.040243590,132,~(0x7E),NUL(0x00),Write,NAK
0.040499620,134,~(0x7E),6(0x36),Write,ACK
0.040592230,134,~(0x7E),NUL(0x00),Write,NAK
0.040838100,136,~(0x7E),7(0x37),Write,ACK
0.040930690,136,~(0x7E),SOH(0x01),Write,ACK
0.041175960,138,~(0x7E),8(0x38),Write,ACK
0.041268540,138,~(0x7E),SOH(0x01),Write,ACK
0.041514100,140,~(0x7E),9(0x39),Write,ACK
0.041606680,140,~(0x7E),SOH(0x01),Write,ACK
0.041851910,142,~(0x7E),:(0x3A),Write,ACK
0.041944490,142,~(0x7E),SOH(0x01),Write,ACK
0.042189820,144,~(0x7E),;(0x3B),Write,ACK
0.042282400,144,~(0x7E),SOH(0x01),Write,ACK
0.042514160,146,DEL(0x7F),RS (0x1E),Read,ACK
0.042606770,146,DEL(0x7F),NUL(0x00),Read,NAK
0.042862200,148,~(0x7E),=(0x3D),Write,ACK
0.042954820,148,~(0x7E),SOH(0x01),Write,ACK
0.043200420,150,~(0x7E),>(0x3E),Write,ACK
0.043293000,150,~(0x7E),SOH(0x01),Write,ACK
0.043528370,152,DEL(0x7F),US (0x1F),Read,NAK
0.043620970,152,DEL(0x7F),NUL(0x00),Read,NAK
0.043876370,154,~(0x7E),@(0x40),Write,ACK
0.043968950,154,~(0x7E),SOH(0x01),Write,ACK
0.044214170,156,~(0x7E),A(0x41),Write,ACK
0.044296490,156,~(0x7E),NUL(0x00),Write,NAK
0.044552270,158,~(0x7E),!(0x21),Write,ACK
0.044634580,158,~(0x7E),NUL(0x00),Write,NAK
0.044949110,160,~(0x7E),C(0x43),Write,ACK
0.045041680,160,~(0x7E),SOH(0x01),Write,ACK
0.045286360,162,~(0x7E),D(0x44),Write,ACK
0.045378940,162,~(0x7E),SOH(0x01),Write,ACK
0.045622460,164,~(0x7E),b(0x62),Write,NAK
0.045704750,164,~(0x7E),NUL(0x00),Write,NAK
0.045958230,166,~(0x7E),F(0x46),Write,ACK
0.046050810,166,~(0x7E),SOH(0x01),Write,ACK
0.046294030,168,~(0x7E),G(0x47),Write,ACK
0.046386610,168,~(0x7E),SOH(0x01),Write,ACK
0.046619460,170,?(0x3F),$(0x24),Read,ACK
0.046712040,170,?(0x3F),NUL(0x00),Read,ACK
0.046965540,172,~(0x7E),L(0x4C),Write,NAK
0.047047840,172,~(0x7E),NUL(0x00),Write,NAK
0.047289100,174,DEL(0x7F),DC2(0x12),Read,NAK
0.047381690,174,DEL(0x7F),NUL(0x00),Read,ACK
0.047896450,176,~(0x7E),EOT(0x04),Write,ACK
0.047989030,176,~(0x7E),NUL(0x00),Write,ACK
0.048233780,178,~(0x7E),ENQ(0x05),Write,ACK
0.048326350,178,~(0x7E),NUL(0x00),Write,ACK
0.048569720,180,~(0x7E),ACK(0x06),Write,ACK
0.048662310,180,~(0x7E),NUL(0x00),Write,ACK
0.049089690,182,~(0x7E),BEL(0x07),Write,ACK
0.049182270,182,~(0x7E),NUL(0x00),Write,ACK
0.049426960,184,~(0x7E),BS (0x08),Write,ACK
0.049519550,184,~(0x7E),NUL(0x00),Write,ACK
0.049768340,186,~(0x7E),HT (0x09),Write,ACK
0.049860920,186,~(0x7E),NUL(0x00),Write,ACK
0.050104440,188,~(0x7E),LF (0x0A),Write,ACK
0.050197030,188,~(0x7E),NUL(0x00),Write,ACK
0.050430690,190,~(0x7E),ENQ(0x05),Write,NAK
0.050523260,190,~(0x7E),NUL(0x00),Write,ACK
0.050776960,192,~(0x7E),FF (0x0C),Write,ACK
0.050869540,192,~(0x7E),NUL(0x00),Write,ACK
0.051113060,194,~(0x7E),CR (0x0D),Write,ACK
0.051205630,194,~(0x7E),NUL(0x00),Write,ACK
0.051438240,196,DEL(0x7F),BEL(0x07),Read,ACK
0.051530820,196,DEL(0x7F),NUL(0x00),Read,ACK
0.051773940,198,DEL(0x7F),BEL(0x07),Read,NAK
0.051866520,198,DEL(0x7F),NUL(0x00),Read,ACK
0.052120290,200,~(0x7E),BS (0x08),Write,ACK
0.052202590,200,~(0x7E),NUL(0x00),Write,ACK
0.052455870,202,~(0x7E),DC1(0x11),Write,ACK
0.052548460,202,~(0x7E),NUL(0x00),Write,ACK
0.052791670,204,~(0x7E),DC2(0x12),Write,ACK
0.052884250,204,~(0x7E),NUL(0x00),Write,ACK
0.053128010,206,~(0x7E),DC3(0x13),Write,ACK
0.053220600,206,~(0x7E),(198)(0xC6),Write,ACK
0.053464090,208,~(0x7E),DC4(0x14),Write,ACK
0.053556690,208,~(0x7E),a(0x61),Write,ACK
0.053798870,210,~(0x7E),NAK(0x15),Write,ACK
0.053891450,210,~(0x7E),NUL(0x00),Write,ACK
0.067951040,212,~(0x7E),SYN(0x16),Write,ACK
0.068043610,212,~(0x7E),(227)(0xE3),Write,ACK
0.068295600,214,~(0x7E),VT (0x0B),Write,NAK
0.068388170,214,~(0x7E),0(0x30),Write,NAK
0.068642920,216,~(0x7E),FF (0x0C),Write,ACK
0.068725240,216,~(0x7E),NUL(0x00),Write,ACK
0.068981050,218,~(0x7E),EM (0x19),Write,ACK
0.069073640,218,~(0x7E),(198)(0xC6),Write,ACK
0.069375260,220,DEL(0x7F),CR (0x0D),Read,ACK
0.069467850,220,DEL(0x7F),0(0x30),Read,NAK
0.069724020,222,~(0x7E),GS (0x1D),Write,NAK
0.069806310,222,~(0x7E),NUL(0x00),Write,ACK
0.070111080,224,~(0x7E),SO (0x0E),Write,ACK
0.070193370,224,~(0x7E),NUL(0x00),Write,ACK
0.070450030,226,~(0x7E),GS (0x1D),Write,ACK
0.070542610,226,~(0x7E),NUL(0x00),Write,ACK
0.070788050,228,~(0x7E),RS (0x1E),Write,ACK
0.070880640,228,~(0x7E),NUL(0x00),Write,ACK
0.071129910,230,~(0x7E),US (0x1F),Write,ACK
0.071222490,230,~(0x7E),NUL(0x00),Write,ACK
0.071465400,232,~(0x7E),(SP)(0x20),Write,ACK
0.071557980,232,~(0x7E),NUL(0x00),Write,ACK
0.071804070,234,~(0x7E),!(0x21),Write,ACK
0.071896650,234,~(0x7E),NUL(0x00),Write,ACK
0.072132130,236,DEL(0x7F),DC1(0x11),Read,ACK
0.072224720,236,DEL(0x7F),NUL(0x00),Read,ACK
0.072480540,238,~(0x7E),#(0x23),Write,ACK
0.072573130,238,~(0x7E),NUL(0x00),Write,ACK
0.072818930,240,~(0x7E),DC2(0x12),Write,ACK
0.072901240,240,~(0x7E),NUL(0x00),Write,ACK
0.073158110,242,~(0x7E),SOH(0x01),Write,ACK
0.073250690,242,~(0x7E),NUL(0x00),Write,ACK
0.073491940,244,~(0x7E),STX(0x02),Write,ACK
0.073584520,244,~(0x7E),NUL(0x00),Write,ACK
0.073830380,246,~(0x7E),ETX(0x03),Write,ACK
0.073923000,246,~(0x7E),NUL(0x00),Write,ACK
0.074168930,248,~(0x7E),%(0x25),Write,ACK
0.074261510,248,~(0x7E),NUL(0x00),Write,ACK
0.075646300,250,~(0x7E),&(0x26),Write,ACK
0.075738890,250,~(0x7E),NUL(0x00),Write,NAK
0.075984920,252,~(0x7E),3(0x33),Write,NAK
0.076067210,252,~(0x7E),NUL(0x00),Write,NAK
0.076323560,254,~(0x7E),((0x28),Write,ACK
0.076416140,254,~(0x7E),SOH(0x01),Write,ACK
0.076656370,256,~(0x7E),)(0x29),Write,ACK
0.076748960,256,~(0x7E),SOH(0x01),Write,ACK
0.077006290,258,~(0x7E),*(0x2A),Write,ACK
0.077098870,258,~(0x7E),SOH(0x01),Write,ACK
0.077344730,260,~(0x7E),+(0x2B),Write,ACK
0.077437300,260,~(0x7E),SOH(0x01),Write,ACK
0.077672460,262,DEL(0x7F),SYN(0x16),Read,ACK
0.077754770,262,DEL(0x7F),NUL(0x00),Read,ACK
0.078010760,264,DEL(0x7F),SYN(0x16),Read,NAK
0.078103330,264,DEL(0x7F),NUL(0x00),Read,NAK
0.078359950,266,~(0x7E),.(0x2E),Write,ACK
0.078452620,266,~(0x7E),SOH(0x01),Write,ACK
0.078697940,268,~(0x7E),/(0x2F),Write,ACK
0.078790510,268,~(0x7E),SOH(0x01),Write,ACK
0.079031530,270,~(0x7E),0(0x30),Write,ACK
0.079124100,270,~(0x7E),SOH(0x01),Write,ACK
0.079369870,272,~(0x7E),1(0x31),Write,ACK
0.079462450,272,~(0x7E),SOH(0x01),Write,ACK
0.079708190,274,~(0x7E),2(0x32),Write,ACK
0.079800760,274,~(0x7E),NUL(0x00),Write,NAK
0.080046820,276,~(0x7E),3(0x33),Write,ACK
0.080139490,276,~(0x7E),SOH(0x01),Write,ACK
0.080385340,278,~(0x7E),4(0x34),Write,ACK
0.080477910,278,~(0x7E),SOH(0x01),Write,ACK
0.080713450,280,DEL(0x7F),SUB(0x1A),Read,NAK
0.080806000,280,DEL(0x7F),NUL(0x00),Read,NAK
0.081061540,284,~(0x7E),6(0x36),Write,ACK
0.081154110,284,~(0x7E),NUL(0x00),Write,NAK
0.081385090,286,DEL(0x7F),ESC(0x1B),Read,NAK
0.081477680,286,DEL(0x7F),NUL(0x00),Read,ACK
0.081733750,288,~(0x7E),8(0x38),Write,ACK
0.081826320,288,~(0x7E),SOH(0x01),Write,ACK
0.082062140,290,DEL(0x7F),FS (0x1C),Read,NAK
0.082154720,290,DEL(0x7F),NUL(0x00),Read,NAK
0.082410540,292,~(0x7E),:(0x3A),Write,ACK
0.082503140,292,~(0x7E),SOH(0x01),Write,ACK
0.082748540,294,~(0x7E),;(0x3B),Write,ACK
0.082841210,294,~(0x7E),SOH(0x01),Write,ACK
0.083087140,296,~(0x7E),>(0x3E),Write,ACK
0.083169430,296,~(0x7E),NUL(0x00),Write,NAK
0.083425060,298,~(0x7E),=(0x3D),Write,ACK
0.083517640,298,~(0x7E),SOH(0x01),Write,ACK
0.083748610,300,DEL(0x7F),US (0x1F),Read,ACK
0.083841200,300,DEL(0x7F),NUL(0x00),Read,NAK
0.084096670,302,~(0x7E),?(0x3F),Write,ACK
0.084189240,302,~(0x7E),SOH(0x01),Write,ACK
0.084434640,304,~(0x7E),@(0x40),Write,ACK
0.084527210,304,~(0x7E),SOH(0x01),Write,NAK
0.084773250,306,~(0x7E),@(0x40),Write,NAK
0.084855540,306,~(0x7E),NUL(0x00),Write,NAK
0.085111090,308,~(0x7E),B(0x42),Write,ACK
0.085203660,308,~(0x7E),SOH(0x01),Write,ACK
0.085449800,310,~(0x7E),C(0x43),Write,NAK
0.085532100,310,~(0x7E),NUL(0x00),Write,NAK
0.085775250,312,DEL(0x7F),"(0x22),Read,ACK
0.085867840,312,DEL(0x7F),NUL(0x00),Read,NAK
0.099744610,314,~(0x7E),E(0x45),Write,ACK
0.099837160,314,~(0x7E),SOH(0x01),Write,ACK
0.100103420,316,~(0x7E),F(0x46),Write,ACK
0.100196000,316,~(0x7E),SOH(0x01),Write,ACK
0.100432310,318,DEL(0x7F),#(0x23),Read,NAK
0.100525000,318,DEL(0x7F),NUL(0x00),Read,NAK
0.100781190,320,~(0x7E),H(0x48),Write,ACK
0.100873800,320,~(0x7E),SOH(0x01),Write,ACK
0.101119070,322,~(0x7E),I(0x49),Write,ACK
0.101211650,322,~(0x7E),SOH(0x01),Write,ACK
0.101463620,324,~(0x7E),%(0x25),Write,ACK
0.101556170,324,~(0x7E),NUL(0x00),Write,ACK
0.102115440,326,~(0x7E),EOT(0x04),Write,ACK
0.102208100,326,~(0x7E),NUL(0x00),Write,ACK
0.102443000,330,?(0x3F),STX(0x02),Read,NAK
0.102535590,330,?(0x3F),NUL(0x00),Read,ACK
0.102789290,334,~(0x7E),ACK(0x06),Write,ACK
0.102881930,334,~(0x7E),NUL(0x00),Write,ACK
0.103125750,336,~(0x7E),BEL(0x07),Write,ACK
0.103218340,336,~(0x7E),NUL(0x00),Write,ACK
0.103452360,338,~(0x7E),EOT(0x04),Write,ACK
0.103545020,338,~(0x7E),NUL(0x00),Write,ACK
0.103798310,340,~(0x7E),HT (0x09),Write,ACK
0.103890890,340,~(0x7E),NUL(0x00),Write,ACK
0.104140720,342,~(0x7E),LF (0x0A),Write,ACK
0.104233300,342,~(0x7E),NUL(0x00),Write,ACK
0.104474980,344,~(0x7E),VT (0x0B),Write,ACK
0.104567560,344,~(0x7E),NUL(0x00),Write,ACK
0.104810540,346,~(0x7E),FF (0x0C),Write,ACK
0.104903130,346,~(0x7E),NUL(0x00),Write,ACK
0.105146580,348,~(0x7E),CR (0x0D),Write,ACK
0.105239250,348,~(0x7E),NUL(0x00),Write,ACK
0.105482750,350,~(0x7E),ETX(0x03),Write,NAK
0.105554760,350,~(0x7E),NUL(0x00),Write,ACK
0.105818530,352,~(0x7E),SI (0x0F),Write,NAK
0.105900830,352,~(0x7E),NUL(0x00),Write,ACK
0.106170380,354,~(0x7E),DLE(0x10),Write,ACK
0.106262960,354,~(0x7E),NUL(0x00),Write,ACK
0.106508610,356,~(0x7E),DC1(0x11),Write,ACK
0.106601190,356,~(0x7E),NUL(0x00),Write,ACK
0.106844280,358,~(0x7E),EM (0x19),Write,ACK
0.106926570,358,~(0x7E),NUL(0x00),Write,ACK
0.107179530,360,~(0x7E),DC3(0x13),Write,ACK
0.107272110,360,~(0x7E),(198)(0xC6),Write,ACK
0.107515240,362,~(0x7E),DC4(0x14),Write,ACK
0.107607820,362,~(0x7E),p(0x70),Write,NAK
0.107850880,364,~(0x7E),NAK(0x15),Write,ACK
0.107943460,364,~(0x7E),NUL(0x00),Write,ACK
0.108186120,366,~(0x7E),SYN(0x16),Write,ACK
0.108278700,366,~(0x7E),(198)(0xC6),Write,ACK
0.108513210,368,DEL(0x7F),VT (0x0B),Read,NAK
0.108605790,368,DEL(0x7F),0(0x30),Read,NAK
0.108857050,370,~(0x7E),CAN(0x18),Write,ACK
0.108949640,370,~(0x7E),NUL(0x00),Write,ACK
0.109193840,372,~(0x7E),EM (0x19),Write,ACK
0.109286420,372,~(0x7E),(198)(0xC6),Write,ACK
0.109529580,374,~(0x7E),SUB(0x1A),Write,ACK
0.109622170,374,~(0x7E),p(0x70),Write,NAK
0.109865560,376,~(0x7E),ESC(0x1B),Write,ACK
0.109958150,376,~(0x7E),NUL(0x00),Write,ACK
0.110201600,378,~(0x7E),FS (0x1C),Write,ACK
0.110294180,378,~(0x7E),NUL(0x00),Write,ACK
0.110536180,380,~(0x7E),GS (0x1D),Write,ACK
0.110628750,380,~(0x7E),NUL(0x00),Write,ACK
0.110871950,382,~(0x7E),RS (0x1E),Write,ACK
0.110964530,382,~(0x7E),NUL(0x00),Write,ACK
0.111207440,384,~(0x7E),US (0x1F),Write,ACK
0.111300020,384,~(0x7E),NUL(0x00),Write,ACK
0.111533330,386,~(0x7E),DLE(0x10),Write,ACK
0.111625910,386,~(0x7E),NUL(0x00),Write,ACK
0.111879590,388,~(0x7E),!(0x21),Write,ACK
0.111972160,388,~(0x7E),NUL(0x00),Write,ACK
0.112215120,390,~(0x7E),1(0x31),Write,ACK
0.112297440,390,~(0x7E),NUL(0x00),Write,ACK
0.112550780,392,~(0x7E),#(0x23),Write,ACK
0.112643360,392,~(0x7E),NUL(0x00),Write,ACK
0.112901700,394,DEL(0x7F),DC2(0x12),Read,ACK
0.112994270,394,DEL(0x7F),NUL(0x00),Read,ACK
0.113248310,396,~(0x7E),SOH(0x01),Write,ACK
0.113340890,396,~(0x7E),NUL(0x00),Write,ACK
0.113584260,398,~(0x7E),STX(0x02),Write,ACK
0.113676850,398,~(0x7E),NUL(0x00),Write,ACK
0.113920860,400,~(0x7E),ETX(0x03),Write,ACK
0.114013440,400,~(0x7E),NUL(0x00),Write,ACK
0.114256580,402,~(0x7E),%(0x25),Write,ACK
0.114349170,402,~(0x7E),NUL(0x00),Write,ACK
0.115993340,404,DEL(0x7F),DC3(0x13),Read,ACK
0.116085920,404,DEL(0x7F),NUL(0x00),Read,NAK
0.116340230,406,~(0x7E),'(0x27),Write,ACK
0.116432810,406,~(0x7E),NUL(0x00),Write,NAK
0.116676220,408,~(0x7E),((0x28),Write,ACK
0.116768800,408,~(0x7E),NUL(0x00),Write,NAK
0.117014090,410,~(0x7E),)(0x29),Write,ACK
0.117106670,410,~(0x7E),SOH(0x01),Write,ACK
0.117361820,412,~(0x7E),*(0x2A),Write,ACK
0.117454400,412,~(0x7E),SOH(0x01),Write,ACK
0.117699660,414,~(0x7E),+(0x2B),Write,ACK
0.117792240,414,~(0x7E),SOH(0x01),Write,ACK
0.132004390,416,~(0x7E),&(0x26),Write,ACK
0.132086690,416,~(0x7E),NUL(0x00),Write,NAK
0.132363750,418,~(0x7E),-(0x2D),Write,NAK
0.132446040,418,~(0x7E),NUL(0x00),Write,ACK
0.132703770,420,~(0x7E),.(0x2E),Write,ACK
0.132796410,420,~(0x7E),SOH(0x01),Write,ACK
0.133053130,422,~(0x7E),/(0x2F),Write,ACK
0.133145700,422,~(0x7E),SOH(0x01),Write,ACK
0.133394750,424,~(0x7E),0(0x30),Write,ACK
0.133477060,424,~(0x7E),NUL(0x00),Write,NAK
0.133733030,426,~(0x7E),1(0x31),Write,ACK
0.133825590,426,~(0x7E),SOH(0x01),Write,ACK
0.134117250,428,~(0x7E),2(0x32),Write,ACK
0.134209830,428,~(0x7E),SOH(0x01),Write,ACK
0.134455510,430,~(0x7E),3(0x33),Write,ACK
0.134548100,430,~(0x7E),SOH(0x01),Write,ACK
0.134792650,432,~(0x7E),4(0x34),Write,ACK
0.134885220,432,~(0x7E),SOH(0x01),Write,ACK
0.135130990,434,~(0x7E),5(0x35),Write,ACK
0.135223570,434,~(0x7E),SOH(0x01),Write,ACK
0.135469230,436,~(0x7E),6(0x36),Write,ACK
0.135561810,436,~(0x7E),NUL(0x00),Write,NAK
0.135807890,438,~(0x7E),7(0x37),Write,ACK
0.135900470,438,~(0x7E),SOH(0x01),Write,ACK
0.136146250,440,~(0x7E),8(0x38),Write,ACK
0.136238830,440,~(0x7E),SOH(0x01),Write,ACK
0.136483820,442,~(0x7E),9(0x39),Write,ACK
0.136576390,442,~(0x7E),SOH(0x01),Write,ACK
0.136821220,444,~(0x7E),:(0x3A),Write,ACK
0.136913810,444,~(0x7E),SOH(0x01),Write,ACK
0.137154980,446,~(0x7E),;(0x3B),Write,ACK
0.137247570,446,~(0x7E),SOH(0x01),Write,ACK
0.137492970,448,~(0x7E),<(0x3C),Write,ACK
0.137585550,448,~(0x7E),SOH(0x01),Write,ACK
0.137831200,450,~(0x7E),=(0x3D),Write,ACK
0.137923790,450,~(0x7E),SOH(0x01),Write,ACK
0.138169250,452,~(0x7E),>(0x3E),Write,ACK
0.138261830,452,~(0x7E),SOH(0x01),Write,ACK
0.138507130,454,~(0x7E),?(0x3F),Write,ACK
0.138599710,454,~(0x7E),SOH(0x01),Write,ACK
0.138845340,456,~(0x7E),(SP)(0x20),Write,ACK
0.138927640,456,~(0x7E),NUL(0x00),Write,NAK
0.139185500,458,~(0x7E),A(0x41),Write,ACK
0.139278080,458,~(0x7E),SOH(0x01),Write,ACK
0.139519090,460,~(0x7E),B(0x42),Write,ACK
0.139611810,460,~(0x7E),SOH(0x01),Write,ACK
0.139857160,462,~(0x7E),C(0x43),Write,ACK
0.139949740,462,~(0x7E),NUL(0x00),Write,NAK
0.140195450,464,~(0x7E),D(0x44),Write,ACK
0.140288050,464,~(0x7E),SOH(0x01),Write,ACK
0.140533730,466,~(0x7E),b(0x62),Write,NAK
0.140616070,466,~(0x7E),NUL(0x00),Write,NAK
0.140872460,468,~(0x7E),F(0x46),Write,ACK
0.140965040,468,~(0x7E),SOH(0x01),Write,ACK
0.141210480,470,~(0x7E),G(0x47),Write,ACK
0.141303020,470,~(0x7E),NUL(0x00),Write,NAK
0.141551370,472,~(0x7E),H(0x48),Write,ACK
0.141643950,472,~(0x7E),SOH(0x01),Write,NAK
0.141885130,474,~(0x7E),d(0x64),Write,NAK
0.141957150,474,~(0x7E),(128)(0x80),Write,ACK
0.142228310,476,~(0x7E),%(0x25),Write,ACK
0.142320890,476,~(0x7E),NUL(0x00),Write,ACK
0.142828790,478,~(0x7E),ACK(0x06),Write,ACK
0.142911070,478,~(0x7E),NUL(0x00),Write,ACK
0.143156590,480,DEL(0x7F),STX(0x02),Read,NAK
0.143249180,480,DEL(0x7F),NUL(0x00),Read,ACK
0.143503540,482,~(0x7E),ACK(0x06),Write,ACK
0.143596200,482,~(0x7E),NUL(0x00),Write,ACK
0.143828990,484,?(0x3F),ETX(0x03),Read,NAK
0.143921570,484,?(0x3F),NUL(0x00),Read,ACK
0.144165050,486,?(0x3F),EOT(0x04),Read,ACK
0.144257630,486,?(0x3F),NUL(0x00),Read,ACK
0.144511650,488,~(0x7E),HT (0x09),Write,ACK
0.144604240,488,~(0x7E),NUL(0x00),Write,ACK
0.144848270,490,~(0x7E),LF (0x0A),Write,ACK
0.144940860,490,~(0x7E),NUL(0x00),Write,ACK
0.145089750,,DEL(0x7F),,Read,NAK
0.145161760,492,DEL(0x7F),STX(0x02),Read,NAK
0.145254330,492,DEL(0x7F),(128)(0x80),Read,ACK
0.145515140,494,~(0x7E),ACK(0x06),Write,ACK
0.145597440,494,~(0x7E),NUL(0x00),Write,ACK
0.145850900,496,~(0x7E),SO (0x0E),Write,NAK
0.145933190,496,~(0x7E),NUL(0x00),Write,ACK
0.146186540,498,~(0x7E),SO (0x0E),Write,ACK
0.146279120,498,~(0x7E),NUL(0x00),Write,ACK
0.146522340,500,~(0x7E),SI (0x0F),Write,ACK
0.146614920,500,~(0x7E),NUL(0x00),Write,ACK
0.146858170,502,~(0x7E),DLE(0x10),Write,ACK
0.146950780,502,~(0x7E),NUL(0x00),Write,ACK
0.147198230,504,~(0x7E),DC1(0x11),Write,ACK
0.147290810,504,~(0x7E),NUL(0x00),Write,ACK
0.147531450,506,~(0x7E),DC2(0x12),Write,ACK
0.147624030,506,~(0x7E),NUL(0x00),Write,ACK
0.147867300,508,~(0x7E),DC3(0x13),Write,ACK
0.147959880,508,~(0x7E),(198)(0xC6),Write,ACK
0.148202600,510,~(0x7E),ENQ(0x05),Write,ACK
0.148274610,510,~(0x7E),CAN(0x18),Write,ACK
0.148593100,512,~(0x7E),NAK(0x15),Write,ACK
0.148685680,512,~(0x7E),NUL(0x00),Write,ACK
0.149045460,514,~(0x7E),SYN(0x16),Write,ACK
0.149138040,514,~(0x7E),(198)(0xC6),Write,ACK
0.149424080,516,~(0x7E),VT (0x0B),Write,NAK
0.149506370,516,~(0x7E),0(0x30),Write,NAK
0.149761820,518,~(0x7E),CAN(0x18),Write,ACK
0.149854410,518,~(0x7E),NUL(0x00),Write,ACK
0.163665720,,DEL(0x7F),,Read,NAK
0.163737770,522,DEL(0x7F),ACK(0x06),Read,ACK
0.163830360,522,DEL(0x7F),(177)(0xB1),Read,NAK
0.164116800,524,~(0x7E),SUB(0x1A),Write,ACK
0.164209390,524,~(0x7E),a(0x61),Write,ACK
0.164455400,526,~(0x7E),ESC(0x1B),Write,ACK
0.164547980,526,~(0x7E),NUL(0x00),Write,ACK
0.164793830,528,~(0x7E),FS (0x1C),Write,ACK
0.164886400,528,~(0x7E),NUL(0x00),Write,ACK
0.165129860,530,~(0x7E),GS (0x1D),Write,ACK
0.165222440,530,~(0x7E),NUL(0x00),Write,ACK
0.165466230,532,~(0x7E),RS (0x1E),Write,ACK
0.165558810,532,~(0x7E),NUL(0x00),Write,ACK
0.165802230,534,~(0x7E),US (0x1F),Write,NAK
0.165884520,534,~(0x7E),NUL(0x00),Write,ACK
0.166143570,536,~(0x7E),(SP)(0x20),Write,ACK
0.166236160,536,~(0x7E),NUL(0x00),Write,ACK
0.166480200,538,~(0x7E),!(0x21),Write,ACK
0.166572780,538,~(0x7E),NUL(0x00),Write,ACK
0.166815890,540,~(0x7E),"(0x22),Write,ACK
0.166908460,540,~(0x7E),NUL(0x00),Write,ACK
0.167141570,542,DEL(0x7F),DC1(0x11),Read,NAK
0.167234150,542,DEL(0x7F),NUL(0x00),Read,ACK
0.167488870,544,~(0x7E),$(0x24),Write,ACK
0.167581460,544,~(0x7E),NUL(0x00),Write,ACK
0.167824440,546,~(0x7E),SOH(0x01),Write,NAK
0.167906730,546,~(0x7E),NUL(0x00),Write,ACK
0.168159120,548,~(0x7E),STX(0x02),Write,ACK
0.168251700,548,~(0x7E),NUL(0x00),Write,ACK
0.168495370,550,~(0x7E),ETX(0x03),Write,ACK
0.168587950,550,~(0x7E),NUL(0x00),Write,ACK
0.168830750,552,~(0x7E),DC2(0x12),Write,NAK
0.168913050,552,~(0x7E),NUL(0x00),Write,ACK
0.170304540,554,DEL(0x7F),DC3(0x13),Read,ACK
0.170397120,554,DEL(0x7F),NUL(0x00),Read,NAK
0.170663370,556,~(0x7E),'(0x27),Write,ACK
0.170755960,556,~(0x7E),SOH(0x01),Write,ACK
0.170996820,558,~(0x7E),((0x28),Write,ACK
0.171089390,558,~(0x7E),SOH(0x01),Write,ACK
0.171334620,560,~(0x7E),)(0x29),Write,ACK
0.171427210,560,~(0x7E),NUL(0x00),Write,NAK
0.171673350,562,~(0x7E),*(0x2A),Write,ACK
0.171765930,562,~(0x7E),SOH(0x01),Write,ACK
0.172011280,564,~(0x7E),)(0x29),Write,NAK
0.172093580,564,~(0x7E),NUL(0x00),Write,NAK
0.172348900,566,DEL(0x7F),SYN(0x16),Read,ACK
0.172441480,566,DEL(0x7F),NUL(0x00),Read,ACK
0.172698430,568,~(0x7E),-(0x2D),Write,ACK
0.172791100,568,~(0x7E),SOH(0x01),Write,ACK
0.173036670,570,~(0x7E),.(0x2E),Write,ACK
0.173118960,570,~(0x7E),NUL(0x00),Write,NAK
0.173371290,572,~(0x7E),/(0x2F),Write,NAK
0.173453670,572,~(0x7E),NUL(0x00),Write,NAK
0.173699210,574,~(0x7E),CAN(0x18),Write,ACK
0.173791800,574,~(0x7E),NUL(0x00),Write,NAK
0.174052940,576,~(0x7E),1(0x31),Write,ACK
0.174145600,576,~(0x7E),SOH(0x01),Write,ACK
0.174391480,578,~(0x7E),2(0x32),Write,ACK
0.174484060,578,~(0x7E),SOH(0x01),Write,ACK
0.174730060,580,~(0x7E),3(0x33),Write,ACK
0.174822630,580,~(0x7E),SOH(0x01),Write,ACK
0.175058430,582,DEL(0x7F),SUB(0x1A),Read,ACK
0.175151000,582,DEL(0x7F),NUL(0x00),Read,NAK
0.175406800,584,~(0x7E),5(0x35),Write,ACK
0.175499380,584,~(0x7E),SOH(0x01),Write,ACK
0.175740700,586,~(0x7E),6(0x36),Write,ACK
0.175833280,586,~(0x7E),SOH(0x01),Write,ACK
0.176069130,588,?(0x3F),ESC(0x1B),Read,NAK
0.176161710,588,?(0x3F),NUL(0x00),Read,NAK
0.176406760,590,~(0x7E),FS (0x1C),Write,ACK
0.176499330,590,~(0x7E),NUL(0x00),Write,NAK
0.176755230,592,~(0x7E),FS (0x1C),Write,NAK
0.176837530,592,~(0x7E),NUL(0x00),Write,NAK
0.177093930,594,~(0x7E),:(0x3A),Write,ACK
0.177186510,594,~(0x7E),SOH(0x01),Write,ACK
0.177431890,596,~(0x7E),;(0x3B),Write,ACK
0.177524470,596,~(0x7E),SOH(0x01),Write,ACK
0.177759810,598,DEL(0x7F),RS (0x1E),Read,ACK
0.177852390,598,DEL(0x7F),NUL(0x00),Read,NAK
0.178104060,600,~(0x7E),=(0x3D),Write,ACK
0.178196640,600,~(0x7E),SOH(0x01),Write,ACK
0.178442260,602,~(0x7E),>(0x3E),Write,ACK
0.178534830,602,~(0x7E),SOH(0x01),Write,ACK
0.178780170,604,~(0x7E),?(0x3F),Write,ACK
0.178872750,604,~(0x7E),SOH(0x01),Write,ACK
0.179119240,606,~(0x7E),@(0x40),Write,ACK
0.179211840,606,~(0x7E),SOH(0x01),Write,ACK
0.179457480,608,~(0x7E),A(0x41),Write,ACK
0.179550060,608,~(0x7E),NUL(0x00),Write,NAK
0.179795610,610,~(0x7E),C(0x43),Write,ACK
0.179877900,610,~(0x7E),NUL(0x00),Write,NAK
0.180132890,612,~(0x7E),C(0x43),Write,ACK
0.180225470,612,~(0x7E),SOH(0x01),Write,ACK
0.180466370,614,~(0x7E),D(0x44),Write,ACK
0.180558960,614,~(0x7E),SOH(0x01),Write,ACK
0.180803990,616,~(0x7E),"(0x22),Write,NAK
0.180886290,616,~(0x7E),NUL(0x00),Write,NAK
0.181142960,618,~(0x7E),F(0x46),Write,ACK
0.181235550,618,~(0x7E),SOH(0x01),Write,ACK
0.181481350,620,~(0x7E),G(0x47),Write,ACK
0.181563650,620,~(0x7E),NUL(0x00),Write,NAK
0.181819500,622,~(0x7E),H(0x48),Write,ACK
0.181912080,622,~(0x7E),SOH(0x01),Write,ACK
0.194140400,624,~(0x7E),I(0x49),Write,ACK
0.194232980,624,~(0x7E),SOH(0x01),Write,ACK
0.195748110,626,DEL(0x7F),DC2(0x12),Read,NAK
0.195840690,626,DEL(0x7F),NUL(0x00),Read,ACK
0.196364710,628,DEL(0x7F),STX(0x02),Read,ACK
0.196447020,628,DEL(0x7F),NUL(0x00),Read,ACK
0.196714760,630,~(0x7E),ENQ(0x05),Write,ACK
0.196807350,630,~(0x7E),NUL(0x00),Write,ACK
0.197050890,632,~(0x7E),ACK(0x06),Write,ACK
0.197143470,632,~(0x7E),NUL(0x00),Write,ACK
0.197398810,634,~(0x7E),BEL(0x07),Write,ACK
0.197491390,634,~(0x7E),NUL(0x00),Write,ACK
0.197734940,636,~(0x7E),BS (0x08),Write,ACK
0.197827530,636,~(0x7E),NUL(0x00),Write,ACK
0.198120620,638,~(0x7E),HT (0x09),Write,ACK
0.198202930,638,~(0x7E),NUL(0x00),Write,ACK
0.198456500,640,~(0x7E),LF (0x0A),Write,ACK
0.198538820,640,~(0x7E),NUL(0x00),Write,ACK
0.198792190,642,~(0x7E),VT (0x0B),Write,ACK
0.198884870,642,~(0x7E),NUL(0x00),Write,ACK
0.199128440,644,~(0x7E),FF (0x0C),Write,ACK
0.199221030,644,~(0x7E),NUL(0x00),Write,ACK
0.199464720,646,~(0x7E),CR (0x0D),Write,ACK
0.199557300,646,~(0x7E),NUL(0x00),Write,ACK
0.199800320,648,~(0x7E),SO (0x0E),Write,ACK
0.199892930,648,~(0x7E),NUL(0x00),Write,ACK
0.200137410,650,~(0x7E),SI (0x0F),Write,ACK
0.200229990,650,~(0x7E),NUL(0x00),Write,ACK
0.200473180,652,~(0x7E),DLE(0x10),Write,ACK
0.200565730,652,~(0x7E),NUL(0x00),Write,ACK
0.200808770,654,~(0x7E),DC1(0x11),Write,ACK
0.200901450,654,~(0x7E),NUL(0x00),Write,ACK
0.201134530,656,~(0x7E),HT (0x09),Write,ACK
0.201227110,656,~(0x7E),NUL(0x00),Write,ACK
0.201478300,658,~(0x7E),DC3(0x13),Write,ACK
0.201570870,658,~(0x7E),NUL(0x00),Write,ACK
0.201814020,660,~(0x7E),LF (0x0A),Write,ACK
0.201896320,660,~(0x7E),NUL(0x00),Write,ACK
0.202150620,662,~(0x7E),NAK(0x15),Write,ACK
0.202243180,662,~(0x7E),NUL(0x00),Write,ACK
0.202486230,664,~(0x7E),SYN(0x16),Write,ACK
0.202578800,664,~(0x7E),(198)(0xC6),Write,ACK
0.202822200,666,~(0x7E),ETB(0x17),Write,ACK
0.202914780,666,~(0x7E),a(0x61),Write,ACK
0.203147670,668,DEL(0x7F),ACK(0x06),Read,ACK
0.203229980,668,DEL(0x7F),NUL(0x00),Read,ACK
0.203493690,670,~(0x7E),EM (0x19),Write,ACK
0.203586260,670,~(0x7E),(198)(0xC6),Write,ACK
0.203826710,672,~(0x7E),SUB(0x1A),Write,ACK
0.203919300,672,~(0x7E),a(0x61),Write,ACK
0.204162080,674,~(0x7E),ESC(0x1B),Write,ACK
0.204254660,674,~(0x7E),NUL(0x00),Write,ACK
0.204498130,676,~(0x7E),FS (0x1C),Write,ACK
0.204590700,676,~(0x7E),(198)(0xC6),Write,ACK
0.204824150,678,?(0x3F),SO (0x0E),Read,NAK
0.204916730,678,?(0x3F),0(0x30),Read,ACK
0.205181200,680,~(0x7E),RS (0x1E),Write,ACK
0.205273780,680,~(0x7E),NUL(0x00),Write,ACK
0.205509400,682,DEL(0x7F),SI (0x0F),Read,NAK
0.205601980,682,DEL(0x7F),NUL(0x00),Read,ACK
0.205857890,684,~(0x7E),(SP)(0x20),Write,ACK
0.205950470,684,~(0x7E),NUL(0x00),Write,ACK
0.206192940,686,~(0x7E),!(0x21),Write,ACK
0.206285530,686,~(0x7E),NUL(0x00),Write,ACK
0.206531840,688,~(0x7E),!(0x21),Write,ACK
0.206614120,688,~(0x7E),NUL(0x00),Write,ACK
0.206859560,690,DEL(0x7F),DC1(0x11),Read,NAK
0.206952140,690,DEL(0x7F),NUL(0x00),Read,ACK
0.207207840,692,~(0x7E),$(0x24),Write,ACK
0.207300420,692,~(0x7E),NUL(0x00),Write,ACK
0.207546780,694,~(0x7E),SOH(0x01),Write,ACK
0.207639360,694,~(0x7E),NUL(0x00),Write,ACK
0.207890110,698,~(0x7E),STX(0x02),Write,ACK
0.207982690,698,~(0x7E),NUL(0x00),Write,ACK
0.208228140,700,~(0x7E),SOH(0x01),Write,NAK
0.208310430,700,~(0x7E),NUL(0x00),Write,ACK
0.208563300,702,~(0x7E),%(0x25),Write,ACK
0.208655880,702,~(0x7E),NUL(0x00),Write,ACK
0.226343940,704,~(0x7E),&(0x26),Write,ACK
0.226436510,704,~(0x7E),NUL(0x00),Write,NAK
0.227884720,706,~(0x7E),'(0x27),Write,ACK
0.227977310,706,~(0x7E),SOH(0x01),Write,ACK
0.228230400,708,~(0x7E),((0x28),Write,ACK
0.228322980,708,~(0x7E),SOH(0x01),Write,ACK
0.228557890,712,?(0x3F),DC4(0x14),Read,NAK
0.228650480,712,?(0x3F),NUL(0x00),Read,NAK
0.229388900,714,~(0x7E),*(0x2A),Write,ACK
0.229481480,714,~(0x7E),SOH(0x01),Write,ACK
0.229728070,716,~(0x7E),+(0x2B),Write,ACK
0.229820660,716,~(0x7E),NUL(0x00),Write,NAK
0.230117840,718,~(0x7E),,(0x2C),Write,ACK
0.230210420,718,~(0x7E),SOH(0x01),Write,ACK
0.230453750,720,~(0x7E),-(0x2D),Write,ACK
0.230546330,720,~(0x7E),SOH(0x01),Write,ACK
0.230789250,724,~(0x7E),.(0x2E),Write,ACK
0.230881830,724,~(0x7E),SOH(0x01),Write,ACK
0.231124830,726,~(0x7E),/(0x2F),Write,ACK
0.231217410,726,~(0x7E),SOH(0x01),Write,ACK
0.231460730,728,~(0x7E),0(0x30),Write,ACK
0.231553310,728,~(0x7E),SOH(0x01),Write,ACK
0.231796770,730,~(0x7E),1(0x31),Write,ACK
0.231889350,730,~(0x7E),SOH(0x01),Write,ACK
0.232157700,732,~(0x7E),2(0x32),Write,ACK
0.232250280,732,~(0x7E),SOH(0x01),Write,ACK
0.232501630,734,~(0x7E),1(0x31),Write,NAK
0.232583920,734,~(0x7E),NUL(0x00),Write,NAK
0.232838080,736,~(0x7E),4(0x34),Write,ACK
0.232930660,736,~(0x7E),NUL(0x00),Write,NAK
0.233174230,738,~(0x7E),5(0x35),Write,ACK
0.233266810,738,~(0x7E),SOH(0x01),Write,ACK
0.233510100,740,~(0x7E),6(0x36),Write,ACK
0.233602690,740,~(0x7E),SOH(0x01),Write,ACK
0.233836420,742,DEL(0x7F),ESC(0x1B),Read,NAK
0.233929030,742,DEL(0x7F),NUL(0x00),Read,NAK
0.234182380,744,~(0x7E),8(0x38),Write,ACK
0.234274960,744,~(0x7E),SOH(0x01),Write,NAK
0.234527340,746,~(0x7E),9(0x39),Write,ACK
0.234619920,746,~(0x7E),SOH(0x01),Write,NAK
0.234872660,748,~(0x7E),:(0x3A),Write,ACK
0.234965250,748,~(0x7E),SOH(0x01),Write,ACK
0.235198430,750,~(0x7E),GS (0x1D),Write,NAK
0.235291010,750,~(0x7E),NUL(0x00),Write,NAK
0.235544470,752,~(0x7E),<(0x3C),Write,ACK
0.235637050,752,~(0x7E),SOH(0x01),Write,ACK
0.235881190,754,~(0x7E),=(0x3D),Write,ACK
0.235973770,754,~(0x7E),SOH(0x01),Write,ACK
0.236206480,756,DEL(0x7F),US (0x1F),Read,ACK
0.236299060,756,DEL(0x7F),NUL(0x00),Read,NAK
0.236552710,758,~(0x7E),?(0x3F),Write,ACK
0.236645290,758,~(0x7E),SOH(0x01),Write,ACK
0.236877440,760,DEL(0x7F),(SP)(0x20),Read,ACK
0.236959740,760,DEL(0x7F),NUL(0x00),Read,ACK
0.237249120,762,~(0x7E),A(0x41),Write,ACK
0.237341700,762,~(0x7E),SOH(0x01),Write,ACK
0.237592680,764,~(0x7E),B(0x42),Write,ACK
0.237685260,764,~(0x7E),SOH(0x01),Write,ACK
0.237928840,766,~(0x7E),C(0x43),Write,ACK
0.238021420,766,~(0x7E),NUL(0x00),Write,NAK
0.238265260,768,~(0x7E),D(0x44),Write,ACK
0.238357850,768,~(0x7E),NUL(0x00),Write,NAK
0.238600980,770,~(0x7E),E(0x45),Write,ACK
0.238693560,770,~(0x7E),SOH(0x01),Write,ACK
0.238936820,772,~(0x7E),F(0x46),Write,ACK
0.239029410,772,~(0x7E),SOH(0x01),Write,ACK
0.239272400,774,~(0x7E),G(0x47),Write,ACK
0.239364960,774,~(0x7E),SOH(0x01),Write,ACK
0.239600140,776,DEL(0x7F),$(0x24),Read,ACK
0.239692730,776,DEL(0x7F),NUL(0x00),Read,NAK
0.239960420,778,DEL(0x7F),$(0x24),Read,NAK
0.240053000,778,DEL(0x7F),NUL(0x00),Read,NAK
0.240314690,780,~(0x7E),DC2(0x12),Write,NAK
0.240397060,780,~(0x7E),NUL(0x00),Write,ACK
0.240864130,782,~(0x7E),SOH(0x01),Write,ACK
0.240956700,782,~(0x7E),NUL(0x00),Write,ACK
0.241222630,784,~(0x7E),ENQ(0x05),Write,ACK
0.241315200,784,~(0x7E),NUL(0x00),Write,ACK
0.241558700,786,~(0x7E),BEL(0x07),Write,ACK
0.241640990,786,~(0x7E),NUL(0x00),Write,ACK
0.241894610,788,~(0x7E),BEL(0x07),Write,ACK
0.241987200,788,~(0x7E),NUL(0x00),Write,ACK
0.242231430,790,~(0x7E),BS (0x08),Write,ACK
0.242313740,790,~(0x7E),NUL(0x00),Write,ACK
0.242567450,792,~(0x7E),HT (0x09),Write,ACK
0.242660120,792,~(0x7E),NUL(0x00),Write,ACK
0.242907350,794,~(0x7E),CR (0x0D),Write,ACK
0.242989650,794,~(0x7E),NUL(0x00),Write,ACK
0.243250660,796,~(0x7E),VT (0x0B),Write,ACK
0.243343310,796,~(0x7E),NUL(0x00),Write,ACK
0.243586390,798,~(0x7E),FF (0x0C),Write,ACK
0.243678990,798,~(0x7E),NUL(0x00),Write,ACK
0.243921920,800,~(0x7E),ACK(0x06),Write,NAK
0.244004200,800,~(0x7E),NUL(0x00),Write,ACK
0.244258080,802,~(0x7E),SO (0x0E),Write,ACK
0.244350670,802,~(0x7E),NUL(0x00),Write,ACK
0.244593500,804,~(0x7E),BEL(0x07),Write,NAK
0.244665510,804,~(0x7E),(128)(0x80),Write,ACK
0.244955940,806,~(0x7E),DLE(0x10),Write,ACK
0.245048520,806,~(0x7E),NUL(0x00),Write,ACK
0.245292040,808,~(0x7E),DC1(0x11),Write,ACK
0.245384630,808,~(0x7E),NUL(0x00),Write,ACK
0.245630800,810,~(0x7E),DC2(0x12),Write,ACK
0.245723380,810,~(0x7E),NUL(0x00),Write,ACK
0.245963650,812,DEL(0x7F),HT (0x09),Read,NAK
0.246056230,812,DEL(0x7F),NUL(0x00),Read,ACK
0.259880860,814,~(0x7E),DC4(0x14),Write,ACK
0.259963140,814,~(0x7E),NUL(0x00),Write,ACK
0.260239030,816,~(0x7E),NAK(0x15),Write,ACK
0.260331620,816,~(0x7E),NUL(0x00),Write,ACK
0.260583770,818,~(0x7E),SYN(0x16),Write,ACK
0.260676350,818,~(0x7E),(195)(0xC3),Write,ACK
0.260932520,820,~(0x7E),ETB(0x17),Write,ACK
0.261025210,820,~(0x7E),a(0x61),Write,ACK
0.261261310,822,DEL(0x7F),FF (0x0C),Read,ACK
0.261353880,822,DEL(0x7F),NUL(0x00),Read,ACK
0.261599640,824,DEL(0x7F),FF (0x0C),Read,NAK
0.261692220,824,DEL(0x7F),c(0x63),Read,ACK
0.261947900,826,~(0x7E),SUB(0x1A),Write,ACK
0.262040540,826,~(0x7E),a(0x61),Write,ACK
0.262300850,828,~(0x7E),ESC(0x1B),Write,ACK
0.262393440,828,~(0x7E),NUL(0x00),Write,ACK
0.262646850,830,~(0x7E),FS (0x1C),Write,ACK
0.262729160,830,~(0x7E),c(0x63),Write,ACK
0.262974950,832,DEL(0x7F),SO (0x0E),Read,NAK
0.263067530,832,DEL(0x7F),0(0x30),Read,NAK
0.263324190,834,~(0x7E),RS (0x1E),Write,ACK
0.263416770,834,~(0x7E),NUL(0x00),Write,ACK
0.263661940,836,~(0x7E),US (0x1F),Write,ACK
0.263754500,836,~(0x7E),NUL(0x00),Write,ACK
0.263989650,838,DEL(0x7F),DLE(0x10),Read,ACK
0.264071950,838,DEL(0x7F),NUL(0x00),Read,ACK
0.264338690,840,~(0x7E),!(0x21),Write,ACK
0.264431360,840,~(0x7E),NUL(0x00),Write,ACK
0.264676670,842,~(0x7E),"(0x22),Write,ACK
0.264769250,842,~(0x7E),NUL(0x00),Write,ACK
0.265034240,844,~(0x7E),#(0x23),Write,ACK
0.265126820,844,~(0x7E),NUL(0x00),Write,ACK
0.265368920,846,?(0x3F),DC2(0x12),Read,ACK
0.265461500,846,?(0x3F),NUL(0x00),Read,ACK
0.265704890,848,?(0x3F),NUL(0x00),Read,NAK
0.265797470,848,?(0x3F),NUL(0x00),Read,ACK
0.266050970,850,~(0x7E),STX(0x02),Write,ACK
0.266143560,850,~(0x7E),NUL(0x00),Write,ACK
0.266376660,852,?(0x3F),SOH(0x01),Read,NAK
0.266469250,852,?(0x3F),NUL(0x00),Read,ACK
0.266722710,854,~(0x7E),%(0x25),Write,ACK
0.266815290,854,~(0x7E),NUL(0x00),Write,ACK
0.268195690,856,DEL(0x7F),DC3(0x13),Read,ACK
0.268288260,856,DEL(0x7F),NUL(0x00),Read,ACK
0.268555280,858,~(0x7E),'(0x27),Write,ACK
0.268647860,858,~(0x7E),SOH(0x01),Write,ACK
0.269027400,860,~(0x7E),((0x28),Write,ACK
0.269119970,860,~(0x7E),SOH(0x01),Write,ACK
0.269365780,862,~(0x7E),)(0x29),Write,ACK
0.269458360,862,~(0x7E),SOH(0x01),Write,ACK
0.269701700,864,~(0x7E),*(0x2A),Write,ACK
0.269794290,864,~(0x7E),SOH(0x01),Write,ACK
0.270050270,866,~(0x7E),+(0x2B),Write,ACK
0.270142840,866,~(0x7E),SOH(0x01),Write,ACK
0.270389020,868,~(0x7E),,(0x2C),Write,ACK
0.270481610,868,~(0x7E),SOH(0x01),Write,ACK
0.270727830,870,~(0x7E),-(0x2D),Write,ACK
0.270810130,870,~(0x7E),NUL(0x00),Write,NAK
0.271065490,872,~(0x7E),.(0x2E),Write,ACK
0.271158070,872,~(0x7E),SOH(0x01),Write,NAK
0.271403160,874,~(0x7E),/(0x2F),Write,ACK
0.271495740,874,~(0x7E),NUL(0x00),Write,NAK
0.271741960,876,~(0x7E),0(0x30),Write,ACK
0.271834540,876,~(0x7E),SOH(0x01),Write,ACK
0.272081950,878,~(0x7E),1(0x31),Write,ACK
0.272174530,878,~(0x7E),SOH(0x01),Write,ACK
0.272441510,880,~(0x7E),2(0x32),Write,ACK
0.272534080,880,~(0x7E),NUL(0x00),Write,NAK
0.272788270,882,~(0x7E),1(0x31),Write,NAK
0.272870590,882,~(0x7E),NUL(0x00),Write,NAK
0.273119150,884,DEL(0x7F),SUB(0x1A),Read,ACK
0.273211740,884,DEL(0x7F),NUL(0x00),Read,ACK
0.273465040,886,~(0x7E),5(0x35),Write,ACK
0.273557620,886,~(0x7E),SOH(0x01),Write,ACK
0.273801110,888,~(0x7E),7(0x37),Write,ACK
0.273883400,888,~(0x7E),NUL(0x00),Write,NAK
0.274136650,890,~(0x7E),7(0x37),Write,ACK
0.274229230,890,~(0x7E),SOH(0x01),Write,ACK
0.274472340,892,~(0x7E),8(0x38),Write,ACK
0.274564930,892,~(0x7E),SOH(0x01),Write,ACK
0.274808360,894,~(0x7E),9(0x39),Write,ACK
0.274900940,894,~(0x7E),SOH(0x01),Write,ACK
0.275147630,896,~(0x7E),:(0x3A),Write,ACK
0.275240210,896,~(0x7E),SOH(0x01),Write,ACK
0.275483940,898,~(0x7E),;(0x3B),Write,ACK
0.275576520,898,~(0x7E),SOH(0x01),Write,NAK
0.275820070,900,~(0x7E),<(0x3C),Write,ACK
0.275912650,900,~(0x7E),SOH(0x01),Write,ACK
0.276145420,902,~(0x7E),RS (0x1E),Write,NAK
0.276238000,902,~(0x7E),NUL(0x00),Write,NAK
0.276491480,904,~(0x7E),>(0x3E),Write,ACK
0.276584060,904,~(0x7E),SOH(0x01),Write,ACK
0.276827320,906,~(0x7E),?(0x3F),Write,ACK
0.276919900,906,~(0x7E),SOH(0x01),Write,ACK
0.277170060,908,~(0x7E),@(0x40),Write,ACK
0.277262630,908,~(0x7E),SOH(0x01),Write,ACK
0.277531220,910,~(0x7E),A(0x41),Write,ACK
0.277623800,910,~(0x7E),SOH(0x01),Write,ACK
0.277867020,912,~(0x7E),!(0x21),Write,ACK
0.277959600,912,~(0x7E),NUL(0x00),Write,NAK
0.292043020,914,~(0x7E),C(0x43),Write,ACK
0.292135570,914,~(0x7E),SOH(0x01),Write,ACK
0.292400150,916,~(0x7E),B(0x42),Write,ACK
0.292482480,916,~(0x7E),NUL(0x00),Write,NAK
0.292729360,918,DEL(0x7F),"(0x22),Read,NAK
0.292821940,918,DEL(0x7F),NUL(0x00),Read,NAK
0.293088170,920,~(0x7E),F(0x46),Write,ACK
0.293180800,920,~(0x7E),SOH(0x01),Write,ACK
0.293435380,922,~(0x7E),G(0x47),Write,ACK
0.293527950,922,~(0x7E),SOH(0x01),Write,ACK
0.293681260,,DEL(0x7F),,Read,NAK
0.293753270,924,DEL(0x7F),DC2(0x12),Read,ACK
0.293845860,924,DEL(0x7F),NUL(0x00),Read,ACK
0.294120010,926,DEL(0x7F),$(0x24),Read,NAK
0.294202320,926,DEL(0x7F),(128)(0x80),Read,ACK
0.294464690,928,~(0x7E),%(0x25),Write,ACK
0.294557270,928,~(0x7E),NUL(0x00),Write,ACK
0.295051410,930,DEL(0x7F),STX(0x02),Read,ACK
0.295143990,930,DEL(0x7F),NUL(0x00),Read,ACK
0.295423810,932,~(0x7E),ENQ(0x05),Write,ACK
0.295516400,932,~(0x7E),NUL(0x00),Write,ACK
0.295755360,934,DEL(0x7F),ETX(0x03),Read,ACK
0.295847950,934,DEL(0x7F),NUL(0x00),Read,ACK
0.296092120,936,DEL(0x7F),ETX(0x03),Read,NAK
0.296184700,936,DEL(0x7F),NUL(0x00),Read,ACK
0.296438040,938,~(0x7E),BS (0x08),Write,ACK
0.296530630,938,~(0x7E),NUL(0x00),Write,ACK
0.296773960,940,~(0x7E),HT (0x09),Write,ACK
0.296866540,940,~(0x7E),NUL(0x00),Write,ACK
0.297099530,942,~(0x7E),ENQ(0x05),Write,ACK
0.297192100,942,~(0x7E),NUL(0x00),Write,ACK
0.297450280,944,~(0x7E),VT (0x0B),Write,ACK
0.297542860,944,~(0x7E),NUL(0x00),Write,ACK
0.297793880,946,~(0x7E),ETX(0x03),Write,ACK
0.297865890,946,~(0x7E),NUL(0x00),Write,ACK
0.298129980,948,~(0x7E),CR (0x0D),Write,ACK
0.298222570,948,~(0x7E),NUL(0x00),Write,ACK
0.298465400,950,~(0x7E),SI (0x0F),Write,ACK
0.298547700,950,~(0x7E),NUL(0x00),Write,ACK
0.298801340,952,~(0x7E),SI (0x0F),Write,NAK
0.298883630,952,~(0x7E),NUL(0x00),Write,ACK
0.299137210,954,~(0x7E),DLE(0x10),Write,ACK
0.299229790,954,~(0x7E),NUL(0x00),Write,ACK
0.299472810,956,~(0x7E),DC1(0x11),Write,ACK
0.299565470,956,~(0x7E),NUL(0x00),Write,ACK
0.299798610,958,DEL(0x7F),HT (0x09),Read,ACK
0.299891200,958,DEL(0x7F),NUL(0x00),Read,ACK
0.300168360,960,~(0x7E),DC3(0x13),Write,ACK
0.300260950,960,~(0x7E),NUL(0x00),Write,ACK
0.300520070,962,~(0x7E),DC4(0x14),Write,ACK
0.300612740,962,~(0x7E),NUL(0x00),Write,ACK
0.300856300,964,~(0x7E),NAK(0x15),Write,ACK
0.300948900,964,~(0x7E),NUL(0x00),Write,ACK
0.301192400,966,~(0x7E),DC3(0x13),Write,ACK
0.301274680,966,~(0x7E),NUL(0x00),Write,ACK
0.301528300,968,~(0x7E),ETB(0x17),Write,ACK
0.301620900,968,~(0x7E),NUL(0x00),Write,ACK
0.301864090,970,~(0x7E),CAN(0x18),Write,ACK
0.301956670,970,~(0x7E),NUL(0x00),Write,ACK
0.302198230,972,~(0x7E),EM (0x19),Write,ACK
0.302290810,972,~(0x7E),(198)(0xC6),Write,ACK
0.302531700,974,DEL(0x7F),CR (0x0D),Read,ACK
0.302624280,974,DEL(0x7F),0(0x30),Read,NAK
0.302878000,976,~(0x7E),ESC(0x1B),Write,ACK
0.302970590,976,~(0x7E),NUL(0x00),Write,ACK
0.303214000,980,~(0x7E),FS (0x1C),Write,ACK
0.303306580,980,~(0x7E),(198)(0xC6),Write,ACK
0.303549590,982,~(0x7E),GS (0x1D),Write,ACK
0.303642170,982,~(0x7E),a(0x61),Write,ACK
0.303885380,984,~(0x7E),RS (0x1E),Write,ACK
0.303977960,984,~(0x7E),NUL(0x00),Write,ACK
0.304221300,986,~(0x7E),US (0x1F),Write,ACK
0.304313880,986,~(0x7E),(198)(0xC6),Write,ACK
0.304546270,988,DEL(0x7F),DLE(0x10),Read,ACK
0.304638850,988,DEL(0x7F),0(0x30),Read,ACK
0.304952870,990,DEL(0x7F),DLE(0x10),Read,NAK
0.305045450,990,DEL(0x7F),NUL(0x00),Read,ACK
0.305315110,992,~(0x7E),"(0x22),Write,ACK
0.305407690,992,~(0x7E),NUL(0x00),Write,ACK
0.305661260,994,~(0x7E),#(0x23),Write,ACK
0.305753840,994,~(0x7E),NUL(0x00),Write,ACK
0.305999500,996,~(0x7E),&(0x26),Write,ACK
0.306081790,996,~(0x7E),NUL(0x00),Write,ACK
0.306338210,998,~(0x7E),SOH(0x01),Write,ACK
0.306430790,998,~(0x7E),NUL(0x00),Write,ACK
0.306677130,1000,~(0x7E),STX(0x02),Write,ACK
0.306769710,1000,~(0x7E),NUL(0x00),Write,ACK
0.307014850,1002,~(0x7E),ETX(0x03),Write,ACK
0.307107430,1002,~(0x7E),NUL(0x00),Write,ACK
0.307353120,1004,~(0x7E),%(0x25),Write,ACK
0.307445700,1004,~(0x7E),NUL(0x00),Write,ACK
0.323825110,1006,~(0x7E),&(0x26),Write,ACK
0.323917770,1006,~(0x7E),SOH(0x01),Write,ACK
0.324185970,1008,~(0x7E),DC3(0x13),Write,NAK
0.324268270,1008,~(0x7E),NUL(0x00),Write,NAK
0.324516440,1010,?(0x3F),DC4(0x14),Read,ACK
0.324609020,1010,?(0x3F),NUL(0x00),Read,NAK
0.324865050,1012,~(0x7E),)(0x29),Write,ACK
0.324957630,1012,~(0x7E),SOH(0x01),Write,NAK
0.325190630,1014,DEL(0x7F),NAK(0x15),Read,ACK
0.325283220,1014,DEL(0x7F),NUL(0x00),Read,NAK
0.325537090,1016,~(0x7E),%(0x25),Write,NAK
0.325619390,1016,~(0x7E),NUL(0x00),Write,NAK
0.325860360,1018,DEL(0x7F),SYN(0x16),Read,ACK
0.325952940,1018,DEL(0x7F),NUL(0x00),Read,NAK
0.326214440,1020,~(0x7E),-(0x2D),Write,ACK
0.326307020,1020,~(0x7E),SOH(0x01),Write,ACK
0.326550790,1022,~(0x7E),/(0x2F),Write,ACK
0.326633090,1022,~(0x7E),NUL(0x00),Write,NAK
0.326886370,1024,~(0x7E),/(0x2F),Write,ACK
0.326968680,1024,~(0x7E),NUL(0x00),Write,NAK
0.327222200,1026,~(0x7E),0(0x30),Write,ACK
0.327314790,1026,~(0x7E),SOH(0x01),Write,ACK
0.327558840,1028,~(0x7E),8(0x38),Write,NAK
0.327641130,1028,~(0x7E),NUL(0x00),Write,NAK
0.327894670,1030,~(0x7E),2(0x32),Write,ACK
0.327987250,1030,~(0x7E),NUL(0x00),Write,NAK
0.328232490,1032,~(0x7E),3(0x33),Write,ACK
0.328325080,1032,~(0x7E),SOH(0x01),Write,ACK
0.328592640,1034,~(0x7E),4(0x34),Write,ACK
0.328685230,1034,~(0x7E),SOH(0x01),Write,ACK
0.328998530,1036,~(0x7E),:(0x3A),Write,NAK
0.329080830,1036,~(0x7E),NUL(0x00),Write,NAK
0.329337590,1038,~(0x7E),6(0x36),Write,ACK
0.329430160,1038,~(0x7E),SOH(0x01),Write,ACK
0.329675980,1040,~(0x7E),3(0x33),Write,NAK
0.329758280,1040,~(0x7E),NUL(0x00),Write,NAK
0.330003990,1042,DEL(0x7F),FS (0x1C),Read,ACK
0.330096580,1042,DEL(0x7F),NUL(0x00),Read,NAK
0.330352520,1044,~(0x7E),9(0x39),Write,ACK
0.330445100,1044,~(0x7E),SOH(0x01),Write,ACK
0.330690440,1046,~(0x7E),GS (0x1D),Write,ACK
0.330772740,1046,~(0x7E),NUL(0x00),Write,NAK
0.331016780,1048,DEL(0x7F),GS (0x1D),Read,NAK
0.331109360,1048,DEL(0x7F),NUL(0x00),Read,NAK
0.331375760,1050,DEL(0x7F),US (0x1F),Read,ACK
0.331458060,1050,DEL(0x7F),NUL(0x00),Read,ACK
0.331731740,1052,~(0x7E),=(0x3D),Write,ACK
0.331824330,1052,~(0x7E),SOH(0x01),Write,ACK
0.332069480,1054,~(0x7E),>(0x3E),Write,ACK
0.332162070,1054,~(0x7E),NUL(0x00),Write,NAK
0.332445430,1056,~(0x7E),?(0x3F),Write,ACK
0.332538000,1056,~(0x7E),NUL(0x00),Write,NAK
0.332783650,1058,~(0x7E),@(0x40),Write,ACK
0.332876240,1058,~(0x7E),SOH(0x01),Write,ACK
0.333122070,1060,~(0x7E),A(0x41),Write,NAK
0.333204380,1060,~(0x7E),NUL(0x00),Write,NAK
0.333460410,1062,~(0x7E),B(0x42),Write,ACK
0.333553070,1062,~(0x7E),SOH(0x01),Write,ACK
0.333796830,1064,~(0x7E),C(0x43),Write,ACK
0.333889410,1064,~(0x7E),SOH(0x01),Write,ACK
0.334181650,1066,~(0x7E),B(0x42),Write,ACK
0.334263950,1066,~(0x7E),NUL(0x00),Write,NAK
0.334520410,1068,~(0x7E),E(0x45),Write,ACK
0.334613000,1068,~(0x7E),SOH(0x01),Write,ACK
0.334858530,1070,~(0x7E),C(0x43),Write,NAK
0.334930540,1070,~(0x7E),NUL(0x00),Write,ACK
0.335196560,1072,~(0x7E),G(0x47),Write,ACK
0.335289140,1072,~(0x7E),SOH(0x01),Write,ACK
0.335534880,1074,~(0x7E),H(0x48),Write,ACK
0.335627460,1074,~(0x7E),SOH(0x01),Write,ACK
0.335862740,1076,~(0x7E),$(0x24),Write,NAK
0.335955300,1076,~(0x7E),NUL(0x00),Write,NAK
0.336216270,1078,~(0x7E),%(0x25),Write,ACK
0.336308850,1078,~(0x7E),NUL(0x00),Write,ACK
0.336811670,1080,~(0x7E),STX(0x02),Write,ACK
0.336893970,1080,~(0x7E),NUL(0x00),Write,ACK
0.337149020,1082,~(0x7E),STX(0x02),Write,NAK
0.337231340,1082,~(0x7E),NUL(0x00),Write,ACK
0.337527320,1084,~(0x7E),ACK(0x06),Write,ACK
0.337619910,1084,~(0x7E),NUL(0x00),Write,ACK
0.337853200,1086,DEL(0x7F),ETX(0x03),Read,NAK
0.337945790,1086,DEL(0x7F),NUL(0x00),Read,ACK
0.338199330,1088,~(0x7E),BS (0x08),Write,ACK
0.338292000,1088,~(0x7E),NUL(0x00),Write,ACK
0.338554270,1090,~(0x7E),HT (0x09),Write,NAK
0.338636570,1090,~(0x7E),NUL(0x00),Write,ACK
0.338899000,1092,~(0x7E),LF (0x0A),Write,ACK
0.338991570,1092,~(0x7E),NUL(0x00),Write,ACK
0.339235870,1094,~(0x7E),VT (0x0B),Write,ACK
0.339328540,1094,~(0x7E),NUL(0x00),Write,ACK
0.339571740,1096,~(0x7E),FF (0x0C),Write,ACK
0.339664320,1096,~(0x7E),NUL(0x00),Write,ACK
0.339907750,1098,~(0x7E),CR (0x0D),Write,ACK
0.340000320,1098,~(0x7E),NUL(0x00),Write,ACK
0.340243470,1100,~(0x7E),SO (0x0E),Write,ACK
0.340336060,1100,~(0x7E),NUL(0x00),Write,ACK
0.340579260,1102,~(0x7E),SI (0x0F),Write,ACK
0.340671930,1102,~(0x7E),NUL(0x00),Write,ACK
0.340950420,1104,DEL(0x7F),BS (0x08),Read,ACK
0.341043000,1104,DEL(0x7F),NUL(0x00),Read,ACK
0.341300330,1106,~(0x7E),DC1(0x11),Write,ACK
0.341392950,1106,~(0x7E),NUL(0x00),Write,ACK
0.341651490,1108,?(0x3F),HT (0x09),Read,ACK
0.341744070,1108,?(0x3F),NUL(0x00),Read,ACK
0.342006260,1110,~(0x7E),DC3(0x13),Write,ACK
0.342098830,1110,~(0x7E),NUL(0x00),Write,ACK
0.355892050,1112,~(0x7E),DC4(0x14),Write,ACK
0.355984630,1112,~(0x7E),NUL(0x00),Write,ACK
0.356237200,1114,DEL(0x7F),LF (0x0A),Read,NAK
0.356329790,1114,DEL(0x7F),NUL(0x00),Read,ACK
0.356586510,1116,~(0x7E),SYN(0x16),Write,ACK
0.356679090,1116,~(0x7E),NUL(0x00),Write,ACK
0.356949440,1118,DEL(0x7F),VT (0x0B),Read,NAK
0.357042020,1118,DEL(0x7F),NUL(0x00),Read,ACK
0.357298040,1120,~(0x7E),CAN(0x18),Write,ACK
0.357390620,1120,~(0x7E),NUL(0x00),Write,ACK
0.357636980,1122,~(0x7E),EM (0x19),Write,ACK
0.357729560,1122,~(0x7E),(198)(0xC6),Write,ACK
0.357974860,1124,~(0x7E),SUB(0x1A),Write,ACK
0.358067450,1124,~(0x7E),a(0x61),Write,ACK
0.358311730,1126,~(0x7E),ESC(0x1B),Write,ACK
0.358404310,1126,~(0x7E),NUL(0x00),Write,ACK
0.358657660,1128,~(0x7E),RS (0x1E),Write,ACK
0.358739960,1128,~(0x7E),c(0x63),Write,ACK
0.358996170,1130,~(0x7E),GS (0x1D),Write,ACK
0.359088750,1130,~(0x7E),`(0x60),Write,NAK
0.359334850,1132,~(0x7E),RS (0x1E),Write,ACK
0.359427440,1132,~(0x7E),NUL(0x00),Write,ACK
0.359673500,1134,~(0x7E),US (0x1F),Write,ACK
0.359766080,1134,~(0x7E),(227)(0xE3),Write,ACK
0.360001580,1136,~(0x7E),DLE(0x10),Write,ACK
0.360094230,1136,~(0x7E),0(0x30),Write,NAK
0.360350150,1138,~(0x7E),!(0x21),Write,ACK
0.360442770,1138,~(0x7E),NUL(0x00),Write,ACK
0.360688830,1140,~(0x7E),"(0x22),Write,ACK
0.360781410,1140,~(0x7E),NUL(0x00),Write,ACK
0.361049860,1142,~(0x7E),#(0x23),Write,ACK
0.361142450,1142,~(0x7E),NUL(0x00),Write,ACK
0.361396370,1144,~(0x7E),$(0x24),Write,ACK
0.361488960,1144,~(0x7E),NUL(0x00),Write,ACK
0.361734560,1148,~(0x7E),SOH(0x01),Write,ACK
0.361827140,1148,~(0x7E),NUL(0x00),Write,ACK
0.362062790,1150,~(0x7E),SOH(0x01),Write,ACK
0.362155360,1150,~(0x7E),NUL(0x00),Write,ACK
0.362411630,1152,~(0x7E),ETX(0x03),Write,ACK
0.362504220,1152,~(0x7E),NUL(0x00),Write,ACK
0.362749590,1154,~(0x7E),%(0x25),Write,ACK
0.362842260,1154,~(0x7E),NUL(0x00),Write,ACK
0.364241010,1156,~(0x7E),&(0x26),Write,ACK
0.364333590,1156,~(0x7E),SOH(0x01),Write,ACK
0.364577630,1158,~(0x7E),'(0x27),Write,ACK
0.364670220,1158,~(0x7E),SOH(0x01),Write,ACK
0.364941600,1160,~(0x7E),((0x28),Write,ACK
0.365034180,1160,~(0x7E),SOH(0x01),Write,ACK
0.365267090,1162,DEL(0x7F),DC4(0x14),Read,NAK
0.365359660,1162,DEL(0x7F),NUL(0x00),Read,NAK
0.365613550,1164,~(0x7E),*(0x2A),Write,ACK
0.365706130,1164,~(0x7E),SOH(0x01),Write,ACK
0.365949270,1166,~(0x7E),+(0x2B),Write,ACK
0.366041860,1166,~(0x7E),SOH(0x01),Write,ACK
0.366274920,1168,~(0x7E),SYN(0x16),Write,ACK
0.366367490,1168,~(0x7E),NUL(0x00),Write,NAK
0.366621590,1170,~(0x7E),.(0x2E),Write,NAK
0.366703860,1170,~(0x7E),NUL(0x00),Write,ACK
0.366958700,1172,~(0x7E),.(0x2E),Write,ACK
0.367051280,1172,~(0x7E),NUL(0x00),Write,NAK
0.367318940,1174,~(0x7E),/(0x2F),Write,ACK
0.367411520,1174,~(0x7E),NUL(0x00),Write,NAK
0.367652750,1176,DEL(0x7F),CAN(0x18),Read,ACK
0.367745330,1176,DEL(0x7F),NUL(0x00),Read,NAK
0.368003950,1178,~(0x7E),1(0x31),Write,ACK
0.368096530,1178,~(0x7E),SOH(0x01),Write,ACK
0.368339910,1180,~(0x7E),2(0x32),Write,ACK
0.368432490,1180,~(0x7E),SOH(0x01),Write,ACK
0.368675390,1182,~(0x7E),3(0x33),Write,ACK
0.368767980,1182,~(0x7E),SOH(0x01),Write,ACK
0.369024510,1184,~(0x7E),4(0x34),Write,ACK
0.369117090,1184,~(0x7E),SOH(0x01),Write,NAK
0.369352690,1186,DEL(0x7F),SUB(0x1A),Read,NAK
0.369445270,1186,DEL(0x7F),NUL(0x00),Read,NAK
0.369701780,1188,~(0x7E),6(0x36),Write,ACK
0.369794370,1188,~(0x7E),SOH(0x01),Write,ACK
0.370053450,1190,~(0x7E),7(0x37),Write,ACK
0.370146030,1190,~(0x7E),SOH(0x01),Write,ACK
0.370400200,1192,~(0x7E),8(0x38),Write,ACK
0.370492870,1192,~(0x7E),SOH(0x01),Write,ACK
0.370738350,1194,~(0x7E),9(0x39),Write,ACK
0.370830930,1194,~(0x7E),SOH(0x01),Write,NAK
0.371076140,1196,~(0x7E),:(0x3A),Write,ACK
0.371168720,1196,~(0x7E),SOH(0x01),Write,ACK
0.371414550,1198,~(0x7E),;(0x3B),Write,ACK
0.371507130,1198,~(0x7E),SOH(0x01),Write,ACK
0.371752350,1200,~(0x7E),>(0x3E),Write,ACK
0.371834650,1200,~(0x7E),NUL(0x00),Write,NAK
0.372080120,1202,DEL(0x7F),RS (0x1E),Read,NAK
0.372172700,1202,DEL(0x7F),NUL(0x00),Read,NAK
0.372430630,1204,~(0x7E),?(0x3F),Write,ACK
0.372512930,1204,~(0x7E),NUL(0x00),Write,NAK
0.372777880,1206,DEL(0x7F),US (0x1F),Read,NAK
0.372870470,1206,DEL(0x7F),NUL(0x00),Read,NAK
0.373127990,1208,~(0x7E),(SP)(0x20),Write,ACK
0.373220570,1208,~(0x7E),NUL(0x00),Write,NAK
0.373476820,1210,~(0x7E),`(0x60),Write,NAK
0.373559110,1210,~(0x7E),NUL(0x00),Write,NAK
0.373814840,1214,~(0x7E),C(0x43),Write,ACK
0.373897130,1214,~(0x7E),NUL(0x00),Write,NAK
0.387826150,1216,~(0x7E),C(0x43),Write,ACK
0.387918730,1216,~(0x7E),SOH(0x01),Write,ACK
0.388184540,1218,~(0x7E),D(0x44),Write,ACK
0.388277130,1218,~(0x7E),NUL(0x00),Write,NAK
0.388523010,1220,~(0x7E),E(0x45),Write,ACK
0.388615590,1220,~(0x7E),SOH(0x01),Write,ACK
0.388851150,1222,DEL(0x7F),#(0x23),Read,ACK
0.388943730,1222,DEL(0x7F),NUL(0x00),Read,ACK
0.389199900,1224,~(0x7E),G(0x47),Write,ACK
0.389292490,1224,~(0x7E),SOH(0x01),Write,ACK
0.389538160,1226,~(0x7E),H(0x48),Write,ACK
0.389630750,1226,~(0x7E),SOH(0x01),Write,ACK
0.389877830,1228,~(0x7E),I(0x49),Write,ACK
0.389970390,1228,~(0x7E),SOH(0x01),Write,ACK
0.390224420,1230,~(0x7E),%(0x25),Write,ACK
0.390317000,1230,~(0x7E),NUL(0x00),Write,ACK
0.390824730,1232,~(0x7E),STX(0x02),Write,ACK
0.390907020,1232,~(0x7E),NUL(0x00),Write,ACK
0.391162530,1234,~(0x7E),ENQ(0x05),Write,ACK
0.391255100,1234,~(0x7E),NUL(0x00),Write,ACK
0.391499070,1236,~(0x7E),ACK(0x06),Write,ACK
0.391591660,1236,~(0x7E),NUL(0x00),Write,ACK
0.391834890,1238,~(0x7E),BEL(0x07),Write,ACK
0.391927470,1238,~(0x7E),NUL(0x00),Write,ACK
0.392170640,1240,~(0x7E),BS (0x08),Write,ACK
0.392263230,1240,~(0x7E),NUL(0x00),Write,ACK
0.392506700,1242,~(0x7E),EOT(0x04),Write,NAK
0.392588990,1242,~(0x7E),NUL(0x00),Write,ACK
0.392836010,1244,DEL(0x7F),ENQ(0x05),Read,ACK
0.392928590,1244,DEL(0x7F),NUL(0x00),Read,ACK
0.393207940,1246,~(0x7E),VT (0x0B),Write,ACK
0.393300520,1246,~(0x7E),NUL(0x00),Write,ACK
0.393542220,1248,DEL(0x7F),ACK(0x06),Read,ACK
0.393634800,1248,DEL(0x7F),NUL(0x00),Read,ACK
0.393888310,1250,~(0x7E),CR (0x0D),Write,ACK
0.393980870,1250,~(0x7E),NUL(0x00),Write,ACK
0.394224120,1252,~(0x7E),SI (0x0F),Write,ACK
0.394306410,1252,~(0x7E),NUL(0x00),Write,ACK
0.394549910,1254,DEL(0x7F),BEL(0x07),Read,NAK
0.394642490,1254,DEL(0x7F),NUL(0x00),Read,ACK
0.394895590,1256,~(0x7E),DLE(0x10),Write,ACK
0.394977920,1256,~(0x7E),NUL(0x00),Write,ACK
0.395220980,1258,DEL(0x7F),BS (0x08),Read,NAK
0.395313570,1258,DEL(0x7F),NUL(0x00),Read,ACK
0.395567590,1260,~(0x7E),DC1(0x11),Write,ACK
0.395649880,1260,~(0x7E),NUL(0x00),Write,ACK
0.395917730,1262,~(0x7E),HT (0x09),Write,NAK
0.396010320,1262,~(0x7E),NUL(0x00),Write,ACK
0.396272540,1264,~(0x7E),DC4(0x14),Write,ACK
0.396354830,1264,~(0x7E),NUL(0x00),Write,ACK
0.396608820,1266,~(0x7E),NAK(0x15),Write,ACK
0.396701390,1266,~(0x7E),NUL(0x00),Write,ACK
0.397011900,1268,~(0x7E),SYN(0x16),Write,ACK
0.397104480,1268,~(0x7E),NUL(0x00),Write,ACK
0.397348570,1270,~(0x7E),ETB(0x17),Write,ACK
0.397441160,1270,~(0x7E),NUL(0x00),Write,ACK
0.397684630,1272,~(0x7E),CAN(0x18),Write,ACK
0.397777210,1272,~(0x7E),NUL(0x00),Write,ACK
0.398020250,1274,~(0x7E),FF (0x0C),Write,NAK
0.398092270,1274,~(0x7E),(128)(0x80),Write,ACK
0.398356340,1276,~(0x7E),SUB(0x1A),Write,ACK
0.398448930,1276,~(0x7E),NUL(0x00),Write,ACK
0.398681990,1278,DEL(0x7F),CR (0x0D),Read,NAK
0.398774750,1278,DEL(0x7F),NUL(0x00),Read,ACK
0.399040720,1282,~(0x7E),FS (0x1C),Write,ACK
0.399133260,1282,~(0x7E),(198)(0xC6),Write,ACK
0.399375190,1284,DEL(0x7F),SO (0x0E),Read,NAK
0.399467780,1284,DEL(0x7F),0(0x30),Read,NAK
0.399721280,1286,~(0x7E),SI (0x0F),Write,ACK
0.399803590,1286,~(0x7E),NUL(0x00),Write,ACK
0.400077180,1288,~(0x7E),US (0x1F),Write,ACK
0.400169750,1288,~(0x7E),(198)(0xC6),Write,ACK
0.400413390,1290,~(0x7E),(SP)(0x20),Write,ACK
0.400505970,1290,~(0x7E),a(0x61),Write,ACK
0.400749320,1292,~(0x7E),!(0x21),Write,ACK
0.400841900,1292,~(0x7E),NUL(0x00),Write,ACK
0.401088000,1294,~(0x7E),"(0x22),Write,ACK
0.401180580,1294,~(0x7E),(198)(0xC6),Write,ACK
0.401428300,1296,~(0x7E),#(0x23),Write,ACK
0.401520890,1296,~(0x7E),a(0x61),Write,ACK
0.401787760,1298,~(0x7E),$(0x24),Write,ACK
0.401880390,1298,~(0x7E),NUL(0x00),Write,ACK
0.402123280,1300,DEL(0x7F),NUL(0x00),Read,NAK
0.402215940,1300,DEL(0x7F),NUL(0x00),Read,ACK
0.402477510,1302,~(0x7E),STX(0x02),Write,ACK
0.402570080,1302,~(0x7E),NUL(0x00),Write,ACK
0.402824960,1304,~(0x7E),SOH(0x01),Write,NAK
0.402917570,1304,~(0x7E),NUL(0x00),Write,ACK
0.403173320,1306,~(0x7E),%(0x25),Write,ACK
0.403265890,1306,~(0x7E),NUL(0x00),Write,ACK
0.420659160,1308,DEL(0x7F),DC3(0x13),Read,ACK
0.420751780,1308,DEL(0x7F),NUL(0x00),Read,NAK
0.421028420,1310,~(0x7E),'(0x27),Write,ACK
0.421121000,1310,~(0x7E),SOH(0x01),Write,ACK
0.421412720,1312,DEL(0x7F),DC4(0x14),Read,ACK
0.421505310,1312,DEL(0x7F),NUL(0x00),Read,NAK
0.421759110,1314,~(0x7E),)(0x29),Write,ACK
0.421851690,1314,~(0x7E),SOH(0x01),Write,ACK
0.422143890,1316,~(0x7E),*(0x2A),Write,ACK
0.422236480,1316,~(0x7E),NUL(0x00),Write,NAK
0.422480570,1318,~(0x7E),+(0x2B),Write,ACK
0.422573250,1318,~(0x7E),SOH(0x01),Write,ACK
0.422816700,1320,~(0x7E),SYN(0x16),Write,ACK
0.422898980,1320,~(0x7E),NUL(0x00),Write,NAK
0.423141800,1322,DEL(0x7F),SYN(0x16),Read,NAK
0.423234480,1322,DEL(0x7F),NUL(0x00),Read,NAK
0.423497410,1324,~(0x7E),.(0x2E),Write,ACK
0.423590000,1324,~(0x7E),SOH(0x01),Write,ACK
0.423847870,1326,DEL(0x7F),ETB(0x17),Read,NAK
0.423940450,1326,DEL(0x7F),NUL(0x00),Read,NAK
0.424202060,1328,~(0x7E),0(0x30),Write,ACK
0.424294630,1328,~(0x7E),SOH(0x01),Write,ACK
0.424538060,1330,~(0x7E),1(0x31),Write,ACK
0.424630670,1330,~(0x7E),SOH(0x01),Write,ACK
0.424874300,1332,~(0x7E),2(0x32),Write,ACK
0.424966880,1332,~(0x7E),SOH(0x01),Write,ACK
0.425210270,1334,~(0x7E),3(0x33),Write,ACK
0.425302850,1334,~(0x7E),SOH(0x01),Write,ACK
0.425545720,1336,~(0x7E),4(0x34),Write,ACK
0.425638300,1336,~(0x7E),NUL(0x00),Write,NAK
0.425881750,1338,~(0x7E),5(0x35),Write,ACK
0.425974330,1338,~(0x7E),SOH(0x01),Write,ACK
0.426207100,1340,?(0x3F),ESC(0x1B),Read,ACK
0.426299690,1340,?(0x3F),NUL(0x00),Read,NAK
0.426562120,1342,~(0x7E),7(0x37),Write,ACK
0.426654710,1342,~(0x7E),NUL(0x00),Write,NAK
0.426896180,1344,DEL(0x7F),FS (0x1C),Read,ACK
0.426988750,1344,DEL(0x7F),NUL(0x00),Read,NAK
0.427241840,1346,~(0x7E),9(0x39),Write,ACK
0.427334430,1346,~(0x7E),SOH(0x01),Write,ACK
0.427577390,1348,~(0x7E),:(0x3A),Write,ACK
0.427669970,1348,~(0x7E),NUL(0x00),Write,NAK
0.427902700,1350,DEL(0x7F),GS (0x1D),Read,NAK
0.427985000,1350,DEL(0x7F),(128)(0x80),Read,ACK
0.428248630,1352,~(0x7E),<(0x3C),Write,ACK
0.428341220,1352,~(0x7E),SOH(0x01),Write,ACK
0.428584960,1354,~(0x7E),=(0x3D),Write,ACK
0.428677540,1354,~(0x7E),SOH(0x01),Write,ACK
0.428986640,1356,~(0x7E),>(0x3E),Write,ACK
0.429079220,1356,~(0x7E),SOH(0x01),Write,ACK
0.429324530,1358,~(0x7E),?(0x3F),Write,NAK
0.429406840,1358,~(0x7E),NUL(0x00),Write,ACK
0.429667550,1360,~(0x7E),@(0x40),Write,ACK
0.429749840,1360,~(0x7E),NUL(0x00),Write,NAK
0.430006010,1362,~(0x7E),A(0x41),Write,ACK
0.430098590,1362,~(0x7E),SOH(0x01),Write,ACK
0.430345320,1364,~(0x7E),B(0x42),Write,ACK
0.430437900,1364,~(0x7E),SOH(0x01),Write,ACK
0.430683280,1366,~(0x7E),C(0x43),Write,ACK
0.430775850,1366,~(0x7E),SOH(0x01),Write,ACK
0.431021130,1368,~(0x7E),D(0x44),Write,ACK
0.431113710,1368,~(0x7E),SOH(0x01),Write,ACK
0.431359360,1370,~(0x7E),E(0x45),Write,ACK
0.431451950,1370,~(0x7E),SOH(0x01),Write,ACK
0.431699370,1372,~(0x7E),F(0x46),Write,ACK
0.431791940,1372,~(0x7E),SOH(0x01),Write,ACK
0.432059330,1374,~(0x7E),G(0x47),Write,ACK
0.432151910,1374,~(0x7E),SOH(0x01),Write,ACK
0.432405210,1376,~(0x7E),H(0x48),Write,ACK
0.432497810,1376,~(0x7E),SOH(0x01),Write,ACK
0.432743250,1378,~(0x7E),I(0x49),Write,ACK
0.432835930,1378,~(0x7E),NUL(0x00),Write,NAK
0.433074780,1380,DEL(0x7F),DC2(0x12),Read,NAK
0.433167400,1380,DEL(0x7F),NUL(0x00),Read,ACK
0.433690320,1382,~(0x7E),EOT(0x04),Write,ACK
0.433782880,1382,~(0x7E),NUL(0x00),Write,ACK
0.434027550,1384,~(0x7E),ENQ(0x05),Write,ACK
0.434120140,1384,~(0x7E),NUL(0x00),Write,ACK
0.434363880,1386,~(0x7E),BEL(0x07),Write,ACK
0.434446200,1386,~(0x7E),NUL(0x00),Write,ACK
0.434699580,1388,~(0x7E),BEL(0x07),Write,ACK
0.434792160,1388,~(0x7E),NUL(0x00),Write,ACK
0.435035930,1390,~(0x7E),EOT(0x04),Write,ACK
0.435118230,1390,~(0x7E),NUL(0x00),Write,ACK
0.435384900,1392,~(0x7E),HT (0x09),Write,ACK
0.435477480,1392,~(0x7E),NUL(0x00),Write,ACK
0.435652510,,DEL(0x7F),,Read,NAK
0.435724520,1394,DEL(0x7F),STX(0x02),Read,NAK
0.435817100,1394,DEL(0x7F),NUL(0x00),Read,ACK
0.436089630,1396,~(0x7E),VT (0x0B),Write,ACK
0.436182200,1396,~(0x7E),NUL(0x00),Write,ACK
0.436426430,1398,~(0x7E),FF (0x0C),Write,ACK
0.436519010,1398,~(0x7E),NUL(0x00),Write,ACK
0.436751530,1400,DEL(0x7F),ACK(0x06),Read,NAK
0.436844110,1400,DEL(0x7F),NUL(0x00),Read,ACK
0.437098170,1402,~(0x7E),SO (0x0E),Write,ACK
0.437190750,1402,~(0x7E),NUL(0x00),Write,ACK
0.437434250,1404,~(0x7E),SI (0x0F),Write,ACK
0.437526830,1404,~(0x7E),NUL(0x00),Write,ACK
0.437770280,1406,~(0x7E),BS (0x08),Write,ACK
0.437852580,1406,~(0x7E),NUL(0x00),Write,ACK
0.452054190,1408,~(0x7E),DLE(0x10),Write,NAK
0.452136490,1408,~(0x7E),NUL(0x00),Write,ACK
0.452408590,1410,~(0x7E),DC2(0x12),Write,ACK
0.452501170,1410,~(0x7E),NUL(0x00),Write,ACK
0.452734190,1412,DEL(0x7F),HT (0x09),Read,NAK
0.452826770,1412,DEL(0x7F),NUL(0x00),Read,ACK
0.453083730,1414,~(0x7E),DC4(0x14),Write,ACK
0.453176300,1414,~(0x7E),NUL(0x00),Write,ACK
0.453428920,1416,~(0x7E),NAK(0x15),Write,ACK
0.453521490,1416,~(0x7E),NUL(0x00),Write,ACK
0.453767060,1418,~(0x7E),VT (0x0B),Write,ACK
0.453849380,1418,~(0x7E),NUL(0x00),Write,ACK
0.454158850,1420,~(0x7E),ETB(0x17),Write,ACK
0.454251440,1420,~(0x7E),NUL(0x00),Write,ACK
0.454487300,1422,~(0x7E),FF (0x0C),Write,ACK
0.454579980,1422,~(0x7E),NUL(0x00),Write,ACK
0.454854160,1424,~(0x7E),FF (0x0C),Write,NAK
0.454936460,1424,~(0x7E),NUL(0x00),Write,ACK
0.455208490,1426,~(0x7E),SUB(0x1A),Write,ACK
0.455301070,1426,~(0x7E),NUL(0x00),Write,ACK
0.455547700,1428,~(0x7E),ESC(0x1B),Write,ACK
0.455640280,1428,~(0x7E),NUL(0x00),Write,ACK
0.455886020,1430,~(0x7E),FS (0x1C),Write,ACK
0.455968320,1430,~(0x7E),c(0x63),Write,ACK
0.456224560,1432,~(0x7E),GS (0x1D),Write,ACK
0.456317140,1432,~(0x7E),a(0x61),Write,ACK
0.456563160,1434,~(0x7E),US (0x1F),Write,ACK
0.456645450,1434,~(0x7E),NUL(0x00),Write,ACK
0.456901730,1436,~(0x7E),US (0x1F),Write,ACK
0.456994310,1436,~(0x7E),(198)(0xC6),Write,ACK
0.457234750,1438,DEL(0x7F),DLE(0x10),Read,ACK
0.457327330,1438,DEL(0x7F),0(0x30),Read,NAK
0.457603310,1440,~(0x7E),!(0x21),Write,ACK
0.457695900,1440,~(0x7E),NUL(0x00),Write,ACK
0.457949140,1442,~(0x7E),"(0x22),Write,ACK
0.458041710,1442,~(0x7E),(195)(0xC3),Write,ACK
0.458288070,1444,~(0x7E),#(0x23),Write,ACK
0.458380650,1444,~(0x7E),a(0x61),Write,ACK
0.458626410,1446,~(0x7E),$(0x24),Write,ACK
0.458708760,1446,~(0x7E),NUL(0x00),Write,ACK
0.458964430,1448,~(0x7E),SOH(0x01),Write,ACK
0.459057010,1448,~(0x7E),NUL(0x00),Write,ACK
0.459302400,1450,~(0x7E),SOH(0x01),Write,ACK
0.459384730,1450,~(0x7E),NUL(0x00),Write,ACK
0.459640930,1452,~(0x7E),ETX(0x03),Write,ACK
0.459733600,1452,~(0x7E),NUL(0x00),Write,ACK
0.459978470,1454,~(0x7E),%(0x25),Write,ACK
0.460071030,1454,~(0x7E),NUL(0x00),Write,ACK
0.461482710,1456,~(0x7E),&(0x26),Write,ACK
0.461575290,1456,~(0x7E),SOH(0x01),Write,ACK
0.461822070,1458,~(0x7E),'(0x27),Write,ACK
0.461914650,1458,~(0x7E),SOH(0x01),Write,ACK
0.462162320,1460,~(0x7E),((0x28),Write,ACK
0.462254890,1460,~(0x7E),SOH(0x01),Write,ACK
0.462500210,1462,~(0x7E),DC4(0x14),Write,NAK
0.462582510,1462,~(0x7E),NUL(0x00),Write,NAK
0.462746110,,DEL(0x7F),,Read,NAK
0.462818120,1464,DEL(0x7F),ENQ(0x05),Read,ACK
0.462900400,1464,DEL(0x7F),(128)(0x80),Read,ACK
0.463176710,1466,~(0x7E),-(0x2D),Write,NAK
0.463259050,1466,~(0x7E),NUL(0x00),Write,NAK
0.463516570,1468,~(0x7E),,(0x2C),Write,ACK
0.463609160,1468,~(0x7E),NUL(0x00),Write,NAK
0.463876720,1470,~(0x7E),-(0x2D),Write,ACK
0.463969300,1470,~(0x7E),SOH(0x01),Write,ACK
0.464222680,1472,~(0x7E),.(0x2E),Write,ACK
0.464315250,1472,~(0x7E),SOH(0x01),Write,ACK
0.464560620,1474,~(0x7E),/(0x2F),Write,ACK
0.464653210,1474,~(0x7E),SOH(0x01),Write,ACK
0.464899460,1476,~(0x7E),0(0x30),Write,ACK
0.464992050,1476,~(0x7E),NUL(0x00),Write,NAK
0.465224940,1478,DEL(0x7F),CAN(0x18),Read,NAK
0.465317530,1478,DEL(0x7F),NUL(0x00),Read,NAK
0.465571050,1480,~(0x7E),2(0x32),Write,ACK
0.465663630,1480,~(0x7E),SOH(0x01),Write,ACK
0.465907160,1482,~(0x7E),3(0x33),Write,ACK
0.465999740,1482,~(0x7E),NUL(0x00),Write,NAK
0.466236750,1484,DEL(0x7F),SUB(0x1A),Read,ACK
0.466329320,1484,DEL(0x7F),NUL(0x00),Read,NAK
0.466607370,1486,~(0x7E),5(0x35),Write,ACK
0.466699940,1486,~(0x7E),NUL(0x00),Write,NAK
0.466952340,1488,~(0x7E),6(0x36),Write,ACK
0.467044910,1488,~(0x7E),SOH(0x01),Write,ACK
0.467277790,1490,~(0x7E),ESC(0x1B),Write,NAK
0.467370370,1490,~(0x7E),NUL(0x00),Write,NAK
0.467623820,1492,~(0x7E),8(0x38),Write,ACK
0.467716400,1492,~(0x7E),NUL(0x00),Write,NAK
0.467960250,1494,~(0x7E),9(0x39),Write,ACK
0.468052830,1494,~(0x7E),SOH(0x01),Write,ACK
0.468295780,1496,~(0x7E),:(0x3A),Write,ACK
0.468388370,1496,~(0x7E),SOH(0x01),Write,ACK
0.468631370,1498,~(0x7E),;(0x3B),Write,ACK
0.468723950,1498,~(0x7E),SOH(0x01),Write,ACK
0.469036910,1500,~(0x7E),<(0x3C),Write,ACK
0.469129510,1500,~(0x7E),SOH(0x01),Write,ACK
0.469398620,1502,~(0x7E),=(0x3D),Write,ACK
0.469491210,1502,~(0x7E),SOH(0x01),Write,ACK
0.469747700,1504,~(0x7E),?(0x3F),Write,ACK
0.469830000,1504,~(0x7E),NUL(0x00),Write,NAK
0.483680380,1506,~(0x7E),?(0x3F),Write,ACK
0.483773050,1506,~(0x7E),SOH(0x01),Write,ACK
0.484037990,1508,~(0x7E),@(0x40),Write,ACK
0.484120300,1508,~(0x7E),NUL(0x00),Write,NAK
0.484377260,1510,~(0x7E),A(0x41),Write,ACK
0.484469840,1510,~(0x7E),SOH(0x01),Write,ACK
0.484716750,1512,~(0x7E),B(0x42),Write,ACK
0.484809330,1512,~(0x7E),NUL(0x00),Write,NAK
0.485065350,1514,~(0x7E),C(0x43),Write,ACK
0.485157920,1514,~(0x7E),SOH(0x01),Write,ACK
0.485429420,1516,~(0x7E),D(0x44),Write,ACK
0.485522010,1516,~(0x7E),SOH(0x01),Write,ACK
0.485765630,1518,~(0x7E),E(0x45),Write,ACK
0.485858220,1518,~(0x7E),SOH(0x01),Write,ACK
0.486147700,1520,~(0x7E),G(0x47),Write,ACK
0.486229990,1520,~(0x7E),NUL(0x00),Write,NAK
0.486480130,1522,~(0x7E),G(0x47),Write,ACK
0.486572700,1522,~(0x7E),SOH(0x01),Write,ACK
0.486824060,1524,~(0x7E),H(0x48),Write,ACK
0.486916650,1524,~(0x7E),SOH(0x01),Write,ACK
0.487159640,1526,~(0x7E),I(0x49),Write,ACK
0.487252220,1526,~(0x7E),SOH(0x01),Write,ACK
0.487496160,1528,~(0x7E),%(0x25),Write,ACK
0.487588740,1528,~(0x7E),NUL(0x00),Write,ACK
0.488097350,1530,~(0x7E),EOT(0x04),Write,ACK
0.488189920,1530,~(0x7E),NUL(0x00),Write,ACK
0.488434250,1532,~(0x7E),BEL(0x07),Write,ACK
0.488506260,1532,~(0x7E),(128)(0x80),Write,ACK
0.488775140,1534,~(0x7E),ACK(0x06),Write,ACK
0.488867720,1534,~(0x7E),NUL(0x00),Write,ACK
0.489113910,1536,~(0x7E),BEL(0x07),Write,ACK
0.489206500,1536,~(0x7E),NUL(0x00),Write,ACK
0.489449890,1538,~(0x7E),BS (0x08),Write,ACK
0.489542460,1538,~(0x7E),NUL(0x00),Write,ACK
0.489785940,1540,~(0x7E),HT (0x09),Write,ACK
0.489878520,1540,~(0x7E),NUL(0x00),Write,ACK
0.490121790,1542,~(0x7E),LF (0x0A),Write,ACK
0.490214360,1542,~(0x7E),NUL(0x00),Write,ACK
0.490480700,1544,~(0x7E),VT (0x0B),Write,ACK
0.490573290,1544,~(0x7E),NUL(0x00),Write,ACK
0.490825120,1546,~(0x7E),FF (0x0C),Write,ACK
0.490917710,1546,~(0x7E),NUL(0x00),Write,ACK
0.491161460,1548,~(0x7E),CR (0x0D),Write,ACK
0.491254050,1548,~(0x7E),NUL(0x00),Write,ACK
0.491497320,1550,~(0x7E),SO (0x0E),Write,ACK
0.491589900,1550,~(0x7E),NUL(0x00),Write,ACK
0.491822430,1552,DEL(0x7F),BEL(0x07),Read,NAK
0.491915010,1552,DEL(0x7F),NUL(0x00),Read,ACK
0.492168750,1554,~(0x7E),DLE(0x10),Write,ACK
0.492261330,1554,~(0x7E),NUL(0x00),Write,ACK
0.492505140,1556,~(0x7E),DC1(0x11),Write,ACK
0.492597740,1556,~(0x7E),NUL(0x00),Write,ACK
0.492840830,1558,~(0x7E),HT (0x09),Write,ACK
0.492923120,1558,~(0x7E),NUL(0x00),Write,ACK
0.493190870,1560,~(0x7E),HT (0x09),Write,NAK
0.493283450,1560,~(0x7E),NUL(0x00),Write,ACK
0.493545020,1562,~(0x7E),DC4(0x14),Write,ACK
0.493637610,1562,~(0x7E),NUL(0x00),Write,ACK
0.493881030,1564,~(0x7E),SYN(0x16),Write,NAK
0.493963320,1564,~(0x7E),NUL(0x00),Write,ACK
0.494218820,1566,~(0x7E),SYN(0x16),Write,ACK
0.494311410,1566,~(0x7E),NUL(0x00),Write,ACK
0.494554740,1568,~(0x7E),ETB(0x17),Write,ACK
0.494647330,1568,~(0x7E),NUL(0x00),Write,ACK
0.494890460,1570,~(0x7E),CAN(0x18),Write,ACK
0.494983030,1570,~(0x7E),NUL(0x00),Write,ACK
0.495226670,1572,~(0x7E),EM (0x19),Write,ACK
0.495319250,1572,~(0x7E),NUL(0x00),Write,ACK
0.495470070,,DEL(0x7F),,Read,NAK
0.495542080,1574,DEL(0x7F),ACK(0x06),Read,NAK
0.495634670,1574,DEL(0x7F),NUL(0x00),Read,ACK
0.495921960,1576,~(0x7E),ESC(0x1B),Write,NAK
0.496004250,1576,~(0x7E),NUL(0x00),Write,ACK
0.496266110,1578,~(0x7E),FS (0x1C),Write,ACK
0.496358690,1578,~(0x7E),NUL(0x00),Write,ACK
0.496591830,1580,~(0x7E),SO (0x0E),Write,NAK
0.496684420,1580,~(0x7E),NUL(0x00),Write,ACK
0.496970200,1582,~(0x7E),US (0x1F),Write,ACK
0.497052500,1582,~(0x7E),NUL(0x00),Write,ACK
0.497308610,1584,~(0x7E),US (0x1F),Write,ACK
0.497401190,1584,~(0x7E),(198)(0xC6),Write,ACK
0.497647370,1586,~(0x7E),(SP)(0x20),Write,ACK
0.497739950,1586,~(0x7E),a(0x61),Write,ACK
0.497985490,1588,~(0x7E),!(0x21),Write,ACK
0.498078070,1588,~(0x7E),NUL(0x00),Write,ACK
0.498323410,1590,~(0x7E),"(0x22),Write,ACK
0.498415990,1590,~(0x7E),(198)(0xC6),Write,ACK
0.498674910,1592,~(0x7E),#(0x23),Write,ACK
0.498767500,1592,~(0x7E),a(0x61),Write,ACK
0.499033070,1594,~(0x7E),$(0x24),Write,ACK
0.499125650,1594,~(0x7E),NUL(0x00),Write,ACK
0.499379410,1596,~(0x7E),NUL(0x00),Write,NAK
0.499461680,1596,~(0x7E),c(0x63),Write,ACK
0.499717940,1598,~(0x7E),STX(0x02),Write,ACK
0.499810610,1598,~(0x7E),0(0x30),Write,NAK
0.500056070,1600,~(0x7E),SOH(0x01),Write,NAK
0.500138360,1600,~(0x7E),NUL(0x00),Write,ACK
0.500394320,1602,~(0x7E),"(0x22),Write,NAK
0.500476610,1602,~(0x7E),NUL(0x00),Write,ACK
0.515845740,1604,~(0x7E),&(0x26),Write,ACK
0.515938320,1604,~(0x7E),SOH(0x01),Write,ACK
0.516206830,1606,~(0x7E),'(0x27),Write,ACK
0.516299410,1606,~(0x7E),SOH(0x01),Write,ACK
0.516535290,1608,DEL(0x7F),DC4(0x14),Read,ACK
0.516627870,1608,DEL(0x7F),NUL(0x00),Read,NAK
0.516884200,1610,~(0x7E),)(0x29),Write,ACK
0.516976790,1610,~(0x7E),SOH(0x01),Write,ACK
0.517211740,1612,~(0x7E),NAK(0x15),Write,ACK
0.517304320,1612,~(0x7E),NUL(0x00),Write,NAK
0.517550300,1614,DEL(0x7F),NAK(0x15),Read,NAK
0.517642880,1614,DEL(0x7F),NUL(0x00),Read,NAK
0.517897380,1616,~(0x7E),,(0x2C),Write,ACK
0.517989970,1616,~(0x7E),SOH(0x01),Write,NAK
0.518233210,1618,DEL(0x7F),SYN(0x16),Read,NAK
0.518325790,1618,DEL(0x7F),NUL(0x00),Read,NAK
0.518583120,1620,~(0x7E),.(0x2E),Write,ACK
0.518675700,1620,~(0x7E),NUL(0x00),Write,NAK
0.518920670,1622,~(0x7E),/(0x2F),Write,ACK
0.519013340,1622,~(0x7E),SOH(0x01),Write,ACK
0.519258680,1624,~(0x7E),0(0x30),Write,ACK
0.519351260,1624,~(0x7E),SOH(0x01),Write,ACK
0.519597360,1626,~(0x7E),1(0x31),Write,ACK
0.519689950,1626,~(0x7E),SOH(0x01),Write,ACK
0.519935450,1628,~(0x7E),2(0x32),Write,ACK
0.520028120,1628,~(0x7E),SOH(0x01),Write,ACK
0.520265480,1630,DEL(0x7F),EM (0x19),Read,NAK
0.520358150,1630,DEL(0x7F),NUL(0x00),Read,NAK
0.520612240,1632,~(0x7E),4(0x34),Write,ACK
0.520704790,1632,~(0x7E),SOH(0x01),Write,ACK
0.520954390,1634,~(0x7E),5(0x35),Write,ACK
0.521046970,1634,~(0x7E),SOH(0x01),Write,ACK
0.521281980,1636,~(0x7E),ESC(0x1B),Write,ACK
0.521374640,1636,~(0x7E),NUL(0x00),Write,NAK
0.521630810,1638,~(0x7E),7(0x37),Write,ACK
0.521723480,1638,~(0x7E),SOH(0x01),Write,ACK
0.521968730,1640,~(0x7E),<(0x3C),Write,ACK
0.522051030,1640,~(0x7E),NUL(0x00),Write,NAK
0.522306380,1642,~(0x7E),9(0x39),Write,ACK
0.522398970,1642,~(0x7E),SOH(0x01),Write,ACK
0.522644360,1644,~(0x7E),=(0x3D),Write,ACK
0.522726670,1644,~(0x7E),NUL(0x00),Write,NAK
0.522978460,1646,~(0x7E),;(0x3B),Write,ACK
0.523060770,1646,~(0x7E),NUL(0x00),Write,NAK
0.523316220,1648,~(0x7E),>(0x3E),Write,ACK
0.523398510,1648,~(0x7E),NUL(0x00),Write,NAK
0.523654800,1650,~(0x7E),>(0x3E),Write,NAK
0.523737100,1650,~(0x7E),NUL(0x00),Write,NAK
0.523992220,1652,~(0x7E),>(0x3E),Write,ACK
0.524084810,1652,~(0x7E),SOH(0x01),Write,ACK
0.524242310,,DEL(0x7F),,Read,NAK
0.524314310,1654,DEL(0x7F),SI (0x0F),Read,NAK
0.524406900,1654,DEL(0x7F),(128)(0x80),Read,ACK
0.524673500,1656,~(0x7E),@(0x40),Write,ACK
0.524766080,1656,~(0x7E),SOH(0x01),Write,ACK
0.525007350,1658,~(0x7E),A(0x41),Write,ACK
0.525099930,1658,~(0x7E),NUL(0x00),Write,NAK
0.525352530,1660,~(0x7E),B(0x42),Write,ACK
0.525445110,1660,~(0x7E),SOH(0x01),Write,ACK
0.525690840,1662,~(0x7E),C(0x43),Write,ACK
0.525783420,1662,~(0x7E),SOH(0x01),Write,ACK
0.526028750,1664,~(0x7E),D(0x44),Write,ACK
0.526121330,1664,~(0x7E),SOH(0x01),Write,ACK
0.526367290,1666,~(0x7E),E(0x45),Write,ACK
0.526459870,1666,~(0x7E),SOH(0x01),Write,ACK
0.526694990,1668,DEL(0x7F),#(0x23),Read,ACK
0.526787570,1668,DEL(0x7F),NUL(0x00),Read,NAK
0.527043080,1670,~(0x7E),G(0x47),Write,ACK
0.527135660,1670,~(0x7E),NUL(0x00),Write,NAK
0.527377770,1672,~(0x7E),H(0x48),Write,ACK
0.527470350,1672,~(0x7E),NUL(0x00),Write,NAK
0.527715560,1674,~(0x7E),I(0x49),Write,ACK
0.527808140,1674,~(0x7E),SOH(0x01),Write,ACK
0.528054240,1676,~(0x7E),%(0x25),Write,ACK
0.528146810,1676,~(0x7E),NUL(0x00),Write,ACK
0.528630270,1678,DEL(0x7F),STX(0x02),Read,ACK
0.528722840,1678,DEL(0x7F),NUL(0x00),Read,ACK
0.529058480,1680,~(0x7E),ENQ(0x05),Write,ACK
0.529151080,1680,~(0x7E),NUL(0x00),Write,ACK
0.529394680,1682,~(0x7E),ACK(0x06),Write,ACK
0.529487260,1682,~(0x7E),NUL(0x00),Write,ACK
0.529731440,1684,~(0x7E),BEL(0x07),Write,ACK
0.529824020,1684,~(0x7E),NUL(0x00),Write,ACK
0.530068250,1686,~(0x7E),BS (0x08),Write,ACK
0.530150540,1686,~(0x7E),NUL(0x00),Write,ACK
0.530404190,1688,~(0x7E),HT (0x09),Write,ACK
0.530496770,1688,~(0x7E),NUL(0x00),Write,ACK
0.530739980,1690,~(0x7E),LF (0x0A),Write,ACK
0.530832570,1690,~(0x7E),NUL(0x00),Write,ACK
0.531075840,1692,~(0x7E),VT (0x0B),Write,ACK
0.531168420,1692,~(0x7E),NUL(0x00),Write,ACK
0.531419480,1696,~(0x7E),FF (0x0C),Write,ACK
0.531512050,1696,~(0x7E),NUL(0x00),Write,ACK
0.531744910,1698,DEL(0x7F),ACK(0x06),Read,NAK
0.531837490,1698,DEL(0x7F),NUL(0x00),Read,ACK
0.532091100,1700,~(0x7E),SO (0x0E),Write,ACK
0.532183680,1700,~(0x7E),NUL(0x00),Write,ACK
0.532426440,1704,~(0x7E),SI (0x0F),Write,ACK
0.532519020,1704,~(0x7E),NUL(0x00),Write,ACK
0.532762120,1706,~(0x7E),DLE(0x10),Write,ACK
0.532854790,1706,~(0x7E),NUL(0x00),Write,ACK
0.533098760,1708,~(0x7E),DC1(0x11),Write,ACK
0.533191340,1708,~(0x7E),NUL(0x00),Write,ACK
0.533423920,1710,DEL(0x7F),HT (0x09),Read,ACK
0.533516510,1710,DEL(0x7F),NUL(0x00),Read,ACK
0.533770070,1712,~(0x7E),DC3(0x13),Write,ACK
0.533862650,1712,~(0x7E),NUL(0x00),Write,ACK
0.547901740,1714,~(0x7E),DC4(0x14),Write,ACK
0.547994320,1714,~(0x7E),NUL(0x00),Write,ACK
0.548248980,1716,DEL(0x7F),LF (0x0A),Read,NAK
0.548341560,1716,DEL(0x7F),NUL(0x00),Read,ACK
0.548598060,1718,~(0x7E),SYN(0x16),Write,ACK
0.548690650,1718,~(0x7E),NUL(0x00),Write,ACK
0.549035530,1720,~(0x7E),ESC(0x1B),Write,NAK
0.549117820,1720,~(0x7E),NUL(0x00),Write,ACK
0.549428350,1722,~(0x7E),CAN(0x18),Write,ACK
0.549520930,1722,~(0x7E),NUL(0x00),Write,ACK
0.549766740,1724,~(0x7E),EM (0x19),Write,ACK
0.549849040,1724,~(0x7E),NUL(0x00),Write,ACK
0.550159440,1726,~(0x7E),SUB(0x1A),Write,ACK
0.550252020,1726,~(0x7E),NUL(0x00),Write,ACK
0.550497830,1728,~(0x7E),ESC(0x1B),Write,ACK
0.550590410,1728,~(0x7E),NUL(0x00),Write,ACK
0.550835540,1730,~(0x7E),FS (0x1C),Write,ACK
0.550928120,1730,~(0x7E),NUL(0x00),Write,ACK
0.551173840,1732,~(0x7E),GS (0x1D),Write,ACK
0.551266420,1732,~(0x7E),NUL(0x00),Write,ACK
0.551512530,1734,~(0x7E),RS (0x1E),Write,ACK
0.551605120,1734,~(0x7E),NUL(0x00),Write,ACK
0.551848240,1736,~(0x7E),US (0x1F),Write,ACK
0.551940770,1736,~(0x7E),(227)(0xE3),Write,ACK
0.552187320,1738,~(0x7E),(SP)(0x20),Write,ACK
0.552279890,1738,~(0x7E),`(0x60),Write,NAK
0.552525520,1742,~(0x7E),!(0x21),Write,ACK
0.552618190,1742,~(0x7E),NUL(0x00),Write,ACK
0.552863900,1744,~(0x7E),"(0x22),Write,ACK
0.552956480,1744,~(0x7E),(198)(0xC6),Write,ACK
0.553192350,1746,DEL(0x7F),DC1(0x11),Read,NAK
0.553284920,1746,DEL(0x7F),0(0x30),Read,ACK
0.553540780,1748,~(0x7E),$(0x24),Write,ACK
0.553633360,1748,~(0x7E),NUL(0x00),Write,ACK
0.553879100,1750,~(0x7E),SOH(0x01),Write,ACK
0.553971680,1750,~(0x7E),(198)(0xC6),Write,ACK
0.554214120,1754,~(0x7E),STX(0x02),Write,ACK
0.554306790,1754,~(0x7E),a(0x61),Write,ACK
0.554552430,1756,~(0x7E),ETX(0x03),Write,ACK
0.554645020,1756,~(0x7E),NUL(0x00),Write,ACK
0.554890280,1758,~(0x7E),DC2(0x12),Write,NAK
0.554972570,1758,~(0x7E),NUL(0x00),Write,ACK
0.556378860,1760,~(0x7E),&(0x26),Write,ACK
0.556471440,1760,~(0x7E),SOH(0x01),Write,ACK
0.556717340,1762,~(0x7E),'(0x27),Write,ACK
0.556809920,1762,~(0x7E),SOH(0x01),Write,ACK
0.557056000,1764,~(0x7E),((0x28),Write,ACK
0.557148580,1764,~(0x7E),SOH(0x01),Write,ACK
0.557392720,1766,~(0x7E),)(0x29),Write,ACK
0.557485300,1766,~(0x7E),NUL(0x00),Write,NAK
0.557738220,1768,~(0x7E),*(0x2A),Write,ACK
0.557830800,1768,~(0x7E),SOH(0x01),Write,ACK
0.558076240,1770,~(0x7E),+(0x2B),Write,ACK
0.558168820,1770,~(0x7E),SOH(0x01),Write,ACK
0.558415110,1772,~(0x7E),,(0x2C),Write,ACK
0.558507690,1772,~(0x7E),SOH(0x01),Write,ACK
0.558753380,1774,~(0x7E),-(0x2D),Write,ACK
0.558845960,1774,~(0x7E),SOH(0x01),Write,ACK
0.559091170,1776,~(0x7E),.(0x2E),Write,ACK
0.559183750,1776,~(0x7E),SOH(0x01),Write,ACK
0.559427390,1778,~(0x7E),/(0x2F),Write,NAK
0.559509690,1778,~(0x7E),NUL(0x00),Write,NAK
0.559770500,1780,~(0x7E),0(0x30),Write,ACK
0.559863070,1780,~(0x7E),SOH(0x01),Write,ACK
0.560114120,1782,~(0x7E),1(0x31),Write,ACK
0.560206700,1782,~(0x7E),SOH(0x01),Write,ACK
0.560452310,1784,~(0x7E),2(0x32),Write,ACK
0.560544900,1784,~(0x7E),SOH(0x01),Write,ACK
0.560780060,1786,DEL(0x7F),EM (0x19),Read,NAK
0.560872730,1786,DEL(0x7F),NUL(0x00),Read,NAK
0.561128300,1788,~(0x7E),4(0x34),Write,ACK
0.561220890,1788,~(0x7E),SOH(0x01),Write,NAK
0.561466640,1790,~(0x7E),:(0x3A),Write,NAK
0.561548950,1790,~(0x7E),NUL(0x00),Write,NAK
0.561807500,1792,~(0x7E),6(0x36),Write,ACK
0.561900080,1792,~(0x7E),SOH(0x01),Write,ACK
0.562141160,1794,~(0x7E),7(0x37),Write,NAK
0.562223450,1794,~(0x7E),NUL(0x00),Write,NAK
0.562479260,1796,~(0x7E),8(0x38),Write,ACK
0.562571840,1796,~(0x7E),SOH(0x01),Write,ACK
0.562807340,1798,DEL(0x7F),FS (0x1C),Read,NAK
0.562899930,1798,DEL(0x7F),NUL(0x00),Read,NAK
0.563155680,1800,~(0x7E),=(0x3D),Write,ACK
0.563237970,1800,~(0x7E),NUL(0x00),Write,ACK
0.563493950,1802,~(0x7E),;(0x3B),Write,ACK
0.563586490,1802,~(0x7E),SOH(0x01),Write,ACK
0.563831650,1804,~(0x7E),<(0x3C),Write,ACK
0.563924250,1804,~(0x7E),NUL(0x00),Write,NAK
0.564168610,1806,~(0x7E),=(0x3D),Write,ACK
0.564261280,1806,~(0x7E),SOH(0x01),Write,ACK
0.564409640,,?(0x3F),,Read,NAK
0.564481670,1808,?(0x3F),SI (0x0F),Read,NAK
0.564574250,1808,?(0x3F),NUL(0x00),Read,ACK
0.564820830,1810,~(0x7E),SI (0x0F),Write,NAK
0.564913400,1810,~(0x7E),(128)(0x80),Write,ACK
0.565167240,1812,~(0x7E),(SP)(0x20),Write,ACK
0.565259830,1812,~(0x7E),NUL(0x00),Write,NAK
0.565513700,1814,~(0x7E),A(0x41),Write,ACK
0.565606260,1814,~(0x7E),SOH(0x01),Write,ACK
0.565850390,1816,~(0x7E),B(0x42),Write,ACK
0.565942980,1816,~(0x7E),SOH(0x01),Write,ACK
0.579957950,1818,~(0x7E),C(0x43),Write,ACK
0.580050560,1818,~(0x7E),SOH(0x01),Write,ACK
0.580316590,1820,~(0x7E),D(0x44),Write,ACK
0.580409210,1820,~(0x7E),SOH(0x01),Write,ACK
0.580656720,1822,~(0x7E),E(0x45),Write,ACK
0.580749360,1822,~(0x7E),SOH(0x01),Write,ACK
0.581004770,1824,~(0x7E),F(0x46),Write,ACK
0.581097350,1824,~(0x7E),SOH(0x01),Write,ACK
0.581424350,1826,~(0x7E),G(0x47),Write,ACK
0.581516900,1826,~(0x7E),SOH(0x01),Write,ACK
0.581762540,1828,~(0x7E),H(0x48),Write,ACK
0.581855120,1828,~(0x7E),SOH(0x01),Write,ACK
0.582153840,1830,~(0x7E),I(0x49),Write,ACK
0.582246430,1830,~(0x7E),SOH(0x01),Write,ACK
0.582492720,1832,~(0x7E),%(0x25),Write,ACK
0.582585300,1832,~(0x7E),NUL(0x00),Write,ACK
0.583095390,1834,~(0x7E),EOT(0x04),Write,ACK
0.583187980,1834,~(0x7E),(198)(0xC6),Write,ACK
0.583497360,1836,~(0x7E),ENQ(0x05),Write,ACK
0.583590030,1836,~(0x7E),a(0x61),Write,ACK
0.583824270,1838,DEL(0x7F),ETX(0x03),Read,ACK
0.583916850,1838,DEL(0x7F),NUL(0x00),Read,ACK
0.584170580,1840,~(0x7E),BEL(0x07),Write,ACK
0.584263150,1840,~(0x7E),NUL(0x00),Write,ACK
0.584506440,1842,~(0x7E),BS (0x08),Write,ACK
0.584599020,1842,~(0x7E),NUL(0x00),Write,ACK
0.584832260,1844,DEL(0x7F),EOT(0x04),Read,NAK
0.584924840,1844,DEL(0x7F),NUL(0x00),Read,ACK
0.585178450,1846,~(0x7E),LF (0x0A),Write,ACK
0.585271020,1846,~(0x7E),NUL(0x00),Write,ACK
0.585514380,1848,~(0x7E),VT (0x0B),Write,ACK
0.585606960,1848,~(0x7E),NUL(0x00),Write,ACK
0.585848450,1850,~(0x7E),FF (0x0C),Write,ACK
0.585941030,1850,~(0x7E),NUL(0x00),Write,ACK
0.586183950,1852,~(0x7E),CR (0x0D),Write,ACK
0.586276540,1852,~(0x7E),NUL(0x00),Write,ACK
0.586509310,1854,DEL(0x7F),BEL(0x07),Read,ACK
0.586601890,1854,DEL(0x7F),NUL(0x00),Read,ACK
0.586855540,1856,~(0x7E),SI (0x0F),Write,ACK
0.586948120,1856,~(0x7E),NUL(0x00),Write,ACK
0.587191040,1858,~(0x7E),DLE(0x10),Write,ACK
0.587283620,1858,~(0x7E),NUL(0x00),Write,ACK
0.587526630,1860,~(0x7E),DC1(0x11),Write,ACK
0.587619220,1860,~(0x7E),NUL(0x00),Write,ACK
0.587863210,1862,~(0x7E),DC2(0x12),Write,ACK
0.587955790,1862,~(0x7E),NUL(0x00),Write,ACK
0.588196150,1864,~(0x7E),DC3(0x13),Write,ACK
0.588288740,1864,~(0x7E),NUL(0x00),Write,ACK
0.588563750,1866,~(0x7E),DC4(0x14),Write,ACK
0.588656330,1866,~(0x7E),NUL(0x00),Write,ACK
0.588900130,1868,~(0x7E),NAK(0x15),Write,ACK
0.588992700,1868,~(0x7E),NUL(0x00),Write,ACK
0.589226960,1870,DEL(0x7F),VT (0x0B),Read,ACK
0.589319550,1870,DEL(0x7F),NUL(0x00),Read,ACK
0.589562990,1872,~(0x7E),VT (0x0B),Write,NAK
0.589655580,1872,~(0x7E),NUL(0x00),Write,ACK
0.589909530,1874,~(0x7E),CAN(0x18),Write,ACK
0.590002120,1874,~(0x7E),NUL(0x00),Write,ACK
0.590277450,1876,~(0x7E),EM (0x19),Write,ACK
0.590370040,1876,~(0x7E),NUL(0x00),Write,ACK
0.590613580,1878,~(0x7E),SUB(0x1A),Write,ACK
0.590706160,1878,~(0x7E),NUL(0x00),Write,ACK
0.590949910,1880,~(0x7E),ESC(0x1B),Write,ACK
0.591042490,1880,~(0x7E),NUL(0x00),Write,ACK
0.591285560,1882,~(0x7E),FS (0x1C),Write,ACK
0.591378140,1882,~(0x7E),NUL(0x00),Write,ACK
0.591621070,1884,~(0x7E),GS (0x1D),Write,ACK
0.591713650,1884,~(0x7E),NUL(0x00),Write,ACK
0.591956910,1886,~(0x7E),SI (0x0F),Write,ACK
0.592039200,1886,~(0x7E),NUL(0x00),Write,ACK
0.592292710,1888,~(0x7E),US (0x1F),Write,ACK
0.592385320,1888,~(0x7E),NUL(0x00),Write,ACK
0.592616290,1890,DEL(0x7F),DLE(0x10),Read,ACK
0.592708870,1890,DEL(0x7F),NUL(0x00),Read,ACK
0.592992260,1892,~(0x7E),!(0x21),Write,ACK
0.593084840,1892,~(0x7E),NUL(0x00),Write,ACK
0.593328850,1894,~(0x7E),"(0x22),Write,ACK
0.593421460,1894,~(0x7E),(198)(0xC6),Write,ACK
0.593670880,1896,DEL(0x7F),DC1(0x11),Read,NAK
0.593763460,1896,DEL(0x7F),0(0x30),Read,NAK
0.594017480,1898,~(0x7E),$(0x24),Write,ACK
0.594110060,1898,~(0x7E),NUL(0x00),Write,ACK
0.594353570,1900,~(0x7E),NUL(0x00),Write,NAK
0.594435860,1900,~(0x7E),c(0x63),Write,ACK
0.594694720,1902,~(0x7E),STX(0x02),Write,ACK
0.594787300,1902,~(0x7E),a(0x61),Write,ACK
0.595020590,1904,DEL(0x7F),SOH(0x01),Read,NAK
0.595113170,1904,DEL(0x7F),NUL(0x00),Read,ACK
0.595366130,1906,~(0x7E),"(0x22),Write,NAK
0.595448420,1906,~(0x7E),NUL(0x00),Write,ACK
0.612244660,1908,~(0x7E),&(0x26),Write,ACK
0.612337230,1908,~(0x7E),SOH(0x01),Write,ACK
0.612605880,1910,~(0x7E),'(0x27),Write,ACK
0.612698460,1910,~(0x7E),SOH(0x01),Write,ACK
0.612979210,1912,~(0x7E),,(0x2C),Write,ACK
0.613061510,1912,~(0x7E),NUL(0x00),Write,NAK
0.613318640,1914,~(0x7E),)(0x29),Write,ACK
0.613400950,1914,~(0x7E),NUL(0x00),Write,NAK
0.613657610,1916,~(0x7E),*(0x2A),Write,ACK
0.613750270,1916,~(0x7E),SOH(0x01),Write,ACK
0.613985760,1918,?(0x3F),NAK(0x15),Read,NAK
0.614078340,1918,?(0x3F),NUL(0x00),Read,NAK
0.614334190,1920,~(0x7E),,(0x2C),Write,ACK
0.614426770,1920,~(0x7E),SOH(0x01),Write,NAK
0.614686040,1922,~(0x7E),-(0x2D),Write,ACK
0.614778610,1922,~(0x7E),SOH(0x01),Write,ACK
0.615011170,1924,~(0x7E),ETB(0x17),Write,ACK
0.615103750,1924,~(0x7E),NUL(0x00),Write,NAK
0.615423600,1926,~(0x7E),/(0x2F),Write,ACK
0.615516190,1926,~(0x7E),SOH(0x01),Write,ACK
0.615762190,1928,~(0x7E),CAN(0x18),Write,ACK
0.615844490,1928,~(0x7E),NUL(0x00),Write,NAK
0.616100450,1930,~(0x7E),1(0x31),Write,ACK
0.616193040,1930,~(0x7E),SOH(0x01),Write,ACK
0.616428720,1932,DEL(0x7F),EM (0x19),Read,ACK
0.616521300,1932,DEL(0x7F),NUL(0x00),Read,NAK
0.616767120,1934,DEL(0x7F),EM (0x19),Read,NAK
0.616859700,1934,DEL(0x7F),NUL(0x00),Read,NAK
0.617115640,1936,~(0x7E),4(0x34),Write,ACK
0.617208220,1936,~(0x7E),SOH(0x01),Write,ACK
0.617458870,1938,~(0x7E),5(0x35),Write,ACK
0.617551450,1938,~(0x7E),SOH(0x01),Write,ACK
0.617792070,1940,~(0x7E),6(0x36),Write,ACK
0.617884650,1940,~(0x7E),SOH(0x01),Write,ACK
0.618120070,1942,~(0x7E),ESC(0x1B),Write,NAK
0.618212750,1942,~(0x7E),NUL(0x00),Write,NAK
0.618468360,1944,~(0x7E),<(0x3C),Write,ACK
0.618550640,1944,~(0x7E),NUL(0x00),Write,NAK
0.618806110,1946,~(0x7E),9(0x39),Write,ACK
0.618898700,1946,~(0x7E),SOH(0x01),Write,ACK
0.619143990,1948,~(0x7E),:(0x3A),Write,ACK
0.619236560,1948,~(0x7E),NUL(0x00),Write,NAK
0.619481540,1950,~(0x7E),;(0x3B),Write,ACK
0.619574120,1950,~(0x7E),SOH(0x01),Write,ACK
0.619820140,1952,~(0x7E),RS (0x1E),Write,ACK
0.619902520,1952,~(0x7E),NUL(0x00),Write,NAK
0.620153990,1954,~(0x7E),=(0x3D),Write,ACK
0.620246580,1954,~(0x7E),SOH(0x01),Write,ACK
0.620509510,1956,DEL(0x7F),US (0x1F),Read,ACK
0.620602060,1956,DEL(0x7F),NUL(0x00),Read,NAK
0.620858930,1958,~(0x7E),?(0x3F),Write,NAK
0.620941220,1958,~(0x7E),NUL(0x00),Write,NAK
0.621197220,1960,~(0x7E),@(0x40),Write,ACK
0.621289790,1960,~(0x7E),SOH(0x01),Write,ACK
0.621525400,1962,DEL(0x7F),(SP)(0x20),Read,NAK
0.621617980,1962,DEL(0x7F),NUL(0x00),Read,ACK
0.621873550,1964,~(0x7E),B(0x42),Write,ACK
0.621966220,1964,~(0x7E),SOH(0x01),Write,ACK
0.622246300,1966,~(0x7E),C(0x43),Write,ACK
0.622338870,1966,~(0x7E),SOH(0x01),Write,ACK
0.622584970,1968,~(0x7E),D(0x44),Write,ACK
0.622677550,1968,~(0x7E),SOH(0x01),Write,ACK
0.622919020,1972,~(0x7E),E(0x45),Write,ACK
0.623011780,1972,~(0x7E),SOH(0x01),Write,ACK
0.623257270,1974,~(0x7E),F(0x46),Write,ACK
0.623349850,1974,~(0x7E),SOH(0x01),Write,ACK
0.623595320,1976,~(0x7E),G(0x47),Write,ACK
0.623687900,1976,~(0x7E),SOH(0x01),Write,ACK
0.623933730,1978,~(0x7E),H(0x48),Write,ACK
0.624026310,1978,~(0x7E),SOH(0x01),Write,ACK
0.624271830,1980,~(0x7E),H(0x48),Write,NAK
0.624354090,1980,~(0x7E),NUL(0x00),Write,NAK
0.624610430,1982,~(0x7E),%(0x25),Write,ACK
0.624703010,1982,~(0x7E),NUL(0x00),Write,ACK
0.625200100,1984,~(0x7E),EOT(0x04),Write,ACK
0.625292680,1984,~(0x7E),(198)(0xC6),Write,ACK
0.625536790,1986,~(0x7E),ENQ(0x05),Write,NAK
0.625619090,1986,~(0x7E),0(0x30),Write,NAK
0.625873460,1988,~(0x7E),BEL(0x07),Write,ACK
0.625955750,1988,~(0x7E),NUL(0x00),Write,ACK
0.626209340,1990,~(0x7E),BEL(0x07),Write,ACK
0.626301930,1990,~(0x7E),NUL(0x00),Write,ACK
0.626545720,1992,~(0x7E),BS (0x08),Write,ACK
0.626638300,1992,~(0x7E),NUL(0x00),Write,ACK
0.626881480,1994,~(0x7E),HT (0x09),Write,ACK
0.626974050,1994,~(0x7E),NUL(0x00),Write,ACK
0.627216160,1996,~(0x7E),LF (0x0A),Write,ACK
0.627308740,1996,~(0x7E),NUL(0x00),Write,ACK
0.627541520,1998,DEL(0x7F),ENQ(0x05),Read,NAK
0.627634090,1998,DEL(0x7F),NUL(0x00),Read,ACK
0.627877140,2000,DEL(0x7F),ETX(0x03),Read,ACK
0.627959440,2000,DEL(0x7F),NUL(0x00),Read,ACK
0.628223090,2002,~(0x7E),FF (0x0C),Write,NAK
0.628305390,2002,~(0x7E),NUL(0x00),Write,ACK
0.628558630,2004,~(0x7E),SO (0x0E),Write,ACK
0.628651210,2004,~(0x7E),NUL(0x00),Write,ACK
0.628884370,2006,DEL(0x7F),BEL(0x07),Read,NAK
0.628976940,2006,DEL(0x7F),NUL(0x00),Read,ACK
0.629231330,2008,~(0x7E),DLE(0x10),Write,ACK
0.629323910,2008,~(0x7E),NUL(0x00),Write,ACK
0.629565770,2010,~(0x7E),DC1(0x11),Write,ACK
0.629658340,2010,~(0x7E),NUL(0x00),Write,ACK
0.629891710,2012,DEL(0x7F),HT (0x09),Read,ACK
0.629984290,2012,DEL(0x7F),NUL(0x00),Read,ACK
0.643868970,2014,~(0x7E),DC3(0x13),Write,ACK
0.643961620,2014,~(0x7E),NUL(0x00),Write,ACK
0.644223680,2016,~(0x7E),DC4(0x14),Write,ACK
0.644316310,2016,~(0x7E),NUL(0x00),Write,ACK
0.644561080,2018,~(0x7E),DC4(0x14),Write,NAK
0.644643370,2018,~(0x7E),NUL(0x00),Write,ACK
0.644903980,2020,~(0x7E),SYN(0x16),Write,ACK
0.644996550,2020,~(0x7E),NUL(0x00),Write,ACK
0.645240130,2022,~(0x7E),ETB(0x17),Write,ACK
0.645332700,2022,~(0x7E),NUL(0x00),Write,ACK
0.645576860,2024,~(0x7E),CAN(0x18),Write,ACK
0.645669440,2024,~(0x7E),NUL(0x00),Write,ACK
0.645925910,2026,~(0x7E),EM (0x19),Write,ACK
0.646018490,2026,~(0x7E),NUL(0x00),Write,ACK
0.646262240,2028,~(0x7E),SUB(0x1A),Write,ACK
0.646354820,2028,~(0x7E),NUL(0x00),Write,ACK
0.646598700,2030,~(0x7E),ESC(0x1B),Write,NAK
0.646680990,2030,~(0x7E),NUL(0x00),Write,ACK
0.646935260,2032,~(0x7E),FS (0x1C),Write,ACK
0.647027840,2032,~(0x7E),NUL(0x00),Write,ACK
0.647271150,2034,~(0x7E),GS (0x1D),Write,ACK
0.647363730,2034,~(0x7E),NUL(0x00),Write,ACK
0.647607780,2036,~(0x7E),RS (0x1E),Write,ACK
0.647700360,2036,~(0x7E),NUL(0x00),Write,ACK
0.647943900,2038,~(0x7E),US (0x1F),Write,ACK
0.648036500,2038,~(0x7E),NUL(0x00),Write,ACK
0.648269490,2040,~(0x7E),DLE(0x10),Write,ACK
0.648362030,2040,~(0x7E),NUL(0x00),Write,ACK
0.648613970,2042,~(0x7E),(SP)(0x20),Write,NAK
0.648696260,2042,~(0x7E),NUL(0x00),Write,ACK
0.649059920,2044,~(0x7E),"(0x22),Write,ACK
0.649152500,2044,~(0x7E),(198)(0xC6),Write,ACK
0.649399600,2046,~(0x7E),#(0x23),Write,ACK
0.649492190,2046,~(0x7E),a(0x61),Write,ACK
0.649738180,2048,~(0x7E),$(0x24),Write,ACK
0.649820500,2048,~(0x7E),NUL(0x00),Write,ACK
0.650076270,2050,~(0x7E),SOH(0x01),Write,ACK
0.650168850,2050,~(0x7E),(198)(0xC6),Write,ACK
0.650414080,2054,~(0x7E),STX(0x02),Write,ACK
0.650506660,2054,~(0x7E),a(0x61),Write,ACK
0.650752370,2056,~(0x7E),ETX(0x03),Write,ACK
0.650844960,2056,~(0x7E),NUL(0x00),Write,ACK
0.651090650,2058,~(0x7E),%(0x25),Write,ACK
0.651183230,2058,~(0x7E),NUL(0x00),Write,ACK
0.652564760,2060,~(0x7E),&(0x26),Write,ACK
0.652657430,2060,~(0x7E),SOH(0x01),Write,ACK
0.652904120,2062,~(0x7E),'(0x27),Write,ACK
0.652996690,2062,~(0x7E),SOH(0x01),Write,ACK
0.653231770,2064,?(0x3F),DC4(0x14),Read,ACK
0.653324340,2064,?(0x3F),NUL(0x00),Read,NAK
0.653569710,2066,DEL(0x7F),DC4(0x14),Read,NAK
0.653652000,2066,DEL(0x7F),(128)(0x80),Read,ACK
0.653907910,2068,DEL(0x7F),NAK(0x15),Read,ACK
0.654000510,2068,DEL(0x7F),NUL(0x00),Read,ACK
0.654257050,2070,~(0x7E),+(0x2B),Write,ACK
0.654349630,2070,~(0x7E),NUL(0x00),Write,NAK
0.654581500,2072,DEL(0x7F),SYN(0x16),Read,ACK
0.654674090,2072,DEL(0x7F),NUL(0x00),Read,NAK
0.654930130,2074,~(0x7E),,(0x2C),Write,NAK
0.655012420,2074,~(0x7E),NUL(0x00),Write,NAK
0.655271070,2076,~(0x7E),.(0x2E),Write,ACK
0.655363660,2076,~(0x7E),SOH(0x01),Write,ACK
0.655598730,2078,DEL(0x7F),ETB(0x17),Read,NAK
0.655691310,2078,DEL(0x7F),NUL(0x00),Read,NAK
0.655947260,2080,~(0x7E),0(0x30),Write,ACK
0.656039850,2080,~(0x7E),SOH(0x01),Write,ACK
0.656285100,2082,~(0x7E),1(0x31),Write,ACK
0.656377680,2082,~(0x7E),SOH(0x01),Write,ACK
0.656623120,2084,~(0x7E),2(0x32),Write,ACK
0.656715710,2084,~(0x7E),SOH(0x01),Write,ACK
0.656975000,2086,~(0x7E),3(0x33),Write,ACK
0.657067580,2086,~(0x7E),SOH(0x01),Write,ACK
0.657312760,2088,~(0x7E),4(0x34),Write,ACK
0.657405350,2088,~(0x7E),SOH(0x01),Write,ACK
0.657651000,2090,~(0x7E),5(0x35),Write,ACK
0.657743580,2090,~(0x7E),NUL(0x00),Write,NAK
0.657989100,2092,~(0x7E),6(0x36),Write,ACK
0.658071400,2092,~(0x7E),NUL(0x00),Write,NAK
0.658327430,2094,~(0x7E),7(0x37),Write,ACK
0.658420020,2094,~(0x7E),NUL(0x00),Write,NAK
0.658665090,2096,~(0x7E),8(0x38),Write,ACK
0.658757690,2096,~(0x7E),NUL(0x00),Write,NAK
0.659002790,2098,~(0x7E),9(0x39),Write,ACK
0.659095380,2098,~(0x7E),SOH(0x01),Write,ACK
0.659326850,2100,DEL(0x7F),GS (0x1D),Read,ACK
0.659419430,2100,DEL(0x7F),NUL(0x00),Read,NAK
0.660521870,2102,~(0x7E),;(0x3B),Write,ACK
0.660614460,2102,~(0x7E),SOH(0x01),Write,ACK
0.660862410,2104,~(0x7E),<(0x3C),Write,ACK
0.660954990,2104,~(0x7E),SOH(0x01),Write,ACK
0.661201270,2106,~(0x7E),=(0x3D),Write,ACK
0.661293860,2106,~(0x7E),SOH(0x01),Write,ACK
0.661539530,2108,~(0x7E),>(0x3E),Write,ACK
0.661632210,2108,~(0x7E),SOH(0x01),Write,ACK
0.661877540,2110,~(0x7E),?(0x3F),Write,ACK
0.661970120,2110,~(0x7E),NUL(0x00),Write,NAK
0.675942440,2112,~(0x7E),@(0x40),Write,ACK
0.676035030,2112,~(0x7E),SOH(0x01),Write,ACK
0.676298090,2114,~(0x7E),A(0x41),Write,ACK
0.676390670,2114,~(0x7E),NUL(0x00),Write,NAK
0.676635560,2116,~(0x7E),B(0x42),Write,ACK
0.676728140,2116,~(0x7E),SOH(0x01),Write,ACK
0.677030310,2118,~(0x7E),C(0x43),Write,ACK
0.677122890,2118,~(0x7E),SOH(0x01),Write,ACK
0.677445490,2120,~(0x7E),D(0x44),Write,ACK
0.677538070,2120,~(0x7E),SOH(0x01),Write,ACK
0.677783450,2122,~(0x7E),E(0x45),Write,ACK
0.677876040,2122,~(0x7E),SOH(0x01),Write,ACK
0.678172580,2124,~(0x7E),F(0x46),Write,ACK
0.678265170,2124,~(0x7E),NUL(0x00),Write,NAK
0.678510450,2126,~(0x7E),G(0x47),Write,ACK
0.678603050,2126,~(0x7E),SOH(0x01),Write,ACK
0.678847990,2128,~(0x7E),H(0x48),Write,ACK
0.678940570,2128,~(0x7E),SOH(0x01),Write,ACK
0.679185990,2130,~(0x7E),I(0x49),Write,ACK
0.679278570,2130,~(0x7E),SOH(0x01),Write,ACK
0.679524210,2132,~(0x7E),%(0x25),Write,ACK
0.679616790,2132,~(0x7E),NUL(0x00),Write,ACK
0.680125680,2134,~(0x7E),EOT(0x04),Write,ACK
0.680218300,2134,~(0x7E),(198)(0xC6),Write,ACK
0.680464340,2136,~(0x7E),ENQ(0x05),Write,ACK
0.680556940,2136,~(0x7E),a(0x61),Write,ACK
0.680790530,2138,DEL(0x7F),ETX(0x03),Read,ACK
0.680883260,2138,DEL(0x7F),NUL(0x00),Read,ACK
0.681126300,2140,DEL(0x7F),ETX(0x03),Read,NAK
0.681218880,2140,DEL(0x7F),c(0x63),Read,ACK
0.681472810,2142,~(0x7E),BS (0x08),Write,ACK
0.681565390,2142,~(0x7E),a(0x61),Write,ACK
0.681809020,2144,~(0x7E),HT (0x09),Write,ACK
0.681901590,2144,~(0x7E),NUL(0x00),Write,ACK
0.682144730,2146,~(0x7E),LF (0x0A),Write,ACK
0.682237410,2146,~(0x7E),NUL(0x00),Write,ACK
0.682478740,2148,~(0x7E),VT (0x0B),Write,ACK
0.682571330,2148,~(0x7E),NUL(0x00),Write,ACK
0.682815300,2150,~(0x7E),FF (0x0C),Write,ACK
0.682907890,2150,~(0x7E),NUL(0x00),Write,ACK
0.683140550,2152,?(0x3F),ACK(0x06),Read,NAK
0.683233120,2152,?(0x3F),NUL(0x00),Read,ACK
0.683486620,2154,~(0x7E),SO (0x0E),Write,ACK
0.683579210,2154,~(0x7E),NUL(0x00),Write,ACK
0.683822080,2156,~(0x7E),SI (0x0F),Write,ACK
0.683914660,2156,~(0x7E),NUL(0x00),Write,ACK
0.684157530,2158,~(0x7E),DLE(0x10),Write,ACK
0.684239820,2158,~(0x7E),NUL(0x00),Write,ACK
0.684493570,2160,~(0x7E),DC1(0x11),Write,ACK
0.684586160,2160,~(0x7E),NUL(0x00),Write,ACK
0.684807020,2162,DEL(0x7F),EOT(0x04),Read,NAK
0.684899580,2162,DEL(0x7F),NUL(0x00),Read,ACK
0.685152700,2164,DEL(0x7F),HT (0x09),Read,NAK
0.685234980,2164,DEL(0x7F),(128)(0x80),Read,ACK
0.685498840,2166,~(0x7E),DC4(0x14),Write,ACK
0.685591420,2166,~(0x7E),NUL(0x00),Write,ACK
0.685834470,2168,~(0x7E),NAK(0x15),Write,ACK
0.685927050,2168,~(0x7E),NUL(0x00),Write,ACK
0.686170260,2170,~(0x7E),SYN(0x16),Write,ACK
0.686262850,2170,~(0x7E),NUL(0x00),Write,ACK
0.686506860,2172,~(0x7E),ETB(0x17),Write,ACK
0.686599440,2172,~(0x7E),NUL(0x00),Write,ACK
0.686832210,2174,DEL(0x7F),FF (0x0C),Read,ACK
0.686924790,2174,DEL(0x7F),NUL(0x00),Read,ACK
0.687175390,2176,~(0x7E),EM (0x19),Write,ACK
0.687267970,2176,~(0x7E),NUL(0x00),Write,ACK
0.687511560,2178,~(0x7E),SUB(0x1A),Write,ACK
0.687604140,2178,~(0x7E),NUL(0x00),Write,ACK
0.687847310,2180,~(0x7E),ESC(0x1B),Write,ACK
0.687939890,2180,~(0x7E),NUL(0x00),Write,ACK
0.688183590,2182,~(0x7E),FS (0x1C),Write,ACK
0.688276170,2182,~(0x7E),NUL(0x00),Write,ACK
0.688509440,2184,~(0x7E),SO (0x0E),Write,NAK
0.688602020,2184,~(0x7E),NUL(0x00),Write,ACK
0.688845210,2188,DEL(0x7F),SI (0x0F),Read,ACK
0.688937800,2188,DEL(0x7F),NUL(0x00),Read,ACK
0.689198690,2190,~(0x7E),US (0x1F),Write,NAK
0.689280990,2190,~(0x7E),NUL(0x00),Write,ACK
0.689532910,2192,~(0x7E),(SP)(0x20),Write,ACK
0.689625500,2192,~(0x7E),NUL(0x00),Write,ACK
0.689778730,,DEL(0x7F),,Read,NAK
0.689850730,2194,DEL(0x7F),BS (0x08),Read,ACK
0.689943320,2194,DEL(0x7F),(128)(0x80),Read,ACK
0.690199240,2196,DEL(0x7F),DC1(0x11),Read,ACK
0.690291820,2196,DEL(0x7F),NUL(0x00),Read,ACK
0.690537400,2198,DEL(0x7F),CAN(0x18),Read,NAK
0.690619690,2198,DEL(0x7F),(128)(0x80),Read,ACK
0.690885950,2200,~(0x7E),$(0x24),Write,ACK
0.690978530,2200,~(0x7E),NUL(0x00),Write,ACK
0.691223630,2202,~(0x7E),SOH(0x01),Write,ACK
0.691316200,2202,~(0x7E),(198)(0xC6),Write,ACK
0.691562250,2204,~(0x7E),STX(0x02),Write,ACK
0.691654840,2204,~(0x7E),a(0x61),Write,ACK
0.691896330,2206,~(0x7E),ETX(0x03),Write,ACK
0.691988910,2206,~(0x7E),NUL(0x00),Write,ACK
0.692223990,2208,DEL(0x7F),DC2(0x12),Read,NAK
0.692316670,2208,DEL(0x7F),NUL(0x00),Read,ACK
0.707864100,2210,~(0x7E),&(0x26),Write,ACK
0.707956680,2210,~(0x7E),SOH(0x01),Write,ACK
0.708222360,2212,~(0x7E),'(0x27),Write,ACK
0.708314950,2212,~(0x7E),NUL(0x00),Write,NAK
0.708559180,2214,~(0x7E),((0x28),Write,ACK
0.708651760,2214,~(0x7E),SOH(0x01),Write,ACK
0.708895070,2216,~(0x7E),)(0x29),Write,ACK
0.708987650,2216,~(0x7E),SOH(0x01),Write,ACK
0.709234840,2218,~(0x7E),*(0x2A),Write,ACK
0.709327420,2218,~(0x7E),SOH(0x01),Write,ACK
0.709569550,2220,~(0x7E),+(0x2B),Write,ACK
0.709662130,2220,~(0x7E),SOH(0x01),Write,ACK
0.709904650,2222,DEL(0x7F),SYN(0x16),Read,ACK
0.709997230,2222,DEL(0x7F),NUL(0x00),Read,NAK
0.710254060,2224,~(0x7E),-(0x2D),Write,ACK
0.710346650,2224,~(0x7E),SOH(0x01),Write,ACK
0.710592380,2226,~(0x7E),.(0x2E),Write,ACK
0.710684980,2226,~(0x7E),SOH(0x01),Write,ACK
0.710919950,2228,DEL(0x7F),ETB(0x17),Read,NAK
0.711012530,2228,DEL(0x7F),NUL(0x00),Read,NAK
0.711313820,2230,?(0x3F),CAN(0x18),Read,ACK
0.711406390,2230,?(0x3F),NUL(0x00),Read,NAK
0.711662730,2232,~(0x7E),1(0x31),Write,NAK
0.711745020,2232,~(0x7E),NUL(0x00),Write,NAK
0.712000690,2234,~(0x7E),1(0x31),Write,ACK
0.712083020,2234,~(0x7E),NUL(0x00),Write,NAK
0.712334620,2236,~(0x7E),EM (0x19),Write,NAK
0.712427190,2236,~(0x7E),NUL(0x00),Write,NAK
0.712676400,2238,?(0x3F),SUB(0x1A),Read,ACK
0.712769020,2238,?(0x3F),NUL(0x00),Read,NAK
0.713029130,2240,~(0x7E),5(0x35),Write,ACK
0.713121720,2240,~(0x7E),NUL(0x00),Write,NAK
0.713367500,2242,~(0x7E),6(0x36),Write,ACK
0.713460170,2242,~(0x7E),SOH(0x01),Write,ACK
0.713705480,2244,~(0x7E),7(0x37),Write,NAK
0.713777500,2244,~(0x7E),(128)(0x80),Write,ACK
0.714043250,2246,~(0x7E),8(0x38),Write,ACK
0.714135830,2246,~(0x7E),SOH(0x01),Write,ACK
0.714370960,2248,DEL(0x7F),FS (0x1C),Read,NAK
0.714463550,2248,DEL(0x7F),NUL(0x00),Read,NAK
0.714718600,2250,~(0x7E),:(0x3A),Write,ACK
0.714811190,2250,~(0x7E),SOH(0x01),Write,ACK
0.715042740,2252,DEL(0x7F),GS (0x1D),Read,NAK
0.715135320,2252,DEL(0x7F),NUL(0x00),Read,NAK
0.715390660,2254,~(0x7E),<(0x3C),Write,ACK
0.715483240,2254,~(0x7E),SOH(0x01),Write,ACK
0.715718310,2256,DEL(0x7F),RS (0x1E),Read,NAK
0.715810900,2256,DEL(0x7F),NUL(0x00),Read,NAK
0.716066720,2258,~(0x7E),>(0x3E),Write,ACK
0.716159290,2258,~(0x7E),SOH(0x01),Write,ACK
0.716417540,2260,~(0x7E),?(0x3F),Write,ACK
0.716510110,2260,~(0x7E),SOH(0x01),Write,ACK
0.716756350,2262,~(0x7E),@(0x40),Write,ACK
0.716848940,2262,~(0x7E),SOH(0x01),Write,ACK
0.717094920,2264,~(0x7E),A(0x41),Write,NAK
0.717177220,2264,~(0x7E),NUL(0x00),Write,NAK
0.717419150,2266,DEL(0x7F),!(0x21),Read,ACK
0.717511730,2266,DEL(0x7F),NUL(0x00),Read,NAK
0.717767860,2268,~(0x7E),C(0x43),Write,ACK
0.717860440,2268,~(0x7E),SOH(0x01),Write,ACK
0.718148370,2270,~(0x7E),D(0x44),Write,ACK
0.718240950,2270,~(0x7E),SOH(0x01),Write,ACK
0.718486500,2272,~(0x7E),E(0x45),Write,ACK
0.718579110,2272,~(0x7E),SOH(0x01),Write,ACK
0.718815200,2274,DEL(0x7F),#(0x23),Read,ACK
0.718907770,2274,DEL(0x7F),NUL(0x00),Read,NAK
0.719153620,2276,DEL(0x7F),#(0x23),Read,NAK
0.719246200,2276,DEL(0x7F),NUL(0x00),Read,NAK
0.719501820,2278,~(0x7E),H(0x48),Write,ACK
0.719594390,2278,~(0x7E),SOH(0x01),Write,ACK
0.719839540,2280,~(0x7E),I(0x49),Write,ACK
0.719932130,2280,~(0x7E),SOH(0x01),Write,ACK
0.720173480,2282,~(0x7E),%(0x25),Write,ACK
0.720266070,2282,~(0x7E),NUL(0x00),Write,ACK
0.720756350,2284,~(0x7E),EOT(0x04),Write,ACK
0.720848920,2284,~(0x7E),(198)(0xC6),Write,ACK
0.721092760,2286,~(0x7E),ENQ(0x05),Write,ACK
0.721185340,2286,~(0x7E),a(0x61),Write,ACK
0.721428400,2288,~(0x7E),ACK(0x06),Write,ACK
0.721510710,2288,~(0x7E),NUL(0x00),Write,ACK
0.721764710,2290,~(0x7E),BEL(0x07),Write,ACK
0.721857300,2290,~(0x7E),(198)(0xC6),Write,ACK
0.722100880,2292,~(0x7E),EOT(0x04),Write,ACK
0.722183180,2292,~(0x7E),0(0x30),Write,NAK
0.722426180,2294,DEL(0x7F),EOT(0x04),Read,ACK
0.722508480,2294,DEL(0x7F),(128)(0x80),Read,ACK
0.722766020,2296,DEL(0x7F),ENQ(0x05),Read,ACK
0.722858630,2296,DEL(0x7F),NUL(0x00),Read,ACK
0.723109490,2298,~(0x7E),VT (0x0B),Write,NAK
0.723191810,2298,~(0x7E),NUL(0x00),Write,ACK
0.723445360,2300,~(0x7E),FF (0x0C),Write,ACK
0.723527650,2300,~(0x7E),NUL(0x00),Write,ACK
0.723770790,2302,DEL(0x7F),ETX(0x03),Read,ACK
0.723853080,2302,DEL(0x7F),(128)(0x80),Read,ACK
0.724116830,2304,~(0x7E),SO (0x0E),Write,ACK
0.724209400,2304,~(0x7E),NUL(0x00),Write,ACK
0.724453020,2306,~(0x7E),SI (0x0F),Write,ACK
0.724545610,2306,~(0x7E),NUL(0x00),Write,ACK
0.724788560,2308,~(0x7E),DLE(0x10),Write,ACK
0.724881140,2308,~(0x7E),NUL(0x00),Write,ACK
0.725123190,2310,~(0x7E),DC1(0x11),Write,ACK
0.725215770,2310,~(0x7E),NUL(0x00),Write,ACK
0.725456460,2312,~(0x7E),DC2(0x12),Write,ACK
0.725549040,2312,~(0x7E),NUL(0x00),Write,ACK
0.725792590,2314,~(0x7E),DC3(0x13),Write,ACK
0.725885180,2314,~(0x7E),NUL(0x00),Write,ACK
0.739746230,,DEL(0x7F),,Read,NAK
0.739818250,2316,DEL(0x7F),ENQ(0x05),Read,ACK
0.739910930,2316,DEL(0x7F),NUL(0x00),Read,ACK
0.740196410,2318,~(0x7E),NAK(0x15),Write,ACK
0.740288990,2318,~(0x7E),NUL(0x00),Write,ACK
0.740534980,2320,~(0x7E),SYN(0x16),Write,ACK
0.740627730,2320,~(0x7E),NUL(0x00),Write,ACK
0.740874900,2322,~(0x7E),ETB(0x17),Write,ACK
0.740967570,2322,~(0x7E),NUL(0x00),Write,ACK
0.741213640,2324,~(0x7E),CAN(0x18),Write,ACK
0.741306230,2324,~(0x7E),NUL(0x00),Write,ACK
0.741552330,2328,~(0x7E),EM (0x19),Write,ACK
0.741644910,2328,~(0x7E),NUL(0x00),Write,ACK
0.741891240,2330,~(0x7E),ACK(0x06),Write,NAK
0.741963250,2330,~(0x7E),NUL(0x00),Write,ACK
0.742238670,2332,~(0x7E),ESC(0x1B),Write,ACK
0.742331260,2332,~(0x7E),NUL(0x00),Write,ACK
0.742576580,2334,~(0x7E),FS (0x1C),Write,ACK
0.742669180,2334,~(0x7E),NUL(0x00),Write,ACK
0.742915180,2336,~(0x7E),GS (0x1D),Write,ACK
0.743007800,2336,~(0x7E),NUL(0x00),Write,ACK
0.743253950,2338,~(0x7E),SI (0x0F),Write,ACK
0.743336330,2338,~(0x7E),NUL(0x00),Write,ACK
0.743592800,2340,~(0x7E),US (0x1F),Write,ACK
0.743685470,2340,~(0x7E),NUL(0x00),Write,ACK
0.743921110,2342,DEL(0x7F),DLE(0x10),Read,ACK
0.744013680,2342,DEL(0x7F),NUL(0x00),Read,ACK
0.744281090,2344,~(0x7E),!(0x21),Write,ACK
0.744373720,2344,~(0x7E),NUL(0x00),Write,ACK
0.744615390,2346,~(0x7E),"(0x22),Write,ACK
0.744707970,2346,~(0x7E),NUL(0x00),Write,ACK
0.744991090,2348,~(0x7E),#(0x23),Write,ACK
0.745083680,2348,~(0x7E),NUL(0x00),Write,ACK
0.745319360,2350,DEL(0x7F),DC2(0x12),Read,ACK
0.745411940,2350,DEL(0x7F),NUL(0x00),Read,ACK
0.745657000,2352,DEL(0x7F),NUL(0x00),Read,NAK
0.745749580,2352,DEL(0x7F),c(0x63),Read,ACK
0.746005310,2354,~(0x7E),STX(0x02),Write,ACK
0.746097890,2354,~(0x7E),a(0x61),Write,ACK
0.746343820,2356,~(0x7E),ETX(0x03),Write,ACK
0.746436400,2356,~(0x7E),NUL(0x00),Write,ACK
0.746692500,2360,~(0x7E),&(0x26),Write,NAK
0.746774800,2360,~(0x7E),NUL(0x00),Write,ACK
0.748161430,2362,~(0x7E),DC3(0x13),Write,ACK
0.748254010,2362,~(0x7E),NUL(0x00),Write,NAK
0.748523660,2364,~(0x7E),#(0x23),Write,NAK
0.748605960,2364,~(0x7E),NUL(0x00),Write,NAK
0.748862300,2366,~(0x7E),((0x28),Write,ACK
0.748954880,2366,~(0x7E),SOH(0x01),Write,ACK
0.749200300,2368,~(0x7E),,(0x2C),Write,NAK
0.749282600,2368,~(0x7E),NUL(0x00),Write,NAK
0.749538600,2370,~(0x7E),+(0x2B),Write,ACK
0.749620900,2370,~(0x7E),NUL(0x00),Write,NAK
0.749876480,2372,~(0x7E),+(0x2B),Write,ACK
0.749969060,2372,~(0x7E),SOH(0x01),Write,ACK
0.750232790,2374,~(0x7E),,(0x2C),Write,ACK
0.750325370,2374,~(0x7E),SOH(0x01),Write,ACK
0.750561260,2376,DEL(0x7F),SYN(0x16),Read,NAK
0.750653840,2376,DEL(0x7F),NUL(0x00),Read,NAK
0.750899390,2378,DEL(0x7F),ETB(0x17),Read,ACK
0.750991970,2378,DEL(0x7F),NUL(0x00),Read,NAK
0.751247160,2380,~(0x7E),/(0x2F),Write,ACK
0.751339740,2380,~(0x7E),SOH(0x01),Write,ACK
0.751585670,2382,~(0x7E),8(0x38),Write,ACK
0.751667970,2382,~(0x7E),NUL(0x00),Write,NAK
0.751913290,2384,~(0x7E),CAN(0x18),Write,NAK
0.752005870,2384,~(0x7E),NUL(0x00),Write,ACK
0.752264600,2386,~(0x7E),2(0x32),Write,ACK
0.752357180,2386,~(0x7E),SOH(0x01),Write,ACK
0.752598260,2388,~(0x7E),3(0x33),Write,ACK
0.752680570,2388,~(0x7E),NUL(0x00),Write,NAK
0.752936480,2390,~(0x7E),4(0x34),Write,ACK
0.753029060,2390,~(0x7E),NUL(0x00),Write,NAK
0.753272330,2392,~(0x7E),5(0x35),Write,ACK
0.753364920,2392,~(0x7E),SOH(0x01),Write,ACK
0.753608560,2394,~(0x7E),6(0x36),Write,ACK
0.753701150,2394,~(0x7E),SOH(0x01),Write,ACK
0.753944070,2396,~(0x7E),7(0x37),Write,ACK
0.754036780,2396,~(0x7E),SOH(0x01),Write,ACK
0.754279520,2398,~(0x7E),8(0x38),Write,ACK
0.754372100,2398,~(0x7E),SOH(0x01),Write,ACK
0.754618130,2400,~(0x7E),9(0x39),Write,ACK
0.754710720,2400,~(0x7E),SOH(0x01),Write,ACK
0.754951860,2402,~(0x7E),:(0x3A),Write,ACK
0.755044450,2402,~(0x7E),NUL(0x00),Write,NAK
0.755287510,2404,~(0x7E),;(0x3B),Write,ACK
0.755380090,2404,~(0x7E),SOH(0x01),Write,ACK
0.755623570,2406,~(0x7E),<(0x3C),Write,ACK
0.755716160,2406,~(0x7E),SOH(0x01),Write,ACK
0.755959460,2408,~(0x7E),=(0x3D),Write,ACK
0.756052040,2408,~(0x7E),SOH(0x01),Write,ACK
0.756295210,2410,~(0x7E),US (0x1F),Write,ACK
0.756377530,2410,~(0x7E),NUL(0x00),Write,NAK
0.756631290,2412,~(0x7E),?(0x3F),Write,ACK
0.756723870,2412,~(0x7E),NUL(0x00),Write,ACK
0.757046750,2414,~(0x7E),@(0x40),Write,ACK
0.757139340,2414,~(0x7E),SOH(0x01),Write,ACK
0.757414250,2416,DEL(0x7F),(SP)(0x20),Read,NAK
0.757506830,2416,DEL(0x7F),NUL(0x00),Read,NAK
0.757752390,2418,DEL(0x7F),!(0x21),Read,ACK
0.757844980,2418,DEL(0x7F),NUL(0x00),Read,NAK
0.771958020,2420,~(0x7E),C(0x43),Write,ACK
0.772050610,2420,~(0x7E),SOH(0x01),Write,ACK
0.772325520,2422,~(0x7E),D(0x44),Write,ACK
0.772418190,2422,~(0x7E),SOH(0x01),Write,ACK
0.772654540,2424,DEL(0x7F),#(0x23),Read,ACK
0.772736820,2424,DEL(0x7F),(128)(0x80),Read,ACK
0.773012880,2426,~(0x7E),F(0x46),Write,ACK
0.773105450,2426,~(0x7E),SOH(0x01),Write,ACK
0.773348770,2428,~(0x7E),G(0x47),Write,ACK
0.773441360,2428,~(0x7E),NUL(0x00),Write,NAK
0.773674800,2432,DEL(0x7F),$(0x24),Read,ACK
0.773767370,2432,DEL(0x7F),NUL(0x00),Read,NAK
0.774023610,2434,~(0x7E),I(0x49),Write,ACK
0.774116190,2434,~(0x7E),SOH(0x01),Write,ACK
0.774367740,2436,~(0x7E),%(0x25),Write,ACK
0.774460320,2436,~(0x7E),NUL(0x00),Write,ACK
0.774969030,2438,~(0x7E),STX(0x02),Write,ACK
0.775051330,2438,~(0x7E),NUL(0x00),Write,ACK
0.775305890,2440,DEL(0x7F),STX(0x02),Read,NAK
0.775398470,2440,DEL(0x7F),NUL(0x00),Read,ACK
0.775653250,2442,~(0x7E),ACK(0x06),Write,ACK
0.775745830,2442,~(0x7E),NUL(0x00),Write,ACK
0.775988880,2446,~(0x7E),BEL(0x07),Write,ACK
0.776081450,2446,~(0x7E),(198)(0xC6),Write,ACK
0.776324470,2448,~(0x7E),BS (0x08),Write,ACK
0.776417050,2448,~(0x7E),a(0x61),Write,ACK
0.776660810,2450,~(0x7E),HT (0x09),Write,ACK
0.776743100,2450,~(0x7E),NUL(0x00),Write,ACK
0.777105370,2452,~(0x7E),LF (0x0A),Write,ACK
0.777197950,2452,~(0x7E),(198)(0xC6),Write,ACK
0.777441570,2454,~(0x7E),VT (0x0B),Write,ACK
0.777534140,2454,~(0x7E),a(0x61),Write,ACK
0.777777690,2456,~(0x7E),FF (0x0C),Write,ACK
0.777870270,2456,~(0x7E),NUL(0x00),Write,ACK
0.778114690,2458,~(0x7E),CR (0x0D),Write,ACK
0.778207270,2458,~(0x7E),(198)(0xC6),Write,ACK
0.778450200,2460,~(0x7E),SO (0x0E),Write,ACK
0.778542780,2460,~(0x7E),a(0x61),Write,ACK
0.778786500,2462,~(0x7E),SI (0x0F),Write,ACK
0.778879080,2462,~(0x7E),NUL(0x00),Write,ACK
0.779122400,2464,~(0x7E),DLE(0x10),Write,ACK
0.779214950,2464,~(0x7E),NUL(0x00),Write,ACK
0.779458320,2466,~(0x7E),DC1(0x11),Write,ACK
0.779550900,2466,~(0x7E),NUL(0x00),Write,ACK
0.779784340,2468,DEL(0x7F),HT (0x09),Read,ACK
0.779876930,2468,DEL(0x7F),NUL(0x00),Read,ACK
0.780130790,2470,~(0x7E),DC3(0x13),Write,ACK
0.780223450,2470,~(0x7E),NUL(0x00),Write,ACK
0.780465860,2472,~(0x7E),DC4(0x14),Write,ACK
0.780558440,2472,~(0x7E),NUL(0x00),Write,ACK
0.780791190,2474,?(0x3F),LF (0x0A),Read,NAK
0.780883740,2474,?(0x3F),NUL(0x00),Read,ACK
0.781137060,2476,~(0x7E),SYN(0x16),Write,ACK
0.781229640,2476,~(0x7E),NUL(0x00),Write,ACK
0.781473130,2478,~(0x7E),ETB(0x17),Write,ACK
0.781565710,2478,~(0x7E),NUL(0x00),Write,ACK
0.781808980,2480,~(0x7E),CAN(0x18),Write,ACK
0.781901560,2480,~(0x7E),NUL(0x00),Write,ACK
0.782158750,2482,~(0x7E),EM (0x19),Write,ACK
0.782251330,2482,~(0x7E),NUL(0x00),Write,ACK
0.782494710,2484,~(0x7E),CR (0x0D),Write,ACK
0.782577010,2484,~(0x7E),NUL(0x00),Write,ACK
0.782834920,2486,~(0x7E),ESC(0x1B),Write,ACK
0.782927520,2486,~(0x7E),NUL(0x00),Write,ACK
0.783177230,2488,~(0x7E),FS (0x1C),Write,ACK
0.783269810,2488,~(0x7E),NUL(0x00),Write,ACK
0.783513110,2490,~(0x7E),GS (0x1D),Write,ACK
0.783605700,2490,~(0x7E),NUL(0x00),Write,ACK
0.783849020,2492,~(0x7E),RS (0x1E),Write,ACK
0.783941600,2492,~(0x7E),NUL(0x00),Write,ACK
0.784185600,2494,~(0x7E),US (0x1F),Write,ACK
0.784278270,2494,~(0x7E),NUL(0x00),Write,ACK
0.784521190,2496,~(0x7E),(SP)(0x20),Write,ACK
0.784613770,2496,~(0x7E),NUL(0x00),Write,ACK
0.784856800,2498,~(0x7E),!(0x21),Write,ACK
0.784949380,2498,~(0x7E),NUL(0x00),Write,ACK
0.785188300,2500,DEL(0x7F),DC1(0x11),Read,ACK
0.785280880,2500,DEL(0x7F),NUL(0x00),Read,ACK
0.785535910,2502,~(0x7E),1(0x31),Write,NAK
0.785618200,2502,~(0x7E),NUL(0x00),Write,ACK
0.785881770,2504,~(0x7E),$(0x24),Write,ACK
0.785974360,2504,~(0x7E),NUL(0x00),Write,ACK
0.786220610,2506,~(0x7E),NUL(0x00),Write,NAK
0.786302920,2506,~(0x7E),NUL(0x00),Write,ACK
0.786558560,2508,~(0x7E),STX(0x02),Write,ACK
0.786651140,2508,~(0x7E),NUL(0x00),Write,ACK
0.786896500,2510,~(0x7E),SOH(0x01),Write,NAK
0.786978800,2510,~(0x7E),NUL(0x00),Write,ACK
0.787235340,2512,~(0x7E),$(0x24),Write,NAK
0.787317630,2512,~(0x7E),NUL(0x00),Write,ACK
0.807677230,2514,~(0x7E),'(0x27),Write,ACK
0.807759530,2514,~(0x7E),NUL(0x00),Write,NAK
0.808022510,2516,~(0x7E),'(0x27),Write,ACK
0.808115100,2516,~(0x7E),SOH(0x01),Write,ACK
0.808361340,2518,~(0x7E),((0x28),Write,ACK
0.808453910,2518,~(0x7E),SOH(0x01),Write,ACK
0.808698790,2520,~(0x7E),)(0x29),Write,ACK
0.808791370,2520,~(0x7E),SOH(0x01),Write,ACK
0.809096960,2522,~(0x7E),*(0x2A),Write,ACK
0.809189540,2522,~(0x7E),SOH(0x01),Write,ACK
0.809431810,2524,~(0x7E),+(0x2B),Write,ACK
0.809524390,2524,~(0x7E),SOH(0x01),Write,ACK
0.809765890,2526,~(0x7E),,(0x2C),Write,ACK
0.809858470,2526,~(0x7E),SOH(0x01),Write,ACK
0.810099550,2528,~(0x7E),-(0x2D),Write,ACK
0.810181870,2528,~(0x7E),NUL(0x00),Write,NAK
0.810502950,2530,~(0x7E),.(0x2E),Write,ACK
0.810595520,2530,~(0x7E),SOH(0x01),Write,ACK
0.810841250,2532,~(0x7E),/(0x2F),Write,NAK
0.810923540,2532,~(0x7E),NUL(0x00),Write,NAK
0.811197010,2534,~(0x7E),0(0x30),Write,ACK
0.811279330,2534,~(0x7E),NUL(0x00),Write,NAK
0.811438180,,DEL(0x7F),,Read,NAK
0.811510190,2536,DEL(0x7F),FF (0x0C),Read,ACK
0.811602760,2536,DEL(0x7F),(128)(0x80),Read,ACK
0.811863550,2538,~(0x7E),2(0x32),Write,ACK
0.811956130,2538,~(0x7E),NUL(0x00),Write,NAK
0.812187860,2540,~(0x7E),CAN(0x18),Write,NAK
0.812270150,2540,~(0x7E),(128)(0x80),Write,ACK
0.812533700,2542,~(0x7E),:(0x3A),Write,ACK
0.812615990,2542,~(0x7E),NUL(0x00),Write,NAK
0.812868540,2544,~(0x7E),5(0x35),Write,ACK
0.812961130,2544,~(0x7E),SOH(0x01),Write,ACK
0.813208320,2546,~(0x7E),6(0x36),Write,ACK
0.813300900,2546,~(0x7E),SOH(0x01),Write,ACK
0.813540940,2548,DEL(0x7F),ESC(0x1B),Read,NAK
0.813633520,2548,DEL(0x7F),NUL(0x00),Read,NAK
0.813875390,2550,DEL(0x7F),FS (0x1C),Read,ACK
0.813967970,2550,DEL(0x7F),NUL(0x00),Read,NAK
0.814245950,2552,~(0x7E),9(0x39),Write,ACK
0.814338520,2552,~(0x7E),SOH(0x01),Write,ACK
0.814581360,2554,~(0x7E),:(0x3A),Write,ACK
0.814673950,2554,~(0x7E),NUL(0x00),Write,NAK
0.814915690,2556,~(0x7E),;(0x3B),Write,ACK
0.815008270,2556,~(0x7E),SOH(0x01),Write,ACK
0.815250210,2558,~(0x7E),<(0x3C),Write,ACK
0.815342800,2558,~(0x7E),SOH(0x01),Write,ACK
0.815584910,2560,~(0x7E),=(0x3D),Write,ACK
0.815677490,2560,~(0x7E),NUL(0x00),Write,NAK
0.815933230,2562,~(0x7E),?(0x3F),Write,NAK
0.816005240,2562,~(0x7E),NUL(0x00),Write,ACK
0.816288640,2564,~(0x7E),?(0x3F),Write,ACK
0.816381220,2564,~(0x7E),SOH(0x01),Write,NAK
0.816630740,2566,~(0x7E),@(0x40),Write,ACK
0.816723320,2566,~(0x7E),SOH(0x01),Write,ACK
0.817023860,2568,~(0x7E),A(0x41),Write,ACK
0.817116450,2568,~(0x7E),SOH(0x01),Write,ACK
0.817358890,2570,~(0x7E),B(0x42),Write,ACK
0.817451470,2570,~(0x7E),SOH(0x01),Write,ACK
0.817693800,2572,~(0x7E),C(0x43),Write,ACK
0.817786350,2572,~(0x7E),SOH(0x01),Write,ACK
0.818028170,2574,~(0x7E),D(0x44),Write,ACK
0.818120760,2574,~(0x7E),NUL(0x00),Write,NAK
0.818362470,2576,~(0x7E),E(0x45),Write,ACK
0.818455100,2576,~(0x7E),SOH(0x01),Write,ACK
0.818697060,2580,~(0x7E),F(0x46),Write,ACK
0.818789650,2580,~(0x7E),SOH(0x01),Write,ACK
0.819031250,2582,~(0x7E),G(0x47),Write,ACK
0.819123910,2582,~(0x7E),SOH(0x01),Write,NAK
0.819381620,2584,~(0x7E),H(0x48),Write,ACK
0.819474220,2584,~(0x7E),SOH(0x01),Write,ACK
0.819724060,2586,~(0x7E),I(0x49),Write,ACK
0.819816630,2586,~(0x7E),NUL(0x00),Write,NAK
0.820049120,2588,DEL(0x7F),DC2(0x12),Read,NAK
0.820141700,2588,DEL(0x7F),NUL(0x00),Read,ACK
0.820620250,2590,~(0x7E),EOT(0x04),Write,ACK
0.820712830,2590,~(0x7E),NUL(0x00),Write,ACK
0.820984630,2592,~(0x7E),ENQ(0x05),Write,ACK
0.821077210,2592,~(0x7E),NUL(0x00),Write,ACK
0.821322520,2594,~(0x7E),ACK(0x06),Write,ACK
0.821415100,2594,~(0x7E),NUL(0x00),Write,ACK
0.821645280,2596,~(0x7E),ETX(0x03),Write,NAK
0.821737950,2596,~(0x7E),q(0x71),Write,NAK
0.821978900,2598,DEL(0x7F),EOT(0x04),Read,ACK
0.822071480,2598,DEL(0x7F),0(0x30),Read,NAK
0.834343160,2600,~(0x7E),HT (0x09),Write,ACK
0.834435760,2600,~(0x7E),NUL(0x00),Write,ACK
0.834728520,2602,~(0x7E),LF (0x0A),Write,ACK
0.834821100,2602,~(0x7E),(195)(0xC3),Write,ACK
0.835069880,2604,~(0x7E),VT (0x0B),Write,ACK
0.835162460,2604,~(0x7E),a(0x61),Write,ACK
0.835392720,2606,DEL(0x7F),ACK(0x06),Read,ACK
0.835485310,2606,DEL(0x7F),NUL(0x00),Read,ACK
0.835736790,2608,~(0x7E),CR (0x0D),Write,ACK
0.835829370,2608,~(0x7E),(198)(0xC6),Write,ACK
0.836069190,2610,~(0x7E),BEL(0x07),Write,ACK
0.836151480,2610,~(0x7E),0(0x30),Write,NAK
0.836401460,2612,~(0x7E),SI (0x0F),Write,ACK
0.836494040,2612,~(0x7E),NUL(0x00),Write,ACK
0.836734490,2614,~(0x7E),DLE(0x10),Write,ACK
0.836827070,2614,~(0x7E),NUL(0x00),Write,ACK
0.837100560,2616,~(0x7E),DC1(0x11),Write,ACK
0.837193150,2616,~(0x7E),NUL(0x00),Write,ACK
0.837490420,2618,~(0x7E),DC2(0x12),Write,ACK
0.837583000,2618,~(0x7E),NUL(0x00),Write,ACK
0.837833270,2620,~(0x7E),DC3(0x13),Write,ACK
0.837925910,2620,~(0x7E),NUL(0x00),Write,ACK
0.838089640,,DEL(0x7F),,Read,NAK
0.838151350,2622,DEL(0x7F),(130)(0x82),Read,NAK
0.838243940,2622,DEL(0x7F),NUL(0x00),Read,ACK
0.838517320,2624,~(0x7E),NAK(0x15),Write,ACK
0.838609910,2624,~(0x7E),NUL(0x00),Write,ACK
0.838853040,2626,~(0x7E),ESC(0x1B),Write,ACK
0.838935420,2626,~(0x7E),NUL(0x00),Write,ACK
0.839177340,2628,DEL(0x7F),VT (0x0B),Read,NAK
0.839270000,2628,DEL(0x7F),NUL(0x00),Read,ACK
0.839522660,2630,~(0x7E),CAN(0x18),Write,ACK
0.839615240,2630,~(0x7E),NUL(0x00),Write,ACK
0.839858120,2632,~(0x7E),FS (0x1C),Write,NAK
0.839940420,2632,~(0x7E),NUL(0x00),Write,ACK
0.840193500,2634,~(0x7E),GS (0x1D),Write,ACK
0.840275800,2634,~(0x7E),NUL(0x00),Write,ACK
0.840549530,2636,~(0x7E),ESC(0x1B),Write,ACK
0.840642120,2636,~(0x7E),NUL(0x00),Write,ACK
0.840892440,2638,~(0x7E),FS (0x1C),Write,ACK
0.840985030,2638,~(0x7E),NUL(0x00),Write,ACK
0.841230520,2640,~(0x7E),GS (0x1D),Write,ACK
0.841323090,2640,~(0x7E),NUL(0x00),Write,ACK
0.841564850,2642,~(0x7E),RS (0x1E),Write,ACK
0.841657440,2642,~(0x7E),NUL(0x00),Write,ACK
0.841899540,2644,~(0x7E),US (0x1F),Write,ACK
0.841992120,2644,~(0x7E),NUL(0x00),Write,ACK
0.842234250,2646,~(0x7E),(SP)(0x20),Write,ACK
0.842326840,2646,~(0x7E),NUL(0x00),Write,ACK
0.842569120,2648,~(0x7E),!(0x21),Write,ACK
0.842651430,2648,~(0x7E),NUL(0x00),Write,ACK
0.842917510,2650,~(0x7E),"(0x22),Write,ACK
0.843010100,2650,~(0x7E),NUL(0x00),Write,ACK
0.843259690,2652,~(0x7E),#(0x23),Write,ACK
0.843352280,2652,~(0x7E),NUL(0x00),Write,ACK
0.843593960,2654,~(0x7E),$(0x24),Write,ACK
0.843686540,2654,~(0x7E),NUL(0x00),Write,ACK
0.843928330,2656,~(0x7E),NUL(0x00),Write,NAK
0.844010620,2656,~(0x7E),NUL(0x00),Write,ACK
0.844262700,2658,~(0x7E),STX(0x02),Write,ACK
0.844345000,2658,~(0x7E),NUL(0x00),Write,ACK
0.844587190,2660,DEL(0x7F),SOH(0x01),Read,NAK
0.844679770,2660,DEL(0x7F),NUL(0x00),Read,ACK
0.844932770,2662,~(0x7E),%(0x25),Write,ACK
0.845025350,2662,~(0x7E),NUL(0x00),Write,ACK
0.846405790,2664,~(0x7E),'(0x27),Write,ACK
0.846488080,2664,~(0x7E),NUL(0x00),Write,NAK
0.846740680,2668,~(0x7E),DC3(0x13),Write,NAK
0.846822970,2668,~(0x7E),NUL(0x00),Write,NAK
0.847075320,2670,~(0x7E),((0x28),Write,ACK
0.847167900,2670,~(0x7E),SOH(0x01),Write,ACK
0.847410360,2672,~(0x7E),)(0x29),Write,ACK
0.847502920,2672,~(0x7E),NUL(0x00),Write,NAK
0.847744940,2674,~(0x7E),*(0x2A),Write,ACK
0.847837520,2674,~(0x7E),SOH(0x01),Write,ACK
0.848079080,2676,~(0x7E),+(0x2B),Write,ACK
0.848171670,2676,~(0x7E),NUL(0x00),Write,NAK
0.848413700,2678,~(0x7E),,(0x2C),Write,ACK
0.848506280,2678,~(0x7E),SOH(0x01),Write,ACK
0.848763760,2680,~(0x7E),-(0x2D),Write,ACK
0.848856350,2680,~(0x7E),NUL(0x00),Write,NAK
0.849109250,2682,DEL(0x7F),ETB(0x17),Read,ACK
0.849201850,2682,DEL(0x7F),NUL(0x00),Read,NAK
0.849444550,2684,~(0x7E),ETB(0x17),Write,NAK
0.849537130,2684,~(0x7E),NUL(0x00),Write,NAK
0.849790110,2686,~(0x7E),8(0x38),Write,ACK
0.849872400,2686,~(0x7E),NUL(0x00),Write,NAK
0.850124440,2688,~(0x7E),1(0x31),Write,ACK
0.850217030,2688,~(0x7E),SOH(0x01),Write,ACK
0.850459720,2690,~(0x7E),2(0x32),Write,ACK
0.850552300,2690,~(0x7E),SOH(0x01),Write,ACK
0.850793790,2692,~(0x7E),3(0x33),Write,ACK
0.850886380,2692,~(0x7E),SOH(0x01),Write,ACK
0.851131110,2694,~(0x7E),4(0x34),Write,ACK
0.851223690,2694,~(0x7E),SOH(0x01),Write,ACK
0.851487900,2696,~(0x7E),SUB(0x1A),Write,NAK
0.851570210,2696,~(0x7E),NUL(0x00),Write,NAK
0.851829470,2698,~(0x7E),6(0x36),Write,ACK
0.851922050,2698,~(0x7E),SOH(0x01),Write,ACK
0.852163920,2700,~(0x7E),7(0x37),Write,ACK
0.852256490,2700,~(0x7E),SOH(0x01),Write,ACK
0.852488250,2702,DEL(0x7F),FS (0x1C),Read,ACK
0.852580840,2702,DEL(0x7F),NUL(0x00),Read,NAK
0.852833020,2704,~(0x7E),9(0x39),Write,ACK
0.852925600,2704,~(0x7E),SOH(0x01),Write,ACK
0.853167320,2706,~(0x7E),:(0x3A),Write,ACK
0.853259900,2706,~(0x7E),SOH(0x01),Write,ACK
0.853502540,2708,~(0x7E),;(0x3B),Write,ACK
0.853595110,2708,~(0x7E),SOH(0x01),Write,ACK
0.853838470,2710,~(0x7E),<(0x3C),Write,ACK
0.853920770,2710,~(0x7E),NUL(0x00),Write,NAK
0.866342520,2712,~(0x7E),=(0x3D),Write,ACK
0.866435100,2712,~(0x7E),NUL(0x00),Write,NAK
0.866693190,2714,~(0x7E),?(0x3F),Write,ACK
0.866775480,2714,~(0x7E),NUL(0x00),Write,NAK
0.867028020,2716,~(0x7E),?(0x3F),Write,ACK
0.867120600,2716,~(0x7E),SOH(0x01),Write,ACK
0.867363400,2718,~(0x7E),@(0x40),Write,ACK
0.867455980,2718,~(0x7E),SOH(0x01),Write,ACK
0.867698060,2720,~(0x7E),A(0x41),Write,ACK
0.867790640,2720,~(0x7E),SOH(0x01),Write,ACK
0.868032460,2722,~(0x7E),B(0x42),Write,ACK
0.868125050,2722,~(0x7E),SOH(0x01),Write,ACK
0.868367050,2724,~(0x7E),C(0x43),Write,ACK
0.868459630,2724,~(0x7E),SOH(0x01),Write,ACK
0.868709930,2726,DEL(0x7F),"(0x22),Read,ACK
0.868802510,2726,DEL(0x7F),NUL(0x00),Read,NAK
0.869080240,2728,~(0x7E),E(0x45),Write,ACK
0.869172810,2728,~(0x7E),SOH(0x01),Write,ACK
0.869470150,2730,~(0x7E),F(0x46),Write,ACK
0.869562730,2730,~(0x7E),NUL(0x00),Write,NAK
0.869794670,2732,DEL(0x7F),#(0x23),Read,NAK
0.869887260,2732,DEL(0x7F),NUL(0x00),Read,NAK
0.870208850,2734,~(0x7E),H(0x48),Write,ACK
0.870301430,2734,~(0x7E),SOH(0x01),Write,ACK
0.870544050,2736,~(0x7E),I(0x49),Write,ACK
0.870636630,2736,~(0x7E),SOH(0x01),Write,ACK
0.870878440,2738,~(0x7E),%(0x25),Write,ACK
0.870971020,2738,~(0x7E),NUL(0x00),Write,ACK
0.871457380,2740,~(0x7E),EOT(0x04),Write,ACK
0.871549960,2740,~(0x7E),NUL(0x00),Write,ACK
0.871790880,2742,~(0x7E),ENQ(0x05),Write,ACK
0.871883460,2742,~(0x7E),NUL(0x00),Write,ACK
0.872123520,2744,~(0x7E),ACK(0x06),Write,ACK
0.872216110,2744,~(0x7E),NUL(0x00),Write,ACK
0.872456270,2746,~(0x7E),BEL(0x07),Write,ACK
0.872548850,2746,~(0x7E),NUL(0x00),Write,ACK
0.872788590,2748,~(0x7E),BS (0x08),Write,ACK
0.872870920,2748,~(0x7E),NUL(0x00),Write,ACK
0.873121450,2750,~(0x7E),HT (0x09),Write,ACK
0.873214030,2750,~(0x7E),NUL(0x00),Write,ACK
0.873458750,2752,~(0x7E),ENQ(0x05),Write,ACK
0.873551320,2752,~(0x7E),c(0x63),Write,ACK
0.873826530,2754,~(0x7E),VT (0x0B),Write,ACK
0.873919110,2754,~(0x7E),x(0x78),Write,ACK
0.874167230,2756,~(0x7E),ACK(0x06),Write,ACK
0.874249530,2756,~(0x7E),NUL(0x00),Write,ACK
0.874489690,2758,DEL(0x7F),ACK(0x06),Read,NAK
0.874582250,2758,DEL(0x7F),c(0x63),Read,ACK
0.874832860,2760,~(0x7E),SO (0x0E),Write,ACK
0.874925450,2760,~(0x7E),a(0x61),Write,ACK
0.875165320,2762,~(0x7E),SI (0x0F),Write,ACK
0.875257910,2762,~(0x7E),NUL(0x00),Write,ACK
0.875498350,2764,~(0x7E),DLE(0x10),Write,ACK
0.875590910,2764,~(0x7E),(193)(0xC1),Write,NAK
0.875830800,2766,~(0x7E),DC1(0x11),Write,ACK
0.875913110,2766,~(0x7E),0(0x30),Write,NAK
0.876163290,2768,~(0x7E),DC2(0x12),Write,ACK
0.876255870,2768,~(0x7E),NUL(0x00),Write,ACK
0.876509960,2770,~(0x7E),DC3(0x13),Write,ACK
0.876602550,2770,~(0x7E),NUL(0x00),Write,ACK
0.876850610,2772,~(0x7E),DC4(0x14),Write,ACK
0.876943200,2772,~(0x7E),NUL(0x00),Write,ACK
0.877183650,2774,~(0x7E),NAK(0x15),Write,ACK
0.877276230,2774,~(0x7E),NUL(0x00),Write,ACK
0.877516320,2776,~(0x7E),SYN(0x16),Write,ACK
0.877608910,2776,~(0x7E),NUL(0x00),Write,ACK
0.877849400,2778,~(0x7E),VT (0x0B),Write,NAK
0.877931690,2778,~(0x7E),NUL(0x00),Write,ACK
0.878182010,2780,~(0x7E),CAN(0x18),Write,ACK
0.878274590,2780,~(0x7E),NUL(0x00),Write,ACK
0.878504260,2782,DEL(0x7F),FF (0x0C),Read,NAK
0.878596850,2782,DEL(0x7F),NUL(0x00),Read,ACK
0.878847350,2784,~(0x7E),SUB(0x1A),Write,ACK
0.878939930,2784,~(0x7E),NUL(0x00),Write,ACK
0.879195140,2786,~(0x7E),ESC(0x1B),Write,ACK
0.879287720,2786,~(0x7E),NUL(0x00),Write,ACK
0.879535520,2788,~(0x7E),FS (0x1C),Write,ACK
0.879628180,2788,~(0x7E),NUL(0x00),Write,ACK
0.879868610,2790,~(0x7E),GS (0x1D),Write,ACK
0.879961200,2790,~(0x7E),NUL(0x00),Write,ACK
0.880201160,2792,~(0x7E),RS (0x1E),Write,ACK
0.880293740,2792,~(0x7E),NUL(0x00),Write,ACK
0.880534380,2794,~(0x7E),US (0x1F),Write,ACK
0.880627000,2794,~(0x7E),NUL(0x00),Write,ACK
0.880866990,2796,~(0x7E),(SP)(0x20),Write,ACK
0.880959570,2796,~(0x7E),NUL(0x00),Write,ACK
0.881191800,2800,~(0x7E),DLE(0x10),Write,NAK
0.881284370,2800,~(0x7E),NUL(0x00),Write,ACK
0.881534680,2802,~(0x7E),#(0x23),Write,ACK
0.881616970,2802,~(0x7E),NUL(0x00),Write,ACK
0.881876300,2804,~(0x7E),#(0x23),Write,ACK
0.881968870,2804,~(0x7E),NUL(0x00),Write,ACK
0.882211390,2806,~(0x7E),$(0x24),Write,ACK
0.882303990,2806,~(0x7E),NUL(0x00),Write,ACK
0.882545780,2808,~(0x7E),SOH(0x01),Write,ACK
0.882638380,2808,~(0x7E),NUL(0x00),Write,ACK
0.882880700,2810,~(0x7E),STX(0x02),Write,ACK
0.882973300,2810,~(0x7E),NUL(0x00),Write,ACK
0.883215600,2812,~(0x7E),ETX(0x03),Write,ACK
0.883308180,2812,~(0x7E),NUL(0x00),Write,ACK
0.883550300,2814,~(0x7E),%(0x25),Write,ACK
0.883642890,2814,~(0x7E),NUL(0x00),Write,ACK
0.906288190,2816,~(0x7E),&(0x26),Write,ACK
0.906380770,2816,~(0x7E),SOH(0x01),Write,ACK
0.906656900,2818,DEL(0x7F),DC3(0x13),Read,NAK
0.906749480,2818,DEL(0x7F),NUL(0x00),Read,NAK
0.907016490,2820,DEL(0x7F),DC4(0x14),Read,ACK
0.907109070,2820,DEL(0x7F),NUL(0x00),Read,NAK
0.907386120,2822,~(0x7E),((0x28),Write,NAK
0.907468410,2822,~(0x7E),NUL(0x00),Write,NAK
0.907744110,2824,~(0x7E),*(0x2A),Write,ACK
0.907836690,2824,~(0x7E),SOH(0x01),Write,NAK
0.908119460,2826,~(0x7E),+(0x2B),Write,ACK
0.908212050,2826,~(0x7E),NUL(0x00),Write,NAK
0.908484990,2828,DEL(0x7F),SYN(0x16),Read,ACK
0.908577570,2828,DEL(0x7F),NUL(0x00),Read,NAK
0.908930420,2830,~(0x7E),-(0x2D),Write,ACK
0.909023010,2830,~(0x7E),SOH(0x01),Write,ACK
0.909283930,2832,~(0x7E),.(0x2E),Write,ACK
0.909376510,2832,~(0x7E),SOH(0x01),Write,ACK
0.909628890,2834,DEL(0x7F),ETB(0x17),Read,NAK
0.909721470,2834,DEL(0x7F),NUL(0x00),Read,NAK
0.910031760,2838,~(0x7E),0(0x30),Write,ACK
0.910124340,2838,~(0x7E),SOH(0x01),Write,ACK
0.910373480,2840,DEL(0x7F),CAN(0x18),Read,NAK
0.910466050,2840,DEL(0x7F),NUL(0x00),Read,NAK
0.910735410,2842,~(0x7E),2(0x32),Write,ACK
0.910827990,2842,~(0x7E),SOH(0x01),Write,ACK
0.911062520,2844,~(0x7E),3(0x33),Write,ACK
0.911155100,2844,~(0x7E),SOH(0x01),Write,ACK
0.911389630,2846,~(0x7E),4(0x34),Write,ACK
0.911482210,2846,~(0x7E),SOH(0x01),Write,ACK
0.911716560,2848,~(0x7E),5(0x35),Write,ACK
0.911809150,2848,~(0x7E),SOH(0x01),Write,ACK
0.912050030,2850,~(0x7E),6(0x36),Write,ACK
0.912142710,2850,~(0x7E),SOH(0x01),Write,ACK
0.912376790,2852,~(0x7E),ESC(0x1B),Write,NAK
0.912459090,2852,~(0x7E),NUL(0x00),Write,NAK
0.912704390,2854,~(0x7E),8(0x38),Write,ACK
0.912796970,2854,~(0x7E),SOH(0x01),Write,ACK
0.913031100,2856,DEL(0x7F),FS (0x1C),Read,NAK
0.913123680,2856,DEL(0x7F),NUL(0x00),Read,NAK
0.913370210,2858,~(0x7E),:(0x3A),Write,ACK
0.913462800,2858,~(0x7E),SOH(0x01),Write,ACK
0.913698940,2860,~(0x7E),;(0x3B),Write,ACK
0.913791520,2860,~(0x7E),SOH(0x01),Write,ACK
0.914027940,2862,~(0x7E),<(0x3C),Write,ACK
0.914120530,2862,~(0x7E),SOH(0x01),Write,ACK
0.914368000,2864,~(0x7E),=(0x3D),Write,ACK
0.914460590,2864,~(0x7E),SOH(0x01),Write,ACK
0.914697260,2866,~(0x7E),?(0x3F),Write,ACK
0.914779550,2866,~(0x7E),NUL(0x00),Write,NAK
0.915025820,2868,~(0x7E),US (0x1F),Write,NAK
0.915108130,2868,~(0x7E),NUL(0x00),Write,NAK
0.915397780,2870,~(0x7E),@(0x40),Write,ACK
0.915490360,2870,~(0x7E),SOH(0x01),Write,ACK
0.915726320,2872,~(0x7E),A(0x41),Write,ACK
0.915818890,2872,~(0x7E),NUL(0x00),Write,NAK
0.916044550,2874,DEL(0x7F),!(0x21),Read,ACK
0.916137130,2874,DEL(0x7F),NUL(0x00),Read,ACK
0.916383260,2876,~(0x7E),C(0x43),Write,ACK
0.916475840,2876,~(0x7E),SOH(0x01),Write,ACK
0.916711480,2878,~(0x7E),D(0x44),Write,ACK
0.916804060,2878,~(0x7E),SOH(0x01),Write,ACK
0.917037470,2880,~(0x7E),E(0x45),Write,ACK
0.917130050,2880,~(0x7E),SOH(0x01),Write,ACK
0.917371820,2882,~(0x7E),F(0x46),Write,ACK
0.917464400,2882,~(0x7E),NUL(0x00),Write,NAK
0.917700780,2884,~(0x7E),G(0x47),Write,ACK
0.917793360,2884,~(0x7E),SOH(0x01),Write,ACK
0.918029680,2886,~(0x7E),H(0x48),Write,ACK
0.918122250,2886,~(0x7E),SOH(0x01),Write,ACK
0.922492580,2888,~(0x7E),I(0x49),Write,NAK
0.922574920,2888,~(0x7E),NUL(0x00),Write,NAK
0.922845850,2890,~(0x7E),%(0x25),Write,ACK
0.922938420,2890,~(0x7E),NUL(0x00),Write,ACK
0.923391980,2892,~(0x7E),EOT(0x04),Write,ACK
0.923484560,2892,~(0x7E),NUL(0x00),Write,ACK
0.923720690,2894,~(0x7E),ENQ(0x05),Write,ACK
0.923813270,2894,~(0x7E),NUL(0x00),Write,ACK
0.924038090,2896,~(0x7E),ETX(0x03),Write,ACK
0.924130750,2896,~(0x7E),NUL(0x00),Write,ACK
0.924375510,2898,~(0x7E),BEL(0x07),Write,ACK
0.924468090,2898,~(0x7E),NUL(0x00),Write,ACK
0.924692270,2900,DEL(0x7F),EOT(0x04),Read,ACK
0.924784860,2900,DEL(0x7F),NUL(0x00),Read,ACK
0.925032570,2902,~(0x7E),HT (0x09),Write,ACK
0.925125160,2902,~(0x7E),NUL(0x00),Write,ACK
0.925359840,2904,~(0x7E),LF (0x0A),Write,ACK
0.925452420,2904,~(0x7E),(199)(0xC7),Write,ACK
0.925700280,2906,~(0x7E),VT (0x0B),Write,ACK
0.925792860,2906,~(0x7E),a(0x61),Write,ACK
0.926020500,2908,DEL(0x7F),ACK(0x06),Read,ACK
0.926113090,2908,DEL(0x7F),NUL(0x00),Read,ACK
0.926358090,2910,~(0x7E),CR (0x0D),Write,ACK
0.926450670,2910,~(0x7E),(198)(0xC6),Write,ACK
0.926685010,2914,~(0x7E),SO (0x0E),Write,ACK
0.926777590,2914,~(0x7E),a(0x61),Write,ACK
0.926919560,,?(0x3F),,Read,NAK
0.926991590,2916,?(0x3F),ETX(0x03),Read,NAK
0.927084170,2916,?(0x3F),(128)(0x80),Read,ACK
0.927339350,2918,~(0x7E),DLE(0x10),Write,ACK
0.927431930,2918,~(0x7E),(198)(0xC6),Write,ACK
0.927667330,2920,~(0x7E),DC1(0x11),Write,ACK
0.927759910,2920,~(0x7E),a(0x61),Write,ACK
0.927994700,2922,~(0x7E),DC2(0x12),Write,ACK
0.928087280,2922,~(0x7E),NUL(0x00),Write,ACK
0.928323820,2924,~(0x7E),DC3(0x13),Write,ACK
0.928416400,2924,~(0x7E),NUL(0x00),Write,ACK
0.928656790,2928,~(0x7E),DC4(0x14),Write,ACK
0.928749380,2928,~(0x7E),NUL(0x00),Write,ACK
0.929018740,2930,~(0x7E),NAK(0x15),Write,ACK
0.929111320,2930,~(0x7E),NUL(0x00),Write,ACK
0.929345820,2932,~(0x7E),SYN(0x16),Write,ACK
0.929438400,2932,~(0x7E),NUL(0x00),Write,ACK
0.929673190,2934,~(0x7E),VT (0x0B),Write,NAK
0.929755490,2934,~(0x7E),NUL(0x00),Write,ACK
0.930000180,2936,~(0x7E),CAN(0x18),Write,ACK
0.930092770,2936,~(0x7E),NUL(0x00),Write,ACK
0.930331860,2938,~(0x7E),EM (0x19),Write,ACK
0.930424450,2938,~(0x7E),NUL(0x00),Write,ACK
0.930658860,2940,~(0x7E),SUB(0x1A),Write,ACK
0.930751440,2940,~(0x7E),NUL(0x00),Write,ACK
0.930985950,2942,~(0x7E),ESC(0x1B),Write,ACK
0.931078530,2942,~(0x7E),NUL(0x00),Write,ACK
0.931302520,2944,DEL(0x7F),SO (0x0E),Read,ACK
0.931395100,2944,DEL(0x7F),NUL(0x00),Read,ACK
0.931645570,2946,~(0x7E),GS (0x1D),Write,ACK
0.931738150,2946,~(0x7E),NUL(0x00),Write,ACK
0.931972350,2948,~(0x7E),RS (0x1E),Write,ACK
0.932064920,2948,~(0x7E),NUL(0x00),Write,ACK
0.932299530,2950,~(0x7E),US (0x1F),Write,ACK
0.932392230,2950,~(0x7E),NUL(0x00),Write,ACK
0.932626650,2952,~(0x7E),(SP)(0x20),Write,ACK
0.932719240,2952,~(0x7E),NUL(0x00),Write,ACK
0.932953880,2954,~(0x7E),!(0x21),Write,ACK
0.933046460,2954,~(0x7E),NUL(0x00),Write,ACK
0.933281620,2956,~(0x7E),"(0x22),Write,ACK
0.933374210,2956,~(0x7E),NUL(0x00),Write,ACK
0.933608800,2958,~(0x7E),#(0x23),Write,ACK
0.933701400,2958,~(0x7E),NUL(0x00),Write,ACK
0.933934320,2960,~(0x7E),$(0x24),Write,ACK
0.934026900,2960,~(0x7E),NUL(0x00),Write,ACK
0.939977990,2962,~(0x7E),SOH(0x01),Write,ACK
0.940070570,2962,~(0x7E),NUL(0x00),Write,ACK
0.940322250,2964,~(0x7E),STX(0x02),Write,ACK
0.940414860,2964,~(0x7E),NUL(0x00),Write,ACK
0.940652470,2966,~(0x7E),ETX(0x03),Write,ACK
0.940745060,2966,~(0x7E),NUL(0x00),Write,ACK
0.940990080,2968,~(0x7E),%(0x25),Write,ACK
0.941082650,2968,~(0x7E),NUL(0x00),Write,ACK
0.942431540,2970,~(0x7E),DC3(0x13),Write,ACK
0.942524140,2970,~(0x7E),NUL(0x00),Write,NAK
0.942760870,2972,DEL(0x7F),DC3(0x13),Read,NAK
0.942853480,2972,DEL(0x7F),NUL(0x00),Read,ACK
0.943089360,2974,~(0x7E),DC4(0x14),Write,ACK
0.943181930,2974,~(0x7E),NUL(0x00),Write,NAK
0.943426590,2976,~(0x7E),)(0x29),Write,ACK
0.943519180,2976,~(0x7E),SOH(0x01),Write,ACK
0.943760880,2978,~(0x7E),*(0x2A),Write,ACK
0.943853470,2978,~(0x7E),NUL(0x00),Write,NAK
0.944089520,2980,~(0x7E),+(0x2B),Write,ACK
0.944182100,2980,~(0x7E),NUL(0x00),Write,NAK
0.944418410,2982,~(0x7E),,(0x2C),Write,ACK
0.944510980,2982,~(0x7E),SOH(0x01),Write,ACK
0.944746700,2984,~(0x7E),-(0x2D),Write,ACK
0.944839280,2984,~(0x7E),SOH(0x01),Write,ACK
0.945078720,2986,~(0x7E),.(0x2E),Write,ACK
0.945171300,2986,~(0x7E),SOH(0x01),Write,ACK
0.945407080,2988,~(0x7E),/(0x2F),Write,ACK
0.945499660,2988,~(0x7E),SOH(0x01),Write,ACK
0.945735510,2990,~(0x7E),0(0x30),Write,ACK
0.945828090,2990,~(0x7E),NUL(0x00),Write,NAK
0.946077600,2992,~(0x7E),1(0x31),Write,ACK
0.946170180,2992,~(0x7E),SOH(0x01),Write,ACK
0.946406300,2994,~(0x7E),EM (0x19),Write,ACK
0.946488600,2994,~(0x7E),NUL(0x00),Write,NAK
0.946734690,2996,~(0x7E),3(0x33),Write,ACK
0.946827270,2996,~(0x7E),SOH(0x01),Write,ACK
0.947064010,2998,~(0x7E),CR (0x0D),Write,ACK
0.947136020,2998,~(0x7E),NUL(0x00),Write,ACK
0.947392610,3000,~(0x7E),5(0x35),Write,ACK
0.947485190,3000,~(0x7E),SOH(0x01),Write,ACK
0.947710630,3002,~(0x7E),ESC(0x1B),Write,ACK
0.947803210,3002,~(0x7E),NUL(0x00),Write,NAK
0.948039240,3004,DEL(0x7F),ESC(0x1B),Read,NAK
0.948131830,3004,DEL(0x7F),NUL(0x00),Read,NAK
0.948389650,3006,~(0x7E),8(0x38),Write,ACK
0.948482220,3006,~(0x7E),NUL(0x00),Write,NAK
0.948720080,3008,~(0x7E),9(0x39),Write,ACK
0.948812670,3008,~(0x7E),SOH(0x01),Write,ACK
0.949062040,3010,~(0x7E),;(0x3B),Write,ACK
0.949144330,3010,~(0x7E),NUL(0x00),Write,ACK
0.949406990,3012,~(0x7E),;(0x3B),Write,ACK
0.949499560,3012,~(0x7E),SOH(0x01),Write,ACK
0.949734220,3014,~(0x7E),<(0x3C),Write,ACK
0.949816510,3014,~(0x7E),NUL(0x00),Write,NAK
0.950061360,3016,~(0x7E),>(0x3E),Write,NAK
0.950143650,3016,~(0x7E),NUL(0x00),Write,NAK
0.954706800,3018,~(0x7E),>(0x3E),Write,ACK
0.954799380,3018,~(0x7E),SOH(0x01),Write,ACK
0.955056030,3020,~(0x7E),US (0x1F),Write,NAK
0.955138320,3020,~(0x7E),NUL(0x00),Write,NAK
0.955374420,3022,DEL(0x7F),(SP)(0x20),Read,ACK
0.955467000,3022,DEL(0x7F),NUL(0x00),Read,NAK
0.955713180,3024,~(0x7E),A(0x41),Write,ACK
0.955805850,3024,~(0x7E),SOH(0x01),Write,ACK
0.956041540,3026,~(0x7E),B(0x42),Write,ACK
0.956134120,3026,~(0x7E),SOH(0x01),Write,ACK
0.956370220,3028,~(0x7E),C(0x43),Write,ACK
0.956462800,3028,~(0x7E),SOH(0x01),Write,ACK
0.956698850,3030,~(0x7E),D(0x44),Write,ACK
0.956791430,3030,~(0x7E),SOH(0x01),Write,ACK
0.957043700,3032,~(0x7E),E(0x45),Write,ACK
0.957136290,3032,~(0x7E),SOH(0x01),Write,ACK
0.957371630,3034,~(0x7E),F(0x46),Write,ACK
0.957464200,3034,~(0x7E),SOH(0x01),Write,ACK
0.957699910,3036,~(0x7E),G(0x47),Write,ACK
0.957792510,3036,~(0x7E),SOH(0x01),Write,ACK
0.958028790,3038,~(0x7E),H(0x48),Write,ACK
0.958121360,3038,~(0x7E),SOH(0x01),Write,ACK
0.958357300,3040,~(0x7E),I(0x49),Write,ACK
0.958449870,3040,~(0x7E),SOH(0x01),Write,ACK
0.958686080,3042,~(0x7E),%(0x25),Write,ACK
0.958778690,3042,~(0x7E),NUL(0x00),Write,ACK
0.959220760,3044,~(0x7E),EOT(0x04),Write,ACK
0.959313330,3044,~(0x7E),NUL(0x00),Write,ACK
0.959548690,3046,~(0x7E),ENQ(0x05),Write,ACK
0.959641270,3046,~(0x7E),NUL(0x00),Write,ACK
0.959876150,3048,~(0x7E),ACK(0x06),Write,ACK
0.959968720,3048,~(0x7E),NUL(0x00),Write,ACK
0.960203660,3050,~(0x7E),BEL(0x07),Write,ACK
0.960296240,3050,~(0x7E),NUL(0x00),Write,ACK
0.960530730,3052,~(0x7E),BS (0x08),Write,ACK
0.960623270,3052,~(0x7E),NUL(0x00),Write,ACK
0.960857710,3054,~(0x7E),HT (0x09),Write,ACK
0.960950290,3054,~(0x7E),NUL(0x00),Write,ACK
0.961189850,3056,~(0x7E),LF (0x0A),Write,ACK
0.961282430,3056,~(0x7E),NUL(0x00),Write,ACK
0.961513850,3058,DEL(0x7F),ENQ(0x05),Read,NAK
0.961606430,3058,DEL(0x7F),NUL(0x00),Read,ACK
0.961851460,3060,~(0x7E),SO (0x0E),Write,ACK
0.961933760,3060,~(0x7E),NUL(0x00),Write,ACK
0.962178480,3062,~(0x7E),CR (0x0D),Write,ACK
0.962271070,3062,~(0x7E),(198)(0xC6),Write,ACK
0.962505460,3064,~(0x7E),SI (0x0F),Write,ACK
0.962587840,3064,~(0x7E),0(0x30),Write,NAK
0.962832650,3066,~(0x7E),BEL(0x07),Write,NAK
0.962914970,3066,~(0x7E),NUL(0x00),Write,ACK
0.963159550,3068,~(0x7E),DLE(0x10),Write,ACK
0.963252250,3068,~(0x7E),(198)(0xC6),Write,ACK
0.963486760,3070,~(0x7E),BS (0x08),Write,NAK
0.963569060,3070,~(0x7E),0(0x30),Write,NAK
0.963812500,3072,~(0x7E),DC2(0x12),Write,ACK
0.963905170,3072,~(0x7E),NUL(0x00),Write,ACK
0.964144990,3074,~(0x7E),DC3(0x13),Write,ACK
0.964237660,3074,~(0x7E),(198)(0xC6),Write,ACK
0.964461980,3076,DEL(0x7F),LF (0x0A),Read,ACK
0.964554560,3076,DEL(0x7F),0(0x30),Read,NAK
0.964799360,3078,~(0x7E),NAK(0x15),Write,ACK
0.964891940,3078,~(0x7E),NUL(0x00),Write,ACK
0.965126820,3080,~(0x7E),SYN(0x16),Write,ACK
0.965219400,3080,~(0x7E),NUL(0x00),Write,ACK
0.965454330,3082,~(0x7E),ETB(0x17),Write,ACK
0.965546910,3082,~(0x7E),NUL(0x00),Write,ACK
0.965781370,3084,~(0x7E),CAN(0x18),Write,ACK
0.965873950,3084,~(0x7E),NUL(0x00),Write,ACK
0.966108290,3086,~(0x7E),EM (0x19),Write,ACK
0.966200870,3086,~(0x7E),NUL(0x00),Write,ACK
0.975669550,3088,~(0x7E),SUB(0x1A),Write,ACK
0.975762130,3088,~(0x7E),NUL(0x00),Write,ACK
0.976004500,3090,DEL(0x7F),CR (0x0D),Read,NAK
0.976097070,3090,DEL(0x7F),NUL(0x00),Read,ACK
0.976332110,3092,DEL(0x7F),SO (0x0E),Read,ACK
0.976424680,3092,DEL(0x7F),NUL(0x00),Read,ACK
0.976659260,3094,DEL(0x7F),SO (0x0E),Read,NAK
0.976751840,3094,DEL(0x7F),NUL(0x00),Read,ACK
0.977041140,3096,~(0x7E),US (0x1F),Write,ACK
0.977123430,3096,~(0x7E),NUL(0x00),Write,ACK
0.977369900,3098,~(0x7E),US (0x1F),Write,ACK
0.977462480,3098,~(0x7E),NUL(0x00),Write,ACK
0.977688110,3100,~(0x7E),DLE(0x10),Write,ACK
0.977780680,3100,~(0x7E),NUL(0x00),Write,ACK
0.978016650,3102,DEL(0x7F),DLE(0x10),Read,NAK
0.978109250,3102,DEL(0x7F),NUL(0x00),Read,ACK
0.978351380,3106,DEL(0x7F),DC1(0x11),Read,ACK
0.978444050,3106,DEL(0x7F),NUL(0x00),Read,ACK
0.978690000,3108,~(0x7E),#(0x23),Write,ACK
0.978782590,3108,~(0x7E),NUL(0x00),Write,ACK
0.979018410,3110,~(0x7E),&(0x26),Write,ACK
0.979100710,3110,~(0x7E),NUL(0x00),Write,ACK
0.979336660,3112,DEL(0x7F),NUL(0x00),Read,NAK
0.979429240,3112,DEL(0x7F),NUL(0x00),Read,ACK
0.979674830,3114,~(0x7E),STX(0x02),Write,ACK
0.979767420,3114,~(0x7E),NUL(0x00),Write,ACK
0.980003480,3116,~(0x7E),ETX(0x03),Write,ACK
0.980096060,3116,~(0x7E),NUL(0x00),Write,ACK
0.980321750,3118,~(0x7E),DC2(0x12),Write,NAK
0.980414470,3118,~(0x7E),NUL(0x00),Write,ACK
0.990548130,3120,~(0x7E),&(0x26),Write,ACK
0.990640720,3120,~(0x7E),SOH(0x01),Write,ACK
0.990920830,3122,~(0x7E),'(0x27),Write,ACK
0.991013420,3122,~(0x7E),SOH(0x01),Write,ACK
0.991262220,3124,~(0x7E),((0x28),Write,ACK
0.991354800,3124,~(0x7E),SOH(0x01),Write,ACK
0.991620680,3126,~(0x7E),)(0x29),Write,ACK
0.991713260,3126,~(0x7E),SOH(0x01),Write,ACK
0.991967540,3128,~(0x7E),*(0x2A),Write,ACK
0.992060120,3128,~(0x7E),SOH(0x01),Write,ACK
0.992295520,3130,DEL(0x7F),NAK(0x15),Read,NAK
0.992388090,3130,DEL(0x7F),NUL(0x00),Read,NAK
0.992643760,3132,~(0x7E),,(0x2C),Write,ACK
0.992736330,3132,~(0x7E),SOH(0x01),Write,ACK
0.992998860,3134,~(0x7E),-(0x2D),Write,ACK
0.993091440,3134,~(0x7E),SOH(0x01),Write,ACK
0.993326970,3136,DEL(0x7F),ETB(0x17),Read,ACK
0.993419540,3136,DEL(0x7F),NUL(0x00),Read,NAK
0.993664730,3138,?(0x3F),ETB(0x17),Read,NAK
0.993757310,3138,?(0x3F),NUL(0x00),Read,ACK
0.994002640,3140,DEL(0x7F),CAN(0x18),Read,ACK
0.994095220,3140,DEL(0x7F),NUL(0x00),Read,NAK
0.994359440,3142,~(0x7E),1(0x31),Write,ACK
0.994452020,3142,~(0x7E),NUL(0x00),Write,NAK
0.994694900,3144,DEL(0x7F),EM (0x19),Read,ACK
0.994787480,3144,DEL(0x7F),NUL(0x00),Read,NAK
0.995033250,3146,~(0x7E),EM (0x19),Write,NAK
0.995125830,3146,~(0x7E),NUL(0x00),Write,NAK
0.995382300,3148,~(0x7E),4(0x34),Write,ACK
0.995474880,3148,~(0x7E),SOH(0x01),Write,ACK
0.995720110,3150,~(0x7E),5(0x35),Write,ACK
0.995812690,3150,~(0x7E),NUL(0x00),Write,ACK
0.996048580,3152,DEL(0x7F),ESC(0x1B),Read,ACK
0.996141160,3152,DEL(0x7F),NUL(0x00),Read,NAK
0.996397230,3154,~(0x7E),7(0x37),Write,ACK
0.996479530,3154,~(0x7E),NUL(0x00),Write,NAK
0.996737590,3156,~(0x7E),8(0x38),Write,ACK
0.996830170,3156,~(0x7E),SOH(0x01),Write,ACK
0.997099390,3158,~(0x7E),<(0x3C),Write,NAK
0.997181680,3158,~(0x7E),NUL(0x00),Write,NAK
0.997459160,3160,~(0x7E),:(0x3A),Write,ACK
0.997551740,3160,~(0x7E),SOH(0x01),Write,ACK
0.997787110,3162,?(0x3F),GS (0x1D),Read,NAK
0.997879700,3162,?(0x3F),NUL(0x00),Read,NAK
1.011904170,3164,DEL(0x7F),RS (0x1E),Read,ACK
1.011996740,3164,DEL(0x7F),NUL(0x00),Read,NAK
1.012269220,3166,~(0x7E),=(0x3D),Write,ACK
1.012361890,3166,~(0x7E),SOH(0x01),Write,ACK
1.012613190,3168,~(0x7E),>(0x3E),Write,ACK
1.012705780,3168,~(0x7E),SOH(0x01),Write,ACK
1.012951500,3170,~(0x7E),?(0x3F),Write,ACK
1.013044060,3170,~(0x7E),SOH(0x01),Write,ACK
1.013288000,3172,~(0x7E),@(0x40),Write,ACK
1.013380580,3172,~(0x7E),SOH(0x01),Write,NAK
1.013624570,3174,~(0x7E),A(0x41),Write,ACK
1.013717130,3174,~(0x7E),SOH(0x01),Write,ACK
1.013973670,3176,~(0x7E),B(0x42),Write,ACK
1.014066250,3176,~(0x7E),SOH(0x01),Write,ACK
1.014335260,3178,~(0x7E),C(0x43),Write,ACK
1.014427830,3178,~(0x7E),SOH(0x01),Write,ACK
1.014668980,3180,DEL(0x7F),"(0x22),Read,ACK
1.014761560,3180,DEL(0x7F),NUL(0x00),Read,NAK
1.014937070,,FS (0x1C),,Write,NAK
1.015009090,3182,FS (0x1C),$(0x24),Write,NAK
1.015289930,3184,~(0x7E),E(0x45),Write,ACK
1.015382510,3184,~(0x7E),SOH(0x01),Write,ACK
1.015638280,3186,s(0x73),NUL(0x00),Read,NAK
1.015887280,3188,?(0x3F),#(0x23),Read,ACK
1.015979860,3188,?(0x3F),NUL(0x00),Read,NAK
1.016246380,3190,r(0x72),(148)(0x94),Write,ACK
1.016505980,3192,~(0x7E),G(0x47),Write,ACK
1.016598560,3192,~(0x7E),NUL(0x00),Write,NAK
1.016853900,3194,s(0x73),SI (0x0F),Read,NAK
1.017113440,3196,~(0x7E),H(0x48),Write,ACK
1.017206020,3196,~(0x7E),SOH(0x01),Write,ACK
1.017464820,3198,r(0x72),(149)(0x95),Write,ACK
1.017726060,3200,~(0x7E),I(0x49),Write,ACK
1.017818630,3200,~(0x7E),NUL(0x00),Write,NAK
1.018076610,3202,s(0x73),NAK(0x15),Read,NAK
1.018332120,3204,~(0x7E),%(0x25),Write,ACK
1.018424710,3204,~(0x7E),NUL(0x00),Write,ACK
1.018683090,3206,r(0x72),(150)(0x96),Write,ACK
1.018926830,3210,s(0x73),(176)(0xB0),Read,NAK
1.019189020,3212,~(0x7E),EOT(0x04),Write,ACK
1.019281590,3212,~(0x7E),NUL(0x00),Write,ACK
1.019537340,3214,r(0x72),(151)(0x97),Write,ACK
1.019792920,3216,?(0x3F),STX(0x02),Read,NAK
1.019885500,3216,?(0x3F),NUL(0x00),Read,ACK
1.020140820,3218,s(0x73),STX(0x02),Read,NAK
1.020411360,3220,~(0x7E),ACK(0x06),Write,ACK
1.020503910,3220,~(0x7E),NUL(0x00),Write,ACK
1.020749650,3222,y(0x79),s(0x73),Read,ACK
1.021094010,3224,DEL(0x7F),ETX(0x03),Read,NAK
1.021186580,3224,DEL(0x7F),NUL(0x00),Read,ACK
1.021453570,3226,r(0x72),(147)(0x93),Write,ACK
1.021713440,3228,~(0x7E),BS (0x08),Write,ACK
1.021806020,3228,~(0x7E),NUL(0x00),Write,ACK
1.021968760,,q(0x71),,Read,NAK
1.022051060,3230,q(0x71),NUL(0x00),Read,NAK
1.022323510,3232,~(0x7E),HT (0x09),Write,ACK
1.022405820,3232,~(0x7E),NUL(0x00),Write,ACK
1.022662220,3234,y(0x79),J(0x4A),Read,ACK
1.022932150,3236,~(0x7E),LF (0x0A),Write,ACK
1.023024740,3236,~(0x7E),NUL(0x00),Write,ACK
1.023187340,,y(0x79),,Read,NAK
1.023269650,3238,y(0x79),BEL(0x07),Read,NAK
1.023538610,3240,~(0x7E),VT (0x0B),Write,ACK
1.023631270,3240,~(0x7E),NUL(0x00),Write,ACK
1.023887510,3242,r(0x72),(149)(0x95),Write,ACK
1.024146720,3244,~(0x7E),FF (0x0C),Write,ACK
1.024239380,3244,~(0x7E),NUL(0x00),Write,ACK
1.024402730,,y(0x79),,Read,NAK
1.024485020,3246,y(0x79),LF (0x0A),Read,NAK
1.024753990,3248,~(0x7E),CR (0x0D),Write,ACK
1.024846560,3248,~(0x7E),(195)(0xC3),Write,ACK
1.025091020,3250,s(0x73),K(0x4B),Read,ACK
1.025360420,3252,~(0x7E),SO (0x0E),Write,ACK
1.025452990,3252,~(0x7E),a(0x61),Write,ACK
1.025709210,3254,s(0x73),(176)(0xB0),Read,NAK
1.025975830,3256,~(0x7E),SI (0x0F),Write,ACK
1.026068410,3256,~(0x7E),NUL(0x00),Write,ACK
1.026324000,3258,r(0x72),(151)(0x97),Write,ACK
1.026573250,3260,DEL(0x7F),BS (0x08),Read,ACK
1.026665820,3260,DEL(0x7F),c(0x63),Read,ACK
1.026932130,3262,s(0x73),ENQ(0x05),Read,NAK
1.027188900,3264,~(0x7E),DC1(0x11),Write,ACK
1.027281480,3264,~(0x7E),a(0x61),Write,ACK
1.027537350,3266,r(0x72),(230)(0xE6),Write,ACK
1.027797190,3268,~(0x7E),DC2(0x12),Write,ACK
1.027889780,3268,~(0x7E),NUL(0x00),Write,ACK
1.028145330,3270,r(0x72),(147)(0x93),Write,NAK
1.028401150,3272,~(0x7E),DC3(0x13),Write,ACK
1.028493730,3272,~(0x7E),(198)(0xC6),Write,ACK
1.028749380,3274,s(0x73),SOH(0x01),Read,NAK
1.029202700,3276,~(0x7E),DC4(0x14),Write,ACK
1.029295270,3276,~(0x7E),a(0x61),Write,ACK
1.029543660,3278,q(0x71),J(0x4A),Read,ACK
1.029816640,3280,~(0x7E),NAK(0x15),Write,ACK
1.029909230,3280,~(0x7E),NUL(0x00),Write,ACK
1.043926830,3282,s(0x73),SI (0x0F),Read,NAK
1.044208110,3284,~(0x7E),SYN(0x16),Write,ACK
1.044290420,3284,~(0x7E),NUL(0x00),Write,ACK
1.044560550,3286,r(0x72),(149)(0x95),Write,ACK
1.044823260,3288,~(0x7E),ETB(0x17),Write,ACK
1.044915840,3288,~(0x7E),NUL(0x00),Write,ACK
1.045184000,3290,s(0x73),NAK(0x15),Read,NAK
1.045501780,3292,~(0x7E),CAN(0x18),Write,ACK
1.045594360,3292,~(0x7E),NUL(0x00),Write,ACK
1.045850610,3294,r(0x72),(150)(0x96),Write,ACK
1.046110210,3296,~(0x7E),EM (0x19),Write,ACK
1.046202790,3296,~(0x7E),NUL(0x00),Write,ACK
1.046458410,3298,s(0x73),(176)(0xB0),Read,NAK
1.046718760,3300,~(0x7E),SUB(0x1A),Write,ACK
1.046811340,3300,~(0x7E),NUL(0x00),Write,ACK
1.047056340,3302,9(0x39),K(0x4B),Read,NAK
1.047291470,,?(0x3F),,Read,NAK
1.047363500,3304,?(0x3F),ETX(0x03),Read,ACK
1.047445790,3304,?(0x3F),(192)(0xC0),Read,ACK
1.047732720,3306,s(0x73),STX(0x02),Read,NAK
1.047998680,3308,~(0x7E),FS (0x1C),Write,ACK
1.048091270,3308,~(0x7E),NUL(0x00),Write,ACK
1.048343730,3310,y(0x79),s(0x73),Read,NAK
1.048668310,3312,~(0x7E),GS (0x1D),Write,ACK
1.048760890,3312,~(0x7E),NUL(0x00),Write,ACK
1.049176480,3314,~(0x7E),RS (0x1E),Write,ACK
1.049269060,3314,~(0x7E),NUL(0x00),Write,ACK
1.049505160,3316,DEL(0x7F),SI (0x0F),Read,NAK
1.049597750,3316,DEL(0x7F),NUL(0x00),Read,ACK
1.049854320,3318,~(0x7E),(SP)(0x20),Write,ACK
1.049946890,3318,~(0x7E),NUL(0x00),Write,ACK
1.050192450,3320,~(0x7E),!(0x21),Write,ACK
1.050285030,3320,~(0x7E),NUL(0x00),Write,ACK
1.050530450,3322,~(0x7E),"(0x22),Write,ACK
1.050623040,3322,~(0x7E),NUL(0x00),Write,ACK
1.050869080,3324,~(0x7E),#(0x23),Write,ACK
1.050961660,3324,~(0x7E),NUL(0x00),Write,ACK
1.051196000,3326,DEL(0x7F),DC2(0x12),Read,ACK
1.051288580,3326,DEL(0x7F),NUL(0x00),Read,ACK
1.051565500,3328,~(0x7E),SOH(0x01),Write,ACK
1.051658080,3328,~(0x7E),NUL(0x00),Write,ACK
1.051912000,3330,~(0x7E),SOH(0x01),Write,ACK
1.051994300,3330,~(0x7E),NUL(0x00),Write,ACK
1.052250690,3332,~(0x7E),ETX(0x03),Write,ACK
1.052343370,3332,~(0x7E),NUL(0x00),Write,ACK
1.052588970,3334,~(0x7E),%(0x25),Write,ACK
1.052681560,3334,~(0x7E),NUL(0x00),Write,ACK
1.054061980,3336,~(0x7E),'(0x27),Write,ACK
1.054144370,3336,~(0x7E),NUL(0x00),Write,NAK
1.054400940,3338,~(0x7E),'(0x27),Write,ACK
1.054493530,3338,~(0x7E),SOH(0x01),Write,ACK
1.054739080,3340,~(0x7E),((0x28),Write,ACK
1.054831660,3340,~(0x7E),SOH(0x01),Write,ACK
1.055070430,3342,DEL(0x7F),DC4(0x14),Read,NAK
1.055163010,3342,DEL(0x7F),NUL(0x00),Read,NAK
1.055426140,3344,~(0x7E),*(0x2A),Write,ACK
1.055518720,3344,~(0x7E),SOH(0x01),Write,ACK
1.055764110,3346,~(0x7E),+(0x2B),Write,ACK
1.055856690,3346,~(0x7E),SOH(0x01),Write,ACK
1.056102450,3348,~(0x7E),,(0x2C),Write,ACK
1.056195030,3348,~(0x7E),SOH(0x01),Write,ACK
1.056440940,3350,~(0x7E),-(0x2D),Write,ACK
1.056533530,3350,~(0x7E),NUL(0x00),Write,NAK
1.056778690,3352,~(0x7E),.(0x2E),Write,ACK
1.056871270,3352,~(0x7E),SOH(0x01),Write,ACK
1.057116400,3354,~(0x7E),/(0x2F),Write,ACK
1.057208980,3354,~(0x7E),SOH(0x01),Write,ACK
1.057449770,3356,~(0x7E),CAN(0x18),Write,ACK
1.057542330,3356,~(0x7E),NUL(0x00),Write,NAK
1.057820160,3358,~(0x7E),1(0x31),Write,ACK
1.057912750,3358,~(0x7E),SOH(0x01),Write,ACK
1.058166000,3360,~(0x7E),2(0x32),Write,ACK
1.058258580,3360,~(0x7E),SOH(0x01),Write,ACK
1.058504250,3362,~(0x7E),3(0x33),Write,ACK
1.058596830,3362,~(0x7E),SOH(0x01),Write,ACK
1.058842310,3364,~(0x7E),4(0x34),Write,ACK
1.058935060,3364,~(0x7E),SOH(0x01),Write,ACK
1.059180510,3366,~(0x7E),5(0x35),Write,ACK
1.059273270,3366,~(0x7E),SOH(0x01),Write,ACK
1.059519410,3368,~(0x7E),6(0x36),Write,ACK
1.059612090,3368,~(0x7E),SOH(0x01),Write,ACK
1.059857740,3370,~(0x7E),;(0x3B),Write,NAK
1.059940030,3370,~(0x7E),NUL(0x00),Write,NAK
1.060199250,3372,~(0x7E),8(0x38),Write,ACK
1.060291930,3372,~(0x7E),SOH(0x01),Write,ACK
1.060559310,3374,~(0x7E),<(0x3C),Write,NAK
1.060641600,3374,~(0x7E),NUL(0x00),Write,NAK
1.060905480,3376,~(0x7E),:(0x3A),Write,ACK
1.060998040,3376,~(0x7E),SOH(0x01),Write,ACK
1.061246780,3378,~(0x7E),GS (0x1D),Write,NAK
1.061329070,3378,~(0x7E),NUL(0x00),Write,NAK
1.061585470,3380,~(0x7E),<(0x3C),Write,ACK
1.061678060,3380,~(0x7E),SOH(0x01),Write,ACK
1.061913430,3382,?(0x3F),RS (0x1E),Read,NAK
1.062006020,3382,?(0x3F),NUL(0x00),Read,NAK
1.075938640,3384,~(0x7E),>(0x3E),Write,ACK
1.076031220,3384,~(0x7E),SOH(0x01),Write,ACK
1.076294420,3386,~(0x7E),?(0x3F),Write,ACK
1.076387010,3386,~(0x7E),SOH(0x01),Write,ACK
1.076620240,3388,DEL(0x7F),(SP)(0x20),Read,ACK
1.076712830,3388,DEL(0x7F),NUL(0x00),Read,NAK
1.076966630,3390,~(0x7E),A(0x41),Write,ACK
1.077059210,3390,~(0x7E),SOH(0x01),Write,ACK
1.077305010,3392,~(0x7E),!(0x21),Write,ACK
1.077387320,3392,~(0x7E),NUL(0x00),Write,NAK
1.077643520,3394,~(0x7E),C(0x43),Write,ACK
1.077736100,3394,~(0x7E),NUL(0x00),Write,NAK
1.077982520,3396,~(0x7E),"(0x22),Write,ACK
1.078075100,3396,~(0x7E),NUL(0x00),Write,NAK
1.078353810,3398,~(0x7E),E(0x45),Write,ACK
1.078446470,3398,~(0x7E),SOH(0x01),Write,ACK
1.078700290,3400,~(0x7E),C(0x43),Write,ACK
1.078782580,3400,~(0x7E),NUL(0x00),Write,NAK
1.079038900,3402,~(0x7E),G(0x47),Write,ACK
1.079131480,3402,~(0x7E),SOH(0x01),Write,ACK
1.079367740,3404,DEL(0x7F),2(0x32),Read,ACK
1.079450040,3404,DEL(0x7F),NUL(0x00),Read,ACK
1.079722120,3406,~(0x7E),I(0x49),Write,ACK
1.079814770,3406,~(0x7E),SOH(0x01),Write,ACK
1.080050200,3408,DEL(0x7F),DC2(0x12),Read,NAK
1.080142780,3408,DEL(0x7F),NUL(0x00),Read,ACK
1.080662340,3410,~(0x7E),EOT(0x04),Write,ACK
1.080754890,3410,~(0x7E),NUL(0x00),Write,ACK
1.081054170,3412,~(0x7E),ENQ(0x05),Write,ACK
1.081146750,3412,~(0x7E),NUL(0x00),Write,ACK
1.081391940,3414,~(0x7E),ACK(0x06),Write,ACK
1.081484520,3414,~(0x7E),NUL(0x00),Write,ACK
1.081727750,3416,~(0x7E),BEL(0x07),Write,ACK
1.081820320,3416,~(0x7E),NUL(0x00),Write,ACK
1.082063570,3418,~(0x7E),FF (0x0C),Write,ACK
1.082145950,3418,~(0x7E),NUL(0x00),Write,ACK
1.082399330,3420,~(0x7E),HT (0x09),Write,ACK
1.082491970,3420,~(0x7E),NUL(0x00),Write,ACK
1.082735530,3422,~(0x7E),LF (0x0A),Write,ACK
1.082828120,3422,~(0x7E),NUL(0x00),Write,ACK
1.083071060,3424,~(0x7E),VT (0x0B),Write,ACK
1.083163720,3424,~(0x7E),NUL(0x00),Write,ACK
1.083429720,3426,~(0x7E),FF (0x0C),Write,ACK
1.083512020,3426,~(0x7E),NUL(0x00),Write,ACK
1.083774390,3428,~(0x7E),CR (0x0D),Write,ACK
1.083867010,3428,~(0x7E),NUL(0x00),Write,ACK
1.084100120,3430,DEL(0x7F),BEL(0x07),Read,ACK
1.084192700,3430,DEL(0x7F),NUL(0x00),Read,ACK
1.084446190,3432,~(0x7E),SI (0x0F),Write,ACK
1.084538770,3432,~(0x7E),NUL(0x00),Write,ACK
1.084773030,3434,~(0x7E),BS (0x08),Write,ACK
1.084865610,3434,~(0x7E),c(0x63),Write,ACK
1.085120940,3436,DEL(0x7F),BS (0x08),Read,NAK
1.085213520,3436,DEL(0x7F),0(0x30),Read,NAK
1.085456740,3438,?(0x3F),HT (0x09),Read,ACK
1.085549320,3438,?(0x3F),NUL(0x00),Read,ACK
1.085813310,3440,~(0x7E),DC3(0x13),Write,ACK
1.085905890,3440,~(0x7E),(198)(0xC6),Write,ACK
1.086162460,3442,DEL(0x7F),LF (0x0A),Read,ACK
1.086255040,3442,DEL(0x7F),0(0x30),Read,NAK
1.086507650,3444,~(0x7E),LF (0x0A),Write,NAK
1.086600230,3444,~(0x7E),NUL(0x00),Write,ACK
1.086854720,3446,~(0x7E),SYN(0x16),Write,ACK
1.086947300,3446,~(0x7E),(198)(0xC6),Write,ACK
1.087190300,3448,~(0x7E),ETB(0x17),Write,ACK
1.087282880,3448,~(0x7E),a(0x61),Write,ACK
1.087525870,3450,~(0x7E),FS (0x1C),Write,ACK
1.087608160,3450,~(0x7E),NUL(0x00),Write,ACK
1.087861980,3452,~(0x7E),FF (0x0C),Write,NAK
1.087944280,3452,~(0x7E),NUL(0x00),Write,ACK
1.088197650,3454,~(0x7E),SUB(0x1A),Write,ACK
1.088290210,3454,~(0x7E),NUL(0x00),Write,ACK
1.088532810,3456,~(0x7E),ESC(0x1B),Write,ACK
1.088625400,3456,~(0x7E),NUL(0x00),Write,ACK
1.088893340,3458,~(0x7E),FS (0x1C),Write,ACK
1.088985920,3458,~(0x7E),NUL(0x00),Write,ACK
1.089229280,3460,~(0x7E),SO (0x0E),Write,NAK
1.089321870,3460,~(0x7E),NUL(0x00),Write,ACK
1.089577510,3462,~(0x7E),US (0x1F),Write,ACK
1.089659810,3462,~(0x7E),NUL(0x00),Write,ACK
1.089917380,3464,~(0x7E),US (0x1F),Write,NAK
1.089999680,3464,~(0x7E),NUL(0x00),Write,ACK
1.090245270,3466,?(0x3F),DLE(0x10),Read,ACK
1.090337840,3466,?(0x3F),NUL(0x00),Read,ACK
1.090593200,3468,~(0x7E),!(0x21),Write,ACK
1.090685770,3468,~(0x7E),NUL(0x00),Write,ACK
1.090931970,3470,~(0x7E),"(0x22),Write,ACK
1.091024550,3470,~(0x7E),NUL(0x00),Write,ACK
1.091272090,3472,~(0x7E),#(0x23),Write,ACK
1.091354390,3472,~(0x7E),NUL(0x00),Write,ACK
1.091608260,3474,~(0x7E),DC2(0x12),Write,ACK
1.091700840,3474,~(0x7E),NUL(0x00),Write,ACK
1.091957450,3476,~(0x7E),SOH(0x01),Write,ACK
1.092050020,3476,~(0x7E),NUL(0x00),Write,ACK
1.092295420,3478,~(0x7E),STX(0x02),Write,ACK
1.092388000,3478,~(0x7E),NUL(0x00),Write,ACK
1.092633460,3480,~(0x7E),ETX(0x03),Write,ACK
1.092726040,3480,~(0x7E),NUL(0x00),Write,ACK
1.092961570,3482,DEL(0x7F),DC2(0x12),Read,NAK
1.093054150,3482,DEL(0x7F),NUL(0x00),Read,ACK
1.108139850,3484,~(0x7E),&(0x26),Write,ACK
1.108232440,3484,~(0x7E),SOH(0x01),Write,ACK
1.108500630,3486,~(0x7E),'(0x27),Write,ACK
1.108593200,3486,~(0x7E),NUL(0x00),Write,NAK
1.108841510,3488,~(0x7E),((0x28),Write,ACK
1.108934100,3488,~(0x7E),SOH(0x01),Write,ACK
1.109194000,3490,?(0x3F),DC4(0x14),Read,NAK
1.109286580,3490,?(0x3F),NUL(0x00),Read,NAK
1.109542300,3492,~(0x7E),*(0x2A),Write,ACK
1.109634880,3492,~(0x7E),SOH(0x01),Write,ACK
1.109881490,3494,~(0x7E),+(0x2B),Write,ACK
1.109974060,3494,~(0x7E),NUL(0x00),Write,NAK
1.110230220,3496,~(0x7E),,(0x2C),Write,ACK
1.110322790,3496,~(0x7E),SOH(0x01),Write,ACK
1.110573360,3498,~(0x7E),SYN(0x16),Write,NAK
1.110665950,3498,~(0x7E),NUL(0x00),Write,NAK
1.110943700,3500,~(0x7E),ETB(0x17),Write,ACK
1.111025990,3500,~(0x7E),NUL(0x00),Write,NAK
1.111279060,3502,DEL(0x7F),ETB(0x17),Read,NAK
1.111371640,3502,DEL(0x7F),NUL(0x00),Read,NAK
1.111627700,3504,~(0x7E),0(0x30),Write,ACK
1.111720280,3504,~(0x7E),NUL(0x00),Write,NAK
1.111966810,3506,~(0x7E),1(0x31),Write,ACK
1.112059390,3506,~(0x7E),SOH(0x01),Write,ACK
1.112294770,3508,DEL(0x7F),EM (0x19),Read,ACK
1.112387450,3508,DEL(0x7F),NUL(0x00),Read,NAK
1.112638600,3510,~(0x7E),3(0x33),Write,ACK
1.112731170,3510,~(0x7E),SOH(0x01),Write,ACK
1.112977200,3512,~(0x7E),6(0x36),Write,ACK
1.113059490,3512,~(0x7E),NUL(0x00),Write,NAK
1.113312360,3514,DEL(0x7F),SUB(0x1A),Read,NAK
1.113404950,3514,DEL(0x7F),NUL(0x00),Read,NAK
1.113681330,3516,~(0x7E),6(0x36),Write,ACK
1.113773910,3516,~(0x7E),NUL(0x00),Write,NAK
1.114027590,3518,~(0x7E),7(0x37),Write,ACK
1.114120170,3518,~(0x7E),NUL(0x00),Write,NAK
1.114355690,3520,?(0x3F),FS (0x1C),Read,ACK
1.114448260,3520,?(0x3F),NUL(0x00),Read,NAK
1.114704010,3522,~(0x7E),9(0x39),Write,ACK
1.114796600,3522,~(0x7E),SOH(0x01),Write,ACK
1.115031680,3524,DEL(0x7F),GS (0x1D),Read,ACK
1.115124270,3524,DEL(0x7F),NUL(0x00),Read,NAK
1.115384730,3526,~(0x7E),;(0x3B),Write,ACK
1.115477310,3526,~(0x7E),SOH(0x01),Write,ACK
1.115722770,3528,~(0x7E),<(0x3C),Write,ACK
1.115815360,3528,~(0x7E),SOH(0x01),Write,NAK
1.116060460,3530,~(0x7E),=(0x3D),Write,ACK
1.116153040,3530,~(0x7E),SOH(0x01),Write,ACK
1.116416590,3532,~(0x7E),>(0x3E),Write,ACK
1.116509170,3532,~(0x7E),SOH(0x01),Write,ACK
1.116763260,3534,~(0x7E),?(0x3F),Write,ACK
1.116855840,3534,~(0x7E),SOH(0x01),Write,ACK
1.117104820,3536,~(0x7E),@(0x40),Write,ACK
1.117197400,3536,~(0x7E),SOH(0x01),Write,ACK
1.117433250,3538,DEL(0x7F),(SP)(0x20),Read,NAK
1.117525830,3538,DEL(0x7F),NUL(0x00),Read,NAK
1.117781360,3540,~(0x7E),B(0x42),Write,ACK
1.117873940,3540,~(0x7E),SOH(0x01),Write,ACK
1.118119250,3542,~(0x7E),C(0x43),Write,ACK
1.118211840,3542,~(0x7E),SOH(0x01),Write,ACK
1.118457880,3544,~(0x7E),D(0x44),Write,ACK
1.118550540,3544,~(0x7E),SOH(0x01),Write,ACK
1.118795580,3546,~(0x7E),"(0x22),Write,NAK
1.118877890,3546,~(0x7E),NUL(0x00),Write,NAK
1.119155550,3548,~(0x7E),F(0x46),Write,ACK
1.119248140,3548,~(0x7E),NUL(0x00),Write,NAK
1.119502050,3550,~(0x7E),C(0x43),Write,NAK
1.119584350,3550,~(0x7E),NUL(0x00),Write,NAK
1.119839930,3552,~(0x7E),H(0x48),Write,ACK
1.119932510,3552,~(0x7E),SOH(0x01),Write,ACK
1.120177750,3554,~(0x7E),I(0x49),Write,ACK
1.120270380,3554,~(0x7E),SOH(0x01),Write,ACK
1.120516450,3556,~(0x7E),%(0x25),Write,ACK
1.120609020,3556,~(0x7E),NUL(0x00),Write,ACK
1.121125370,3558,~(0x7E),EOT(0x04),Write,ACK
1.121217950,3558,~(0x7E),NUL(0x00),Write,ACK
1.121453380,3560,DEL(0x7F),STX(0x02),Read,NAK
1.121545930,3560,DEL(0x7F),NUL(0x00),Read,ACK
1.121800560,3562,~(0x7E),ACK(0x06),Write,ACK
1.121893140,3562,~(0x7E),NUL(0x00),Write,ACK
1.122136430,3564,~(0x7E),BEL(0x07),Write,ACK
1.122229100,3564,~(0x7E),NUL(0x00),Write,ACK
1.122472270,3566,~(0x7E),BS (0x08),Write,ACK
1.122564870,3566,~(0x7E),NUL(0x00),Write,ACK
1.122807990,3568,~(0x7E),HT (0x09),Write,ACK
1.122900580,3568,~(0x7E),NUL(0x00),Write,ACK
1.123151480,3570,~(0x7E),ENQ(0x05),Write,ACK
1.123233770,3570,~(0x7E),NUL(0x00),Write,ACK
1.123495260,3572,~(0x7E),ENQ(0x05),Write,NAK
1.123577550,3572,~(0x7E),NUL(0x00),Write,ACK
1.123831870,3574,~(0x7E),FF (0x0C),Write,ACK
1.123924420,3574,~(0x7E),NUL(0x00),Write,ACK
1.124156840,3576,DEL(0x7F),ACK(0x06),Read,NAK
1.124249410,3576,DEL(0x7F),NUL(0x00),Read,ACK
1.124503040,3578,~(0x7E),SO (0x0E),Write,ACK
1.124595630,3578,~(0x7E),NUL(0x00),Write,ACK
1.124838520,3580,~(0x7E),SI (0x0F),Write,NAK
1.124920820,3580,~(0x7E),NUL(0x00),Write,ACK
1.125184570,3582,~(0x7E),DLE(0x10),Write,ACK
1.125277150,3582,~(0x7E),(198)(0xC6),Write,ACK
1.125546080,3584,~(0x7E),DC1(0x11),Write,ACK
1.125638660,3584,~(0x7E),a(0x61),Write,ACK
1.125890850,3586,~(0x7E),DC2(0x12),Write,ACK
1.125983440,3586,~(0x7E),NUL(0x00),Write,ACK
1.139775610,3588,~(0x7E),DC3(0x13),Write,ACK
1.139868190,3588,~(0x7E),(198)(0xC6),Write,ACK
1.140129290,3590,~(0x7E),DC4(0x14),Write,ACK
1.140221870,3590,~(0x7E),`(0x60),Write,NAK
1.140467560,3592,~(0x7E),NAK(0x15),Write,ACK
1.140560140,3592,~(0x7E),NUL(0x00),Write,ACK
1.140803220,3594,~(0x7E),SYN(0x16),Write,ACK
1.140895800,3594,~(0x7E),(198)(0xC6),Write,ACK
1.141142200,3596,~(0x7E),ETB(0x17),Write,ACK
1.141234780,3596,~(0x7E),a(0x61),Write,ACK
1.141505360,3598,~(0x7E),CAN(0x18),Write,ACK
1.141597940,3598,~(0x7E),NUL(0x00),Write,ACK
1.141843380,3600,~(0x7E),EM (0x19),Write,ACK
1.141935960,3600,~(0x7E),NUL(0x00),Write,ACK
1.142217280,3602,~(0x7E),SUB(0x1A),Write,ACK
1.142309860,3602,~(0x7E),NUL(0x00),Write,ACK
1.142556790,3604,~(0x7E),GS (0x1D),Write,NAK
1.142639090,3604,~(0x7E),NUL(0x00),Write,ACK
1.142894770,3606,~(0x7E),FS (0x1C),Write,ACK
1.142987340,3606,~(0x7E),NUL(0x00),Write,ACK
1.143232720,3608,~(0x7E),FS (0x1C),Write,NAK
1.143315060,3608,~(0x7E),NUL(0x00),Write,ACK
1.143572440,3610,~(0x7E),RS (0x1E),Write,ACK
1.143665000,3610,~(0x7E),NUL(0x00),Write,ACK
1.143910660,3612,~(0x7E),US (0x1F),Write,NAK
1.143992940,3612,~(0x7E),NUL(0x00),Write,ACK
1.144249080,3614,~(0x7E),(SP)(0x20),Write,ACK
1.144331380,3614,~(0x7E),NUL(0x00),Write,ACK
1.144603010,3616,~(0x7E),(SP)(0x20),Write,NAK
1.144685300,3616,~(0x7E),NUL(0x00),Write,ACK
1.144949270,3618,~(0x7E),"(0x22),Write,ACK
1.145041860,3618,~(0x7E),NUL(0x00),Write,ACK
1.145287830,3620,~(0x7E),#(0x23),Write,ACK
1.145380410,3620,~(0x7E),NUL(0x00),Write,ACK
1.145626520,3622,~(0x7E),$(0x24),Write,ACK
1.145719110,3622,~(0x7E),NUL(0x00),Write,ACK
1.145954420,3624,DEL(0x7F),NUL(0x00),Read,NAK
1.146047000,3624,DEL(0x7F),NUL(0x00),Read,ACK
1.146302790,3626,~(0x7E),STX(0x02),Write,ACK
1.146395360,3626,~(0x7E),NUL(0x00),Write,ACK
1.146641420,3628,~(0x7E),ETX(0x03),Write,ACK
1.146734000,3628,~(0x7E),NUL(0x00),Write,ACK
1.147009450,3630,~(0x7E),%(0x25),Write,ACK
1.147102030,3630,~(0x7E),NUL(0x00),Write,ACK
1.150744650,3632,~(0x7E),&(0x26),Write,ACK
1.150837220,3632,~(0x7E),NUL(0x00),Write,NAK
1.151083010,3634,~(0x7E),'(0x27),Write,ACK
1.151175600,3634,~(0x7E),SOH(0x01),Write,ACK
1.151410580,3636,DEL(0x7F),DC4(0x14),Read,ACK
1.151503160,3636,DEL(0x7F),NUL(0x00),Read,NAK
1.151768870,3638,~(0x7E),)(0x29),Write,ACK
1.151861450,3638,~(0x7E),SOH(0x01),Write,ACK
1.152104700,3640,DEL(0x7F),NAK(0x15),Read,ACK
1.152197290,3640,DEL(0x7F),NUL(0x00),Read,NAK
1.152442510,3642,DEL(0x7F),NAK(0x15),Read,NAK
1.152535090,3642,DEL(0x7F),NUL(0x00),Read,NAK
1.152790680,3644,~(0x7E),,(0x2C),Write,ACK
1.152883350,3644,~(0x7E),SOH(0x01),Write,ACK
1.153138180,3646,~(0x7E),-(0x2D),Write,ACK
1.153230750,3646,~(0x7E),SOH(0x01),Write,ACK
1.153508360,3648,~(0x7E),.(0x2E),Write,ACK
1.153600950,3648,~(0x7E),SOH(0x01),Write,ACK
1.153846630,3650,~(0x7E),/(0x2F),Write,ACK
1.153939210,3650,~(0x7E),SOH(0x01),Write,ACK
1.154185310,3652,~(0x7E),0(0x30),Write,ACK
1.154277900,3652,~(0x7E),SOH(0x01),Write,ACK
1.154534170,3654,~(0x7E),1(0x31),Write,ACK
1.154626760,3654,~(0x7E),SOH(0x01),Write,ACK
1.154857410,3656,~(0x7E),EM (0x19),Write,ACK
1.154950070,3656,~(0x7E),NUL(0x00),Write,NAK
1.155206700,3658,~(0x7E),3(0x33),Write,ACK
1.155299270,3658,~(0x7E),SOH(0x01),Write,ACK
1.155534370,3660,DEL(0x7F),SUB(0x1A),Read,ACK
1.155626950,3660,DEL(0x7F),NUL(0x00),Read,NAK
1.155882840,3662,~(0x7E),5(0x35),Write,NAK
1.155965130,3662,~(0x7E),NUL(0x00),Write,NAK
1.156220770,3664,~(0x7E),6(0x36),Write,ACK
1.156313350,3664,~(0x7E),SOH(0x01),Write,ACK
1.156558520,3666,~(0x7E),7(0x37),Write,ACK
1.156651090,3666,~(0x7E),SOH(0x01),Write,ACK
1.156903250,3668,~(0x7E),8(0x38),Write,ACK
1.156985550,3668,~(0x7E),NUL(0x00),Write,NAK
1.157236770,3670,~(0x7E),9(0x39),Write,ACK
1.157329350,3670,~(0x7E),SOH(0x01),Write,NAK
1.157574930,3672,~(0x7E),=(0x3D),Write,ACK
1.157657190,3672,~(0x7E),NUL(0x00),Write,ACK
1.157913110,3674,~(0x7E),;(0x3B),Write,ACK
1.158005790,3674,~(0x7E),SOH(0x01),Write,ACK
1.171903370,3676,~(0x7E),<(0x3C),Write,ACK
1.171995950,3676,~(0x7E),SOH(0x01),Write,ACK
1.172261480,3680,~(0x7E),=(0x3D),Write,ACK
1.172354050,3680,~(0x7E),SOH(0x01),Write,ACK
1.172600390,3682,~(0x7E),>(0x3E),Write,ACK
1.172692990,3682,~(0x7E),SOH(0x01),Write,NAK
1.172939160,3684,~(0x7E),?(0x3F),Write,ACK
1.173031710,3684,~(0x7E),SOH(0x01),Write,ACK
1.173275370,3686,~(0x7E),@(0x40),Write,ACK
1.173367960,3686,~(0x7E),SOH(0x01),Write,ACK
1.173601330,3688,~(0x7E),(SP)(0x20),Write,NAK
1.173693910,3688,~(0x7E),NUL(0x00),Write,NAK
1.173949580,3690,~(0x7E),B(0x42),Write,ACK
1.174042150,3690,~(0x7E),NUL(0x00),Write,NAK
1.174293510,3692,~(0x7E),C(0x43),Write,ACK
1.174386090,3692,~(0x7E),SOH(0x01),Write,ACK
1.174537020,,DEL(0x7F),,Read,NAK
1.174609030,3694,DEL(0x7F),DC1(0x11),Read,ACK
1.174701610,3694,DEL(0x7F),NUL(0x00),Read,ACK
1.174955470,3696,DEL(0x7F),"(0x22),Read,NAK
1.175048050,3696,DEL(0x7F),NUL(0x00),Read,NAK
1.175302210,3698,~(0x7E),F(0x46),Write,ACK
1.175394790,3698,~(0x7E),SOH(0x01),Write,ACK
1.175638510,3700,~(0x7E),G(0x47),Write,ACK
1.175731090,3700,~(0x7E),SOH(0x01),Write,ACK
1.176581190,3702,DEL(0x7F),$(0x24),Read,ACK
1.176673770,3702,DEL(0x7F),NUL(0x00),Read,NAK
1.176929510,3704,~(0x7E),I(0x49),Write,NAK
1.177011780,3704,~(0x7E),NUL(0x00),Write,NAK
1.177258420,3706,?(0x3F),DC2(0x12),Read,NAK
1.177351000,3706,?(0x3F),NUL(0x00),Read,ACK
1.177862640,3708,~(0x7E),EOT(0x04),Write,ACK
1.177955220,3708,~(0x7E),NUL(0x00),Write,ACK
1.178199760,3710,~(0x7E),ENQ(0x05),Write,ACK
1.178292340,3710,~(0x7E),NUL(0x00),Write,ACK
1.178536530,3712,~(0x7E),ACK(0x06),Write,ACK
1.178629150,3712,~(0x7E),NUL(0x00),Write,ACK
1.178862080,3714,?(0x3F),ETX(0x03),Read,NAK
1.178954760,3714,?(0x3F),NUL(0x00),Read,ACK
1.179208660,3716,~(0x7E),BS (0x08),Write,ACK
1.179301240,3716,~(0x7E),NUL(0x00),Write,ACK
1.179544500,3718,~(0x7E),HT (0x09),Write,ACK
1.179637050,3718,~(0x7E),NUL(0x00),Write,ACK
1.179880280,3720,~(0x7E),LF (0x0A),Write,ACK
1.179972860,3720,~(0x7E),NUL(0x00),Write,ACK
1.180213920,3722,~(0x7E),VT (0x0B),Write,ACK
1.180306510,3722,~(0x7E),NUL(0x00),Write,ACK
1.180588320,3724,~(0x7E),FF (0x0C),Write,ACK
1.180681000,3724,~(0x7E),NUL(0x00),Write,ACK
1.180924720,3726,~(0x7E),CR (0x0D),Write,ACK
1.181017300,3726,~(0x7E),NUL(0x00),Write,ACK
1.181261750,3728,~(0x7E),SO (0x0E),Write,ACK
1.181354330,3728,~(0x7E),NUL(0x00),Write,ACK
1.181588040,3730,~(0x7E),BEL(0x07),Write,NAK
1.181680630,3730,~(0x7E),NUL(0x00),Write,ACK
1.181933940,3732,~(0x7E),DLE(0x10),Write,ACK
1.182026510,3732,~(0x7E),(198)(0xC6),Write,ACK
1.182336960,3734,~(0x7E),DC1(0x11),Write,ACK
1.182429540,3734,~(0x7E),a(0x61),Write,ACK
1.182673060,3736,~(0x7E),DC2(0x12),Write,ACK
1.182765630,3736,~(0x7E),NUL(0x00),Write,ACK
1.183007580,3738,~(0x7E),DC3(0x13),Write,ACK
1.183100230,3738,~(0x7E),(198)(0xC6),Write,ACK
1.183343710,3740,~(0x7E),DC4(0x14),Write,ACK
1.183436280,3740,~(0x7E),a(0x61),Write,ACK
1.183679830,3742,~(0x7E),DC2(0x12),Write,NAK
1.183762130,3742,~(0x7E),NUL(0x00),Write,ACK
1.184015330,3744,~(0x7E),SYN(0x16),Write,ACK
1.184107900,3744,~(0x7E),(198)(0xC6),Write,ACK
1.184346100,3746,DEL(0x7F),VT (0x0B),Read,NAK
1.184438680,3746,DEL(0x7F),0(0x30),Read,NAK
1.184682180,3748,DEL(0x7F),FF (0x0C),Read,ACK
1.184774760,3748,DEL(0x7F),NUL(0x00),Read,ACK
1.185093240,3750,~(0x7E),EM (0x19),Write,ACK
1.185185820,3750,~(0x7E),NUL(0x00),Write,ACK
1.185419550,3752,DEL(0x7F),SO (0x0E),Read,NAK
1.185501840,3752,DEL(0x7F),NUL(0x00),Read,ACK
1.185780230,3754,~(0x7E),ESC(0x1B),Write,ACK
1.185872810,3754,~(0x7E),NUL(0x00),Write,ACK
1.186103360,3756,DEL(0x7F),SO (0x0E),Read,ACK
1.186195940,3756,DEL(0x7F),NUL(0x00),Read,ACK
1.186449970,3758,~(0x7E),GS (0x1D),Write,ACK
1.186542550,3758,~(0x7E),NUL(0x00),Write,ACK
1.186775350,3760,DEL(0x7F),SI (0x0F),Read,NAK
1.186857650,3760,DEL(0x7F),NUL(0x00),Read,ACK
1.187121280,3762,~(0x7E),US (0x1F),Write,ACK
1.187213860,3762,~(0x7E),NUL(0x00),Write,ACK
1.187456480,3764,~(0x7E),(SP)(0x20),Write,ACK
1.187549060,3764,~(0x7E),NUL(0x00),Write,ACK
1.187792560,3766,~(0x7E),!(0x21),Write,ACK
1.187885140,3766,~(0x7E),NUL(0x00),Write,ACK
1.188128080,3768,~(0x7E),"(0x22),Write,ACK
1.188220640,3768,~(0x7E),NUL(0x00),Write,ACK
1.188461000,3770,~(0x7E),#(0x23),Write,ACK
1.188553590,3770,~(0x7E),NUL(0x00),Write,ACK
1.188796990,3772,~(0x7E),$(0x24),Write,ACK
1.188879280,3772,~(0x7E),NUL(0x00),Write,ACK
1.189134940,3774,~(0x7E),SOH(0x01),Write,ACK
1.189227520,3774,~(0x7E),NUL(0x00),Write,ACK
1.189476950,3776,~(0x7E),SOH(0x01),Write,ACK
1.189559250,3776,~(0x7E),NUL(0x00),Write,ACK
1.189815790,3778,~(0x7E),ETX(0x03),Write,ACK
1.189908380,3778,~(0x7E),NUL(0x00),Write,ACK
1.203766660,3780,~(0x7E),$(0x24),Write,NAK
1.203848950,3780,~(0x7E),NUL(0x00),Write,ACK
1.205277850,3782,~(0x7E),&(0x26),Write,ACK
1.205370430,3782,~(0x7E),SOH(0x01),Write,NAK
1.205617310,3784,~(0x7E),'(0x27),Write,ACK
1.205709900,3784,~(0x7E),SOH(0x01),Write,ACK
1.205946210,3786,DEL(0x7F),DC4(0x14),Read,ACK
1.206038800,3786,DEL(0x7F),NUL(0x00),Read,NAK
1.206291210,3788,~(0x7E),)(0x29),Write,ACK
1.206383800,3788,~(0x7E),NUL(0x00),Write,NAK
1.206629910,3790,~(0x7E),*(0x2A),Write,ACK
1.206722490,3790,~(0x7E),SOH(0x01),Write,ACK
1.206958130,3792,DEL(0x7F),NAK(0x15),Read,NAK
1.207050710,3792,DEL(0x7F),NUL(0x00),Read,ACK
1.207358640,3794,~(0x7E),,(0x2C),Write,ACK
1.207440940,3794,~(0x7E),NUL(0x00),Write,NAK
1.207697360,3796,~(0x7E),-(0x2D),Write,ACK
1.207789940,3796,~(0x7E),SOH(0x01),Write,ACK
1.208035400,3798,~(0x7E),.(0x2E),Write,ACK
1.208127980,3798,~(0x7E),NUL(0x00),Write,NAK
1.208373230,3800,~(0x7E),/(0x2F),Write,ACK
1.208465830,3800,~(0x7E),SOH(0x01),Write,ACK
1.208711430,3802,~(0x7E),0(0x30),Write,ACK
1.208804000,3802,~(0x7E),SOH(0x01),Write,NAK
1.209051420,3804,~(0x7E),1(0x31),Write,ACK
1.209144000,3804,~(0x7E),SOH(0x01),Write,ACK
1.209389550,3806,~(0x7E),2(0x32),Write,ACK
1.209482130,3806,~(0x7E),SOH(0x01),Write,ACK
1.209728010,3808,~(0x7E),3(0x33),Write,ACK
1.209820580,3808,~(0x7E),SOH(0x01),Write,ACK
1.210066370,3810,~(0x7E),4(0x34),Write,ACK
1.210158950,3810,~(0x7E),SOH(0x01),Write,ACK
1.210404220,3812,~(0x7E),5(0x35),Write,ACK
1.210496800,3812,~(0x7E),SOH(0x01),Write,ACK
1.210742350,3816,~(0x7E),6(0x36),Write,ACK
1.210834930,3816,~(0x7E),NUL(0x00),Write,NAK
1.211077370,3818,~(0x7E),7(0x37),Write,ACK
1.211169950,3818,~(0x7E),SOH(0x01),Write,ACK
1.211415440,3820,~(0x7E),8(0x38),Write,ACK
1.211508020,3820,~(0x7E),SOH(0x01),Write,ACK
1.211743300,3822,DEL(0x7F),FS (0x1C),Read,NAK
1.211835880,3822,DEL(0x7F),NUL(0x00),Read,NAK
1.212092190,3824,~(0x7E),:(0x3A),Write,ACK
1.212184790,3824,~(0x7E),NUL(0x00),Write,NAK
1.212451090,3826,~(0x7E),;(0x3B),Write,ACK
1.212543770,3826,~(0x7E),SOH(0x01),Write,ACK
1.212778780,3828,DEL(0x7F),RS (0x1E),Read,ACK
1.212871360,3828,DEL(0x7F),NUL(0x00),Read,NAK
1.213195540,3830,~(0x7E),RS (0x1E),Write,NAK
1.213288120,3830,~(0x7E),NUL(0x00),Write,NAK
1.213534370,3832,~(0x7E),US (0x1F),Write,ACK
1.213626960,3832,~(0x7E),NUL(0x00),Write,NAK
1.213872780,3834,?(0x3F),US (0x1F),Read,NAK
1.213965370,3834,?(0x3F),NUL(0x00),Read,NAK
1.214222630,3836,~(0x7E),@(0x40),Write,ACK
1.214315230,3836,~(0x7E),SOH(0x01),Write,ACK
1.214560600,3838,~(0x7E),A(0x41),Write,ACK
1.214653190,3838,~(0x7E),SOH(0x01),Write,ACK
1.214899220,3840,~(0x7E),B(0x42),Write,ACK
1.214991800,3840,~(0x7E),NUL(0x00),Write,NAK
1.215239080,3842,~(0x7E),a(0x61),Write,NAK
1.215321370,3842,~(0x7E),NUL(0x00),Write,NAK
1.215572680,3844,~(0x7E),D(0x44),Write,ACK
1.215665260,3844,~(0x7E),SOH(0x01),Write,ACK
1.215911040,3846,~(0x7E),E(0x45),Write,NAK
1.215993340,3846,~(0x7E),NUL(0x00),Write,NAK
1.216249030,3848,~(0x7E),F(0x46),Write,ACK
1.216341610,3848,~(0x7E),NUL(0x00),Write,NAK
1.216576540,3850,DEL(0x7F),#(0x23),Read,NAK
1.216669120,3850,DEL(0x7F),NUL(0x00),Read,NAK
1.216925610,3852,~(0x7E),H(0x48),Write,ACK
1.217018190,3852,~(0x7E),SOH(0x01),Write,ACK
1.217263510,3854,~(0x7E),I(0x49),Write,ACK
1.217345800,3854,~(0x7E),NUL(0x00),Write,NAK
1.217615290,3856,~(0x7E),$(0x24),Write,NAK
1.217697590,3856,~(0x7E),NUL(0x00),Write,ACK
1.218182610,3858,~(0x7E),EOT(0x04),Write,ACK
1.218275190,3858,~(0x7E),NUL(0x00),Write,ACK
1.218520400,3860,~(0x7E),ENQ(0x05),Write,ACK
1.218612990,3860,~(0x7E),NUL(0x00),Write,ACK
1.218856340,3862,~(0x7E),ACK(0x06),Write,ACK
1.218948920,3862,~(0x7E),NUL(0x00),Write,ACK
1.219192390,3864,~(0x7E),BEL(0x07),Write,ACK
1.219284970,3864,~(0x7E),NUL(0x00),Write,ACK
1.219528780,3866,~(0x7E),BS (0x08),Write,ACK
1.219621440,3866,~(0x7E),NUL(0x00),Write,ACK
1.219869190,3868,~(0x7E),HT (0x09),Write,ACK
1.219961840,3868,~(0x7E),NUL(0x00),Write,ACK
1.220205570,3870,~(0x7E),HT (0x09),Write,ACK
1.220287840,3870,~(0x7E),NUL(0x00),Write,ACK
1.220540660,3872,~(0x7E),VT (0x0B),Write,ACK
1.220633240,3872,~(0x7E),NUL(0x00),Write,ACK
1.220865820,3874,~(0x7E),ACK(0x06),Write,ACK
1.220958390,3874,~(0x7E),NUL(0x00),Write,ACK
1.221211980,3876,~(0x7E),CR (0x0D),Write,ACK
1.221304560,3876,~(0x7E),NUL(0x00),Write,ACK
1.221548420,3878,~(0x7E),SO (0x0E),Write,ACK
1.221641080,3878,~(0x7E),NUL(0x00),Write,ACK
1.221884520,3880,~(0x7E),BEL(0x07),Write,NAK
1.221966910,3880,~(0x7E),NUL(0x00),Write,ACK
1.236054140,3882,~(0x7E),DLE(0x10),Write,ACK
1.236146720,3882,~(0x7E),NUL(0x00),Write,ACK
1.236397300,3884,DEL(0x7F),BS (0x08),Read,NAK
1.236489880,3884,DEL(0x7F),NUL(0x00),Read,ACK
1.236744010,3886,~(0x7E),DC2(0x12),Write,ACK
1.236836580,3886,~(0x7E),NUL(0x00),Write,ACK
1.237520490,3888,~(0x7E),DC3(0x13),Write,ACK
1.237613070,3888,~(0x7E),(195)(0xC3),Write,ACK
1.237858760,3890,~(0x7E),DC4(0x14),Write,ACK
1.237951340,3890,~(0x7E),a(0x61),Write,NAK
1.238231040,3892,~(0x7E),NAK(0x15),Write,ACK
1.238323600,3892,~(0x7E),NUL(0x00),Write,ACK
1.238568130,3894,~(0x7E),SYN(0x16),Write,ACK
1.238650440,3894,~(0x7E),c(0x63),Write,ACK
1.238903930,3896,~(0x7E),ETB(0x17),Write,ACK
1.238996510,3896,~(0x7E),a(0x61),Write,ACK
1.239239970,3898,~(0x7E),FF (0x0C),Write,ACK
1.239322270,3898,~(0x7E),NUL(0x00),Write,ACK
1.239576750,3900,~(0x7E),EM (0x19),Write,ACK
1.239669330,3900,~(0x7E),(198)(0xC6),Write,ACK
1.239898970,3902,DEL(0x7F),CR (0x0D),Read,ACK
1.239991550,3902,DEL(0x7F),0(0x30),Read,NAK
1.240252230,3904,~(0x7E),ESC(0x1B),Write,ACK
1.240344850,3904,~(0x7E),NUL(0x00),Write,ACK
1.240578460,3906,DEL(0x7F),SO (0x0E),Read,ACK
1.240671040,3906,DEL(0x7F),NUL(0x00),Read,ACK
1.240924560,3908,~(0x7E),GS (0x1D),Write,ACK
1.241017130,3908,~(0x7E),NUL(0x00),Write,ACK
1.241261400,3910,~(0x7E),RS (0x1E),Write,ACK
1.241353990,3910,~(0x7E),NUL(0x00),Write,ACK
1.241597850,3912,~(0x7E),US (0x1F),Write,ACK
1.241690450,3912,~(0x7E),NUL(0x00),Write,ACK
1.241933590,3914,~(0x7E),(SP)(0x20),Write,ACK
1.242026190,3914,~(0x7E),NUL(0x00),Write,ACK
1.242267960,3916,~(0x7E),!(0x21),Write,ACK
1.242360550,3916,~(0x7E),NUL(0x00),Write,ACK
1.242610240,3918,~(0x7E),"(0x22),Write,ACK
1.242702920,3918,~(0x7E),NUL(0x00),Write,ACK
1.242946080,3920,~(0x7E),#(0x23),Write,ACK
1.243038750,3920,~(0x7E),NUL(0x00),Write,ACK
1.243271930,3922,DEL(0x7F),DC2(0x12),Read,ACK
1.243364550,3922,DEL(0x7F),NUL(0x00),Read,ACK
1.243617910,3924,~(0x7E),SOH(0x01),Write,ACK
1.243710480,3924,~(0x7E),NUL(0x00),Write,ACK
1.243943130,3926,DEL(0x7F),SOH(0x01),Read,ACK
1.244035720,3926,DEL(0x7F),NUL(0x00),Read,ACK
1.244279650,3928,DEL(0x7F),NUL(0x00),Read,NAK
1.244361940,3928,DEL(0x7F),(128)(0x80),Read,ACK
1.244630170,3930,~(0x7E),%(0x25),Write,ACK
1.244722750,3930,~(0x7E),NUL(0x00),Write,ACK
1.251240100,3932,~(0x7E),&(0x26),Write,ACK
1.251322390,3932,~(0x7E),NUL(0x00),Write,NAK
1.251579500,3934,~(0x7E),'(0x27),Write,ACK
1.251672080,3934,~(0x7E),SOH(0x01),Write,ACK
1.251917510,3936,~(0x7E),((0x28),Write,ACK
1.252010100,3936,~(0x7E),SOH(0x01),Write,ACK
1.252256210,3938,~(0x7E),)(0x29),Write,ACK
1.252348780,3938,~(0x7E),SOH(0x01),Write,ACK
1.252593970,3940,~(0x7E),*(0x2A),Write,ACK
1.252686560,3940,~(0x7E),SOH(0x01),Write,NAK
1.252932350,3942,~(0x7E),+(0x2B),Write,ACK
1.253024940,3942,~(0x7E),SOH(0x01),Write,ACK
1.253276440,3944,~(0x7E),,(0x2C),Write,ACK
1.253369020,3944,~(0x7E),SOH(0x01),Write,ACK
1.253627020,3946,DEL(0x7F),SYN(0x16),Read,NAK
1.253719680,3946,DEL(0x7F),NUL(0x00),Read,NAK
1.253983450,3948,~(0x7E),.(0x2E),Write,ACK
1.254076020,3948,~(0x7E),SOH(0x01),Write,ACK
1.268145030,3950,~(0x7E),/(0x2F),Write,ACK
1.268237620,3950,~(0x7E),SOH(0x01),Write,ACK
1.268493390,3952,DEL(0x7F),CAN(0x18),Read,ACK
1.268585960,3952,DEL(0x7F),NUL(0x00),Read,NAK
1.268842880,3954,~(0x7E),1(0x31),Write,ACK
1.268935460,3954,~(0x7E),SOH(0x01),Write,ACK
1.269194290,3956,DEL(0x7F),EM (0x19),Read,ACK
1.269286870,3956,DEL(0x7F),NUL(0x00),Read,NAK
1.269543240,3958,~(0x7E),1(0x31),Write,NAK
1.269625540,3958,~(0x7E),NUL(0x00),Write,NAK
1.269881430,3960,~(0x7E),4(0x34),Write,ACK
1.269974010,3960,~(0x7E),SOH(0x01),Write,NAK
1.270232150,3962,~(0x7E),5(0x35),Write,ACK
1.270324730,3962,~(0x7E),SOH(0x01),Write,ACK
1.270558630,3964,DEL(0x7F),ESC(0x1B),Read,ACK
1.270651220,3964,DEL(0x7F),NUL(0x00),Read,NAK
1.270904630,3966,DEL(0x7F),ESC(0x1B),Read,NAK
1.270997210,3966,DEL(0x7F),NUL(0x00),Read,NAK
1.271253680,3968,~(0x7E),8(0x38),Write,ACK
1.271335980,3968,~(0x7E),NUL(0x00),Write,NAK
1.271592090,3970,~(0x7E),9(0x39),Write,ACK
1.271674390,3970,~(0x7E),NUL(0x00),Write,NAK
1.271930260,3972,~(0x7E),:(0x3A),Write,ACK
1.272022830,3972,~(0x7E),SOH(0x01),Write,ACK
1.272268070,3974,~(0x7E),;(0x3B),Write,ACK
1.272360660,3974,~(0x7E),SOH(0x01),Write,ACK
1.272606620,3976,~(0x7E),>(0x3E),Write,ACK
1.272688950,3976,~(0x7E),NUL(0x00),Write,NAK
1.272946870,3978,~(0x7E),=(0x3D),Write,ACK
1.273039450,3978,~(0x7E),SOH(0x01),Write,ACK
1.273310250,3980,~(0x7E),>(0x3E),Write,ACK
1.273402830,3980,~(0x7E),SOH(0x01),Write,ACK
1.273654460,3982,~(0x7E),?(0x3F),Write,ACK
1.273747040,3982,~(0x7E),SOH(0x01),Write,ACK
1.273980270,3984,~(0x7E),(SP)(0x20),Write,ACK
1.274072840,3984,~(0x7E),NUL(0x00),Write,NAK
1.274326660,3986,~(0x7E),A(0x41),Write,ACK
1.274419230,3986,~(0x7E),SOH(0x01),Write,ACK
1.274662230,3988,~(0x7E),B(0x42),Write,ACK
1.274754810,3988,~(0x7E),SOH(0x01),Write,ACK
1.274998000,3990,~(0x7E),C(0x43),Write,ACK
1.275090580,3990,~(0x7E),SOH(0x01),Write,ACK
1.275334110,3992,~(0x7E),D(0x44),Write,ACK
1.275426690,3992,~(0x7E),SOH(0x01),Write,ACK
1.275670430,3994,~(0x7E),E(0x45),Write,ACK
1.275763000,3994,~(0x7E),SOH(0x01),Write,ACK
1.276020170,3996,DEL(0x7F),#(0x23),Read,ACK
1.276112760,3996,DEL(0x7F),NUL(0x00),Read,ACK
1.276374980,3998,~(0x7E),G(0x47),Write,ACK
1.276467560,3998,~(0x7E),SOH(0x01),Write,NAK
1.276710720,4000,~(0x7E),H(0x48),Write,ACK
1.276803300,4000,~(0x7E),SOH(0x01),Write,ACK
1.277084230,4002,~(0x7E),I(0x49),Write,ACK
1.277176810,4002,~(0x7E),SOH(0x01),Write,ACK
1.277422810,4004,~(0x7E),%(0x25),Write,ACK
1.277515400,4004,~(0x7E),NUL(0x00),Write,ACK
1.278023640,4006,~(0x7E),EOT(0x04),Write,ACK
1.278116210,4006,~(0x7E),NUL(0x00),Write,ACK
1.278363800,4008,DEL(0x7F),STX(0x02),Read,NAK
1.278456380,4008,DEL(0x7F),NUL(0x00),Read,ACK
1.278710060,4010,~(0x7E),ACK(0x06),Write,ACK
1.278802730,4010,~(0x7E),NUL(0x00),Write,ACK
1.279035690,4012,~(0x7E),ETX(0x03),Write,NAK
1.279128290,4012,~(0x7E),NUL(0x00),Write,ACK
1.279381890,4014,~(0x7E),BS (0x08),Write,ACK
1.279474470,4014,~(0x7E),NUL(0x00),Write,ACK
1.279717630,4018,~(0x7E),HT (0x09),Write,ACK
1.279810200,4018,~(0x7E),NUL(0x00),Write,ACK
1.280043730,4020,DEL(0x7F),ENQ(0x05),Read,ACK
1.280136310,4020,DEL(0x7F),NUL(0x00),Read,ACK
1.280405970,4022,~(0x7E),VT (0x0B),Write,ACK
1.280498570,4022,~(0x7E),NUL(0x00),Write,ACK
1.280750710,4024,~(0x7E),FF (0x0C),Write,ACK
1.280843300,4024,~(0x7E),NUL(0x00),Write,ACK
1.281099060,4026,~(0x7E),CR (0x0D),Write,ACK
1.281191640,4026,~(0x7E),NUL(0x00),Write,ACK
1.281434860,4028,~(0x7E),SO (0x0E),Write,ACK
1.281527450,4028,~(0x7E),NUL(0x00),Write,ACK
1.281771110,4030,~(0x7E),SI (0x0F),Write,ACK
1.281863700,4030,~(0x7E),NUL(0x00),Write,ACK
1.282107130,4032,~(0x7E),DLE(0x10),Write,ACK
1.282199730,4032,~(0x7E),NUL(0x00),Write,ACK
1.282443040,4034,~(0x7E),DC1(0x11),Write,ACK
1.282535610,4034,~(0x7E),NUL(0x00),Write,ACK
1.282778680,4036,~(0x7E),DC2(0x12),Write,ACK
1.282871260,4036,~(0x7E),NUL(0x00),Write,ACK
1.283129310,4038,~(0x7E),EM (0x19),Write,NAK
1.283211690,4038,~(0x7E),c(0x63),Write,ACK
1.283462920,4040,~(0x7E),LF (0x0A),Write,ACK
1.283555510,4040,~(0x7E),0(0x30),Write,NAK
1.283809480,4042,~(0x7E),NAK(0x15),Write,ACK
1.283902090,4042,~(0x7E),NUL(0x00),Write,ACK
1.284145600,4044,~(0x7E),SYN(0x16),Write,ACK
1.284238190,4044,~(0x7E),(198)(0xC6),Write,ACK
1.284471190,4046,DEL(0x7F),VT (0x0B),Read,NAK
1.284563770,4046,DEL(0x7F),8(0x38),Read,ACK
1.284725230,,DEL(0x7F),,Read,NAK
1.284797230,4048,DEL(0x7F),ACK(0x06),Read,ACK
1.284889810,4048,DEL(0x7F),NUL(0x00),Read,ACK
1.285160420,4050,?(0x3F),FF (0x0C),Read,NAK
1.285253000,4050,?(0x3F),c(0x63),Read,ACK
1.285515720,4052,~(0x7E),SUB(0x1A),Write,ACK
1.285598020,4052,~(0x7E),0(0x30),Write,NAK
1.285851660,4054,~(0x7E),GS (0x1D),Write,NAK
1.285933950,4054,~(0x7E),NUL(0x00),Write,ACK
1.299883370,4056,~(0x7E),RS (0x1E),Write,ACK
1.299965660,4056,~(0x7E),NUL(0x00),Write,ACK
1.300241650,4058,~(0x7E),GS (0x1D),Write,ACK
1.300334280,4058,~(0x7E),NUL(0x00),Write,ACK
1.300581580,4060,~(0x7E),SI (0x0F),Write,ACK
1.300663870,4060,~(0x7E),NUL(0x00),Write,ACK
1.300910140,4062,DEL(0x7F),SI (0x0F),Read,NAK
1.301002720,4062,DEL(0x7F),NUL(0x00),Read,ACK
1.301258390,4064,~(0x7E),(SP)(0x20),Write,ACK
1.301350970,4064,~(0x7E),NUL(0x00),Write,ACK
1.301596700,4066,~(0x7E),!(0x21),Write,ACK
1.301689280,4066,~(0x7E),NUL(0x00),Write,ACK
1.301946200,4070,~(0x7E),"(0x22),Write,ACK
1.302028500,4070,~(0x7E),NUL(0x00),Write,ACK
1.302292760,4072,~(0x7E),#(0x23),Write,ACK
1.302385320,4072,~(0x7E),NUL(0x00),Write,ACK
1.302630880,4074,~(0x7E),$(0x24),Write,ACK
1.302723480,4074,~(0x7E),NUL(0x00),Write,ACK
1.302969010,4076,~(0x7E),SOH(0x01),Write,ACK
1.303061670,4076,~(0x7E),NUL(0x00),Write,ACK
1.303307590,4078,~(0x7E),STX(0x02),Write,ACK
1.303400150,4078,~(0x7E),NUL(0x00),Write,ACK
1.303646130,4080,~(0x7E),ETX(0x03),Write,ACK
1.303738710,4080,~(0x7E),NUL(0x00),Write,ACK
1.303986830,4084,~(0x7E),%(0x25),Write,ACK
1.304079500,4084,~(0x7E),NUL(0x00),Write,ACK
1.305492120,4086,~(0x7E),&(0x26),Write,ACK
1.305584700,4086,~(0x7E),SOH(0x01),Write,ACK
1.305831050,4088,~(0x7E),3(0x33),Write,NAK
1.305913340,4088,~(0x7E),NUL(0x00),Write,NAK
1.306169060,4090,~(0x7E),((0x28),Write,ACK
1.306251340,4090,~(0x7E),NUL(0x00),Write,NAK
1.306507000,4092,~(0x7E),)(0x29),Write,ACK
1.306599580,4092,~(0x7E),NUL(0x00),Write,NAK
1.306845000,4094,~(0x7E),*(0x2A),Write,ACK
1.306937580,4094,~(0x7E),SOH(0x01),Write,ACK
1.307182780,4096,~(0x7E),+(0x2B),Write,ACK
1.307275360,4096,~(0x7E),NUL(0x00),Write,NAK
1.307525370,4098,~(0x7E),,(0x2C),Write,ACK
1.307617940,4098,~(0x7E),NUL(0x00),Write,NAK
1.307883920,4100,~(0x7E),-(0x2D),Write,ACK
1.307976500,4100,~(0x7E),NUL(0x00),Write,ACK
1.308219310,4102,DEL(0x7F),ETB(0x17),Read,ACK
1.308311890,4102,DEL(0x7F),NUL(0x00),Read,ACK
1.308618430,4104,~(0x7E),/(0x2F),Write,ACK
1.308711010,4104,~(0x7E),SOH(0x01),Write,ACK
1.308961950,4106,~(0x7E),0(0x30),Write,ACK
1.309054530,4106,~(0x7E),SOH(0x01),Write,ACK
1.309312620,4108,~(0x7E),0(0x30),Write,NAK
1.309394920,4108,~(0x7E),NUL(0x00),Write,NAK
1.309650520,4110,~(0x7E),2(0x32),Write,ACK
1.309743090,4110,~(0x7E),SOH(0x01),Write,ACK
1.309978030,4112,DEL(0x7F),FF (0x0C),Read,NAK
1.310060340,4112,DEL(0x7F),(128)(0x80),Read,ACK
1.310321530,4114,~(0x7E),4(0x34),Write,ACK
1.310414100,4114,~(0x7E),SOH(0x01),Write,ACK
1.310649910,4116,DEL(0x7F),SUB(0x1A),Read,NAK
1.310742490,4116,DEL(0x7F),NUL(0x00),Read,NAK
1.311014370,4118,~(0x7E),6(0x36),Write,ACK
1.311106950,4118,~(0x7E),SOH(0x01),Write,ACK
1.311360970,4120,~(0x7E),7(0x37),Write,ACK
1.311453550,4120,~(0x7E),SOH(0x01),Write,ACK
1.311699380,4122,~(0x7E),<(0x3C),Write,ACK
1.311781670,4122,~(0x7E),NUL(0x00),Write,NAK
1.312027140,4124,~(0x7E),FS (0x1C),Write,NAK
1.312119730,4124,~(0x7E),NUL(0x00),Write,NAK
1.312375370,4126,~(0x7E),:(0x3A),Write,ACK
1.312467950,4126,~(0x7E),SOH(0x01),Write,NAK
1.312713690,4128,~(0x7E),;(0x3B),Write,ACK
1.312806360,4128,~(0x7E),SOH(0x01),Write,ACK
1.313055230,4132,~(0x7E),<(0x3C),Write,ACK
1.313147910,4132,~(0x7E),SOH(0x01),Write,ACK
1.313392990,4134,~(0x7E),=(0x3D),Write,ACK
1.313485660,4134,~(0x7E),SOH(0x01),Write,ACK
1.313744550,4136,~(0x7E),>(0x3E),Write,ACK
1.313837230,4136,~(0x7E),NUL(0x00),Write,NAK
1.314090960,4138,~(0x7E),?(0x3F),Write,ACK
1.314183550,4138,~(0x7E),SOH(0x01),Write,ACK
1.314429720,4140,~(0x7E),@(0x40),Write,ACK
1.314512010,4140,~(0x7E),NUL(0x00),Write,NAK
1.314768180,4142,~(0x7E),A(0x41),Write,ACK
1.314860760,4142,~(0x7E),SOH(0x01),Write,ACK
1.315106310,4144,~(0x7E),C(0x43),Write,ACK
1.315188610,4144,~(0x7E),NUL(0x00),Write,NAK
1.315445140,4146,~(0x7E),A(0x41),Write,NAK
1.315527440,4146,~(0x7E),NUL(0x00),Write,NAK
1.315783370,4148,~(0x7E),D(0x44),Write,ACK
1.315875950,4148,~(0x7E),SOH(0x01),Write,ACK
1.316121920,4150,~(0x7E),E(0x45),Write,ACK
1.316214500,4150,~(0x7E),SOH(0x01),Write,ACK
1.316481090,4152,~(0x7E),F(0x46),Write,ACK
1.316573670,4152,~(0x7E),SOH(0x01),Write,ACK
1.316734650,,DEL(0x7F),,Read,NAK
1.316806650,4154,DEL(0x7F),DC1(0x11),Read,NAK
1.316899240,4154,DEL(0x7F),(128)(0x80),Read,ACK
1.317168310,4156,~(0x7E),H(0x48),Write,ACK
1.317260890,4156,~(0x7E),SOH(0x01),Write,ACK
1.317515370,4158,~(0x7E),$(0x24),Write,NAK
1.317597680,4158,~(0x7E),NUL(0x00),Write,NAK
1.317853760,4160,~(0x7E),"(0x22),Write,NAK
1.317936040,4160,~(0x7E),NUL(0x00),Write,ACK
1.332094100,4162,~(0x7E),EOT(0x04),Write,ACK
1.332186700,4162,~(0x7E),NUL(0x00),Write,ACK
1.332448870,4164,~(0x7E),ENQ(0x05),Write,ACK
1.332541450,4164,~(0x7E),NUL(0x00),Write,ACK
1.332784990,4166,~(0x7E),ACK(0x06),Write,ACK
1.332877570,4166,~(0x7E),NUL(0x00),Write,ACK
1.333120150,4168,~(0x7E),BEL(0x07),Write,ACK
1.333212730,4168,~(0x7E),NUL(0x00),Write,ACK
1.333420310,,?(0x3F),,Read,NAK
1.333492330,4170,?(0x3F),STX(0x02),Read,ACK
1.333585000,4170,?(0x3F),NUL(0x00),Read,ACK
1.333848920,4172,~(0x7E),HT (0x09),Write,ACK
1.333941570,4172,~(0x7E),NUL(0x00),Write,ACK
1.334237040,4174,~(0x7E),LF (0x0A),Write,ACK
1.334329620,4174,~(0x7E),NUL(0x00),Write,ACK
1.334573170,4176,~(0x7E),VT (0x0B),Write,NAK
1.334655460,4176,~(0x7E),NUL(0x00),Write,ACK
1.334913210,4178,~(0x7E),SO (0x0E),Write,ACK
1.334995490,4178,~(0x7E),NUL(0x00),Write,ACK
1.335273890,4180,~(0x7E),CR (0x0D),Write,ACK
1.335366480,4180,~(0x7E),NUL(0x00),Write,ACK
1.335618710,4182,~(0x7E),SO (0x0E),Write,ACK
1.335711290,4182,~(0x7E),NUL(0x00),Write,ACK
1.335954730,4184,~(0x7E),SI (0x0F),Write,NAK
1.336037040,4184,~(0x7E),NUL(0x00),Write,ACK
1.336290490,4186,~(0x7E),BS (0x08),Write,ACK
1.336372790,4186,~(0x7E),NUL(0x00),Write,ACK
1.336625990,4188,~(0x7E),DC1(0x11),Write,ACK
1.336718580,4188,~(0x7E),NUL(0x00),Write,ACK
1.336961600,4190,~(0x7E),HT (0x09),Write,ACK
1.337043900,4190,~(0x7E),NUL(0x00),Write,ACK
1.337297680,4192,~(0x7E),DC3(0x13),Write,ACK
1.337390270,4192,~(0x7E),NUL(0x00),Write,ACK
1.337636180,4194,~(0x7E),SYN(0x16),Write,ACK
1.337718480,4194,~(0x7E),NUL(0x00),Write,ACK
1.337986120,4196,DEL(0x7F),VT (0x0B),Read,ACK
1.338068500,4196,DEL(0x7F),(128)(0x80),Read,ACK
1.338340840,4198,~(0x7E),VT (0x0B),Write,ACK
1.338423150,4198,~(0x7E),c(0x63),Write,ACK
1.338677170,4200,~(0x7E),ETB(0x17),Write,ACK
1.338769720,4200,~(0x7E),a(0x61),Write,ACK
1.339013510,4202,~(0x7E),FF (0x0C),Write,ACK
1.339095820,4202,~(0x7E),NUL(0x00),Write,ACK
1.339349160,4204,~(0x7E),EM (0x19),Write,ACK
1.339441740,4204,~(0x7E),(199)(0xC7),Write,ACK
1.339674770,4206,~(0x7E),CR (0x0D),Write,ACK
1.339767350,4206,~(0x7E),0(0x30),Write,NAK
1.340020940,4208,~(0x7E),ESC(0x1B),Write,ACK
1.340113520,4208,~(0x7E),NUL(0x00),Write,ACK
1.340346350,4210,DEL(0x7F),SO (0x0E),Read,ACK
1.340438930,4210,DEL(0x7F),c(0x63),Read,ACK
1.340717390,4212,~(0x7E),GS (0x1D),Write,ACK
1.340809970,4212,~(0x7E),a(0x61),Write,ACK
1.341110930,4214,~(0x7E),RS (0x1E),Write,ACK
1.341203520,4214,~(0x7E),NUL(0x00),Write,ACK
1.341450060,4216,~(0x7E),US (0x1F),Write,ACK
1.341542650,4216,~(0x7E),NUL(0x00),Write,ACK
1.341788540,4218,~(0x7E),(SP)(0x20),Write,ACK
1.341881120,4218,~(0x7E),NUL(0x00),Write,ACK
1.342126870,4220,~(0x7E),!(0x21),Write,ACK
1.342219460,4220,~(0x7E),NUL(0x00),Write,ACK
1.342455040,4222,~(0x7E),DC1(0x11),Write,ACK
1.342547610,4222,~(0x7E),NUL(0x00),Write,ACK
1.342804060,4224,~(0x7E),#(0x23),Write,ACK
1.342896640,4224,~(0x7E),NUL(0x00),Write,ACK
1.343142440,4226,~(0x7E),$(0x24),Write,ACK
1.343224810,4226,~(0x7E),NUL(0x00),Write,ACK
1.343505540,4228,~(0x7E),SOH(0x01),Write,ACK
1.343598140,4228,~(0x7E),NUL(0x00),Write,ACK
1.343852260,4230,~(0x7E),STX(0x02),Write,ACK
1.343944830,4230,~(0x7E),NUL(0x00),Write,ACK
1.344190850,4232,~(0x7E),ETX(0x03),Write,ACK
1.344283430,4232,~(0x7E),NUL(0x00),Write,ACK
1.344528740,4234,~(0x7E),%(0x25),Write,ACK
1.344621320,4234,~(0x7E),NUL(0x00),Write,ACK
1.345990160,4236,~(0x7E),#(0x23),Write,ACK
1.346072460,4236,~(0x7E),NUL(0x00),Write,NAK
1.346328850,4238,~(0x7E),'(0x27),Write,ACK
1.346421440,4238,~(0x7E),SOH(0x01),Write,ACK
1.346666630,4240,~(0x7E),((0x28),Write,ACK
1.346759210,4240,~(0x7E),SOH(0x01),Write,ACK
1.347020630,4242,~(0x7E),)(0x29),Write,ACK
1.347113210,4242,~(0x7E),NUL(0x00),Write,NAK
1.347358970,4244,~(0x7E),*(0x2A),Write,ACK
1.347451550,4244,~(0x7E),SOH(0x01),Write,ACK
1.347697060,4246,~(0x7E),+(0x2B),Write,ACK
1.347789650,4246,~(0x7E),NUL(0x00),Write,NAK
1.348034830,4248,~(0x7E),SYN(0x16),Write,ACK
1.348117140,4248,~(0x7E),NUL(0x00),Write,NAK
1.348373060,4250,~(0x7E),-(0x2D),Write,ACK
1.348465640,4250,~(0x7E),SOH(0x01),Write,ACK
1.348710800,4252,~(0x7E),.(0x2E),Write,ACK
1.348803370,4252,~(0x7E),SOH(0x01),Write,ACK
1.349067430,4254,~(0x7E),/(0x2F),Write,ACK
1.349160020,4254,~(0x7E),SOH(0x01),Write,ACK
1.349412880,4256,~(0x7E),0(0x30),Write,ACK
1.349505460,4256,~(0x7E),NUL(0x00),Write,NAK
1.349759760,4258,~(0x7E),1(0x31),Write,NAK
1.349842050,4258,~(0x7E),NUL(0x00),Write,NAK
1.350098040,4260,~(0x7E),2(0x32),Write,ACK
1.350190630,4260,~(0x7E),SOH(0x01),Write,ACK
1.363871590,4262,~(0x7E),3(0x33),Write,ACK
1.363964160,4262,~(0x7E),SOH(0x01),Write,ACK
1.364136780,,DEL(0x7F),,Read,NAK
1.364208790,4264,DEL(0x7F),CR (0x0D),Read,ACK
1.364301380,4264,DEL(0x7F),NUL(0x00),Read,ACK
1.364567870,4266,~(0x7E),5(0x35),Write,ACK
1.364660440,4266,~(0x7E),SOH(0x01),Write,ACK
1.364907490,4268,~(0x7E),6(0x36),Write,ACK
1.365000090,4268,~(0x7E),SOH(0x01),Write,ACK
1.365235520,4270,DEL(0x7F),ESC(0x1B),Read,NAK
1.365328100,4270,DEL(0x7F),NUL(0x00),Read,NAK
1.365591920,4272,~(0x7E),8(0x38),Write,ACK
1.365684500,4272,~(0x7E),SOH(0x01),Write,ACK
1.365951910,4274,~(0x7E),9(0x39),Write,ACK
1.366044490,4274,~(0x7E),SOH(0x01),Write,ACK
1.366298620,4276,~(0x7E),:(0x3A),Write,ACK
1.366391200,4276,~(0x7E),NUL(0x00),Write,NAK
1.366626590,4278,?(0x3F),SO (0x0E),Read,NAK
1.366708860,4278,?(0x3F),(192)(0xC0),Read,ACK
1.366975250,4280,~(0x7E),<(0x3C),Write,ACK
1.367067830,4280,~(0x7E),SOH(0x01),Write,ACK
1.367313660,4282,~(0x7E),=(0x3D),Write,NAK
1.367395960,4282,~(0x7E),NUL(0x00),Write,NAK
1.367651840,4284,~(0x7E),>(0x3E),Write,ACK
1.367744420,4284,~(0x7E),SOH(0x01),Write,ACK
1.367979650,4286,DEL(0x7F),US (0x1F),Read,NAK
1.368072230,4286,DEL(0x7F),NUL(0x00),Read,NAK
1.368332330,4288,~(0x7E),@(0x40),Write,ACK
1.368424910,4288,~(0x7E),SOH(0x01),Write,ACK
1.368690470,4290,~(0x7E),A(0x41),Write,ACK
1.368783040,4290,~(0x7E),SOH(0x01),Write,ACK
1.369075320,4292,~(0x7E),B(0x42),Write,ACK
1.369167910,4292,~(0x7E),SOH(0x01),Write,ACK
1.369414380,4294,~(0x7E),A(0x41),Write,NAK
1.369496670,4294,~(0x7E),NUL(0x00),Write,NAK
1.369752500,4296,~(0x7E),D(0x44),Write,ACK
1.369845080,4296,~(0x7E),SOH(0x01),Write,ACK
1.370090430,4298,~(0x7E),E(0x45),Write,ACK
1.370183010,4298,~(0x7E),SOH(0x01),Write,ACK
1.370428780,4300,~(0x7E),F(0x46),Write,ACK
1.370521360,4300,~(0x7E),SOH(0x01),Write,ACK
1.370766600,4302,~(0x7E),G(0x47),Write,NAK
1.370848890,4302,~(0x7E),NUL(0x00),Write,NAK
1.371107110,4304,~(0x7E),L(0x4C),Write,ACK
1.371189400,4304,~(0x7E),NUL(0x00),Write,NAK
1.371456760,4306,DEL(0x7F),$(0x24),Read,NAK
1.371539060,4306,DEL(0x7F),(128)(0x80),Read,ACK
1.371813170,4308,~(0x7E),%(0x25),Write,ACK
1.371905760,4308,~(0x7E),NUL(0x00),Write,ACK
1.372402940,4310,DEL(0x7F),STX(0x02),Read,ACK
1.372495520,4310,DEL(0x7F),NUL(0x00),Read,ACK
1.372750330,4312,~(0x7E),ENQ(0x05),Write,ACK
1.372842910,4312,~(0x7E),NUL(0x00),Write,ACK
1.373087660,4314,~(0x7E),ACK(0x06),Write,ACK
1.373180340,4314,~(0x7E),NUL(0x00),Write,ACK
1.373424900,4316,~(0x7E),BEL(0x07),Write,ACK
1.373507210,4316,~(0x7E),NUL(0x00),Write,ACK
1.373760560,4318,~(0x7E),BS (0x08),Write,ACK
1.373853230,4318,~(0x7E),NUL(0x00),Write,ACK
1.374096650,4320,~(0x7E),HT (0x09),Write,ACK
1.374189250,4320,~(0x7E),NUL(0x00),Write,ACK
1.374437800,4322,~(0x7E),LF (0x0A),Write,ACK
1.374530390,4322,~(0x7E),NUL(0x00),Write,ACK
1.374798280,4324,~(0x7E),VT (0x0B),Write,ACK
1.374890860,4324,~(0x7E),NUL(0x00),Write,ACK
1.375142610,4326,~(0x7E),FF (0x0C),Write,ACK
1.375235190,4326,~(0x7E),NUL(0x00),Write,ACK
1.375478730,4328,~(0x7E),CR (0x0D),Write,ACK
1.375571320,4328,~(0x7E),NUL(0x00),Write,ACK
1.375814950,4330,~(0x7E),SI (0x0F),Write,ACK
1.375897250,4330,~(0x7E),NUL(0x00),Write,ACK
1.376150200,4332,~(0x7E),SI (0x0F),Write,ACK
1.376242780,4332,~(0x7E),NUL(0x00),Write,ACK
1.376485960,4334,~(0x7E),DLE(0x10),Write,ACK
1.376578540,4334,~(0x7E),NUL(0x00),Write,ACK
1.376822050,4336,~(0x7E),DC1(0x11),Write,ACK
1.376914630,4336,~(0x7E),NUL(0x00),Write,ACK
1.377168610,4338,~(0x7E),DC3(0x13),Write,ACK
1.377250900,4338,~(0x7E),NUL(0x00),Write,ACK
1.377528660,4340,~(0x7E),DC3(0x13),Write,ACK
1.377621230,4340,~(0x7E),NUL(0x00),Write,ACK
1.377873220,4342,~(0x7E),SUB(0x1A),Write,ACK
1.377955520,4342,~(0x7E),NUL(0x00),Write,ACK
1.378209110,4344,~(0x7E),NAK(0x15),Write,ACK
1.378301700,4344,~(0x7E),NUL(0x00),Write,ACK
1.378545390,4346,~(0x7E),SYN(0x16),Write,ACK
1.378637960,4346,~(0x7E),(198)(0xC6),Write,ACK
1.378886590,4348,~(0x7E),ETB(0x17),Write,ACK
1.378979160,4348,~(0x7E),a(0x61),Write,ACK
1.379222390,4350,~(0x7E),CAN(0x18),Write,ACK
1.379315050,4350,~(0x7E),NUL(0x00),Write,ACK
1.379558370,4352,~(0x7E),EM (0x19),Write,ACK
1.379650950,4352,~(0x7E),(198)(0xC6),Write,ACK
1.379884060,4354,DEL(0x7F),SO (0x0E),Read,NAK
1.379966350,4354,DEL(0x7F),CAN(0x18),Read,ACK
1.380250590,4356,~(0x7E),ESC(0x1B),Write,ACK
1.380343160,4356,~(0x7E),NUL(0x00),Write,ACK
1.380584090,4358,~(0x7E),SO (0x0E),Write,ACK
1.380676650,4358,~(0x7E),c(0x63),Write,ACK
1.380920680,4360,DEL(0x7F),SO (0x0E),Read,NAK
1.381013260,4360,DEL(0x7F),0(0x30),Read,NAK
1.381259470,4362,DEL(0x7F),SI (0x0F),Read,ACK
1.381352050,4362,DEL(0x7F),NUL(0x00),Read,ACK
1.381608150,4364,~(0x7E),BEL(0x07),Write,NAK
1.381680160,4364,~(0x7E),(128)(0x80),Write,ACK
1.381946600,4366,~(0x7E),(SP)(0x20),Write,ACK
1.382039170,4366,~(0x7E),NUL(0x00),Write,ACK
1.395906150,4368,~(0x7E),!(0x21),Write,ACK
1.395998730,4368,~(0x7E),NUL(0x00),Write,ACK
1.396263240,4370,~(0x7E),"(0x22),Write,ACK
1.396355830,4370,~(0x7E),NUL(0x00),Write,ACK
1.396603590,4372,~(0x7E),#(0x23),Write,ACK
1.396696160,4372,~(0x7E),NUL(0x00),Write,ACK
1.396942090,4374,~(0x7E),DC2(0x12),Write,ACK
1.397024390,4374,~(0x7E),NUL(0x00),Write,ACK
1.397280400,4376,~(0x7E),SOH(0x01),Write,ACK
1.397372990,4376,~(0x7E),NUL(0x00),Write,ACK
1.397619280,4378,~(0x7E),STX(0x02),Write,ACK
1.397711860,4378,~(0x7E),NUL(0x00),Write,ACK
1.397958250,4380,~(0x7E),ETX(0x03),Write,ACK
1.398050850,4380,~(0x7E),NUL(0x00),Write,ACK
1.398305200,4382,~(0x7E),%(0x25),Write,ACK
1.398397780,4382,~(0x7E),NUL(0x00),Write,ACK
1.399786510,4384,~(0x7E),#(0x23),Write,ACK
1.399868790,4384,~(0x7E),NUL(0x00),Write,NAK
1.400125250,4386,~(0x7E),'(0x27),Write,ACK
1.400217800,4386,~(0x7E),SOH(0x01),Write,ACK
1.400463250,4388,~(0x7E),((0x28),Write,ACK
1.400555820,4388,~(0x7E),SOH(0x01),Write,ACK
1.400802830,4390,~(0x7E),)(0x29),Write,ACK
1.400895410,4390,~(0x7E),SOH(0x01),Write,ACK
1.401140860,4392,~(0x7E),*(0x2A),Write,ACK
1.401233450,4392,~(0x7E),SOH(0x01),Write,ACK
1.401487410,4394,~(0x7E),NAK(0x15),Write,NAK
1.401569720,4394,~(0x7E),NUL(0x00),Write,NAK
1.401834040,4396,~(0x7E),,(0x2C),Write,ACK
1.401926580,4396,~(0x7E),SOH(0x01),Write,ACK
1.402172160,4398,~(0x7E),-(0x2D),Write,ACK
1.402264750,4398,~(0x7E),SOH(0x01),Write,ACK
1.402509870,4400,~(0x7E),.(0x2E),Write,ACK
1.402602450,4400,~(0x7E),NUL(0x00),Write,NAK
1.402848720,4402,~(0x7E),/(0x2F),Write,ACK
1.402941390,4402,~(0x7E),SOH(0x01),Write,ACK
1.403186470,4404,~(0x7E),CAN(0x18),Write,ACK
1.403268760,4404,~(0x7E),NUL(0x00),Write,NAK
1.403524220,4406,~(0x7E),1(0x31),Write,ACK
1.403616800,4406,~(0x7E),SOH(0x01),Write,ACK
1.403867880,4408,~(0x7E),2(0x32),Write,ACK
1.403960460,4408,~(0x7E),SOH(0x01),Write,ACK
1.404203260,4410,DEL(0x7F),EM (0x19),Read,NAK
1.404295860,4410,DEL(0x7F),NUL(0x00),Read,NAK
1.404565310,4412,~(0x7E),4(0x34),Write,ACK
1.404657890,4412,~(0x7E),SOH(0x01),Write,ACK
1.404893210,4414,DEL(0x7F),SUB(0x1A),Read,NAK
1.404985790,4414,DEL(0x7F),NUL(0x00),Read,NAK
1.405242080,4416,~(0x7E),ESC(0x1B),Write,ACK
1.405324350,4416,~(0x7E),NUL(0x00),Write,NAK
1.405569900,4418,DEL(0x7F),ESC(0x1B),Read,NAK
1.405662480,4418,DEL(0x7F),NUL(0x00),Read,NAK
1.405917480,4420,~(0x7E),8(0x38),Write,ACK
1.406010050,4420,~(0x7E),SOH(0x01),Write,ACK
1.406301990,4422,~(0x7E),9(0x39),Write,ACK
1.406394570,4422,~(0x7E),SOH(0x01),Write,ACK
1.406640590,4424,~(0x7E),:(0x3A),Write,ACK
1.406733170,4424,~(0x7E),SOH(0x01),Write,ACK
1.406978860,4426,~(0x7E),;(0x3B),Write,ACK
1.407071440,4426,~(0x7E),SOH(0x01),Write,ACK
1.407317600,4428,~(0x7E),<(0x3C),Write,ACK
1.407410180,4428,~(0x7E),SOH(0x01),Write,ACK
1.407655570,4430,~(0x7E),>(0x3E),Write,NAK
1.407737860,4430,~(0x7E),NUL(0x00),Write,NAK
1.408673040,4432,~(0x7E),>(0x3E),Write,ACK
1.408765610,4432,~(0x7E),SOH(0x01),Write,ACK
1.409012020,4434,~(0x7E),?(0x3F),Write,NAK
1.409094310,4434,~(0x7E),NUL(0x00),Write,NAK
1.409349510,4436,~(0x7E),@(0x40),Write,ACK
1.409442100,4436,~(0x7E),NUL(0x00),Write,NAK
1.409685750,4438,~(0x7E),A(0x41),Write,ACK
1.409778320,4438,~(0x7E),SOH(0x01),Write,ACK
1.410021660,4440,~(0x7E),B(0x42),Write,ACK
1.410114240,4440,~(0x7E),SOH(0x01),Write,ACK
1.410357830,4442,~(0x7E),C(0x43),Write,ACK
1.410450410,4442,~(0x7E),SOH(0x01),Write,ACK
1.410698460,4444,?(0x3F),"(0x22),Read,ACK
1.410791040,4444,?(0x3F),NUL(0x00),Read,NAK
1.411069480,4446,~(0x7E),E(0x45),Write,NAK
1.411151790,4446,~(0x7E),NUL(0x00),Write,NAK
1.411413330,4448,~(0x7E),F(0x46),Write,ACK
1.411505910,4448,~(0x7E),SOH(0x01),Write,ACK
1.411738790,4450,DEL(0x7F),!(0x21),Read,NAK
1.411821080,4450,DEL(0x7F),(128)(0x80),Read,ACK
1.412084300,4452,~(0x7E),H(0x48),Write,ACK
1.412176880,4452,~(0x7E),SOH(0x01),Write,ACK
1.412420880,4456,~(0x7E),I(0x49),Write,NAK
1.412503180,4456,~(0x7E),NUL(0x00),Write,NAK
1.412756550,4458,~(0x7E),%(0x25),Write,ACK
1.412849130,4458,~(0x7E),NUL(0x00),Write,ACK
1.413300780,4460,~(0x7E),ACK(0x06),Write,ACK
1.413383080,4460,~(0x7E),NUL(0x00),Write,ACK
1.413627740,4462,DEL(0x7F),STX(0x02),Read,NAK
1.413720410,4462,DEL(0x7F),NUL(0x00),Read,ACK
1.413974290,4464,~(0x7E),ACK(0x06),Write,ACK
1.414066870,4464,~(0x7E),NUL(0x00),Write,ACK
1.428207380,4466,~(0x7E),BEL(0x07),Write,ACK
1.428299960,4466,~(0x7E),NUL(0x00),Write,ACK
1.428561240,4468,~(0x7E),BS (0x08),Write,ACK
1.428653820,4468,~(0x7E),NUL(0x00),Write,ACK
1.428897770,4470,~(0x7E),HT (0x09),Write,ACK
1.428980060,4470,~(0x7E),NUL(0x00),Write,ACK
1.429236030,4472,~(0x7E),LF (0x0A),Write,ACK
1.429328610,4472,~(0x7E),NUL(0x00),Write,ACK
1.429569140,4474,~(0x7E),VT (0x0B),Write,ACK
1.429661730,4474,~(0x7E),NUL(0x00),Write,ACK
1.429912720,4476,~(0x7E),ACK(0x06),Write,ACK
1.429995020,4476,~(0x7E),NUL(0x00),Write,ACK
1.430240080,4478,DEL(0x7F),ETX(0x03),Read,ACK
1.430322390,4478,DEL(0x7F),(128)(0x80),Read,ACK
1.430586060,4480,~(0x7E),SO (0x0E),Write,ACK
1.430678640,4480,~(0x7E),NUL(0x00),Write,ACK
1.430921680,4482,~(0x7E),SI (0x0F),Write,ACK
1.431014260,4482,~(0x7E),NUL(0x00),Write,ACK
1.431247490,4484,?(0x3F),BS (0x08),Read,ACK
1.431340060,4484,?(0x3F),NUL(0x00),Read,ACK
1.431595000,4486,~(0x7E),BS (0x08),Write,NAK
1.431677310,4486,~(0x7E),NUL(0x00),Write,ACK
1.431931400,4488,~(0x7E),DC2(0x12),Write,ACK
1.432023980,4488,~(0x7E),NUL(0x00),Write,ACK
1.432274540,4490,~(0x7E),DC3(0x13),Write,ACK
1.432367190,4490,~(0x7E),NUL(0x00),Write,ACK
1.432600340,4492,~(0x7E),LF (0x0A),Write,ACK
1.432692910,4492,~(0x7E),NUL(0x00),Write,ACK
1.432946570,4494,~(0x7E),NAK(0x15),Write,ACK
1.433039150,4494,~(0x7E),NUL(0x00),Write,ACK
1.433286290,4496,~(0x7E),SYN(0x16),Write,ACK
1.433378880,4496,~(0x7E),NUL(0x00),Write,ACK
1.433614390,4498,DEL(0x7F),VT (0x0B),Read,NAK
1.433706970,4498,DEL(0x7F),NUL(0x00),Read,ACK
1.433962810,4500,~(0x7E),CAN(0x18),Write,ACK
1.434055470,4500,~(0x7E),NUL(0x00),Write,ACK
1.434316000,4502,~(0x7E),EM (0x19),Write,ACK
1.434408580,4502,~(0x7E),(198)(0xC6),Write,ACK
1.434675450,4504,~(0x7E),SUB(0x1A),Write,ACK
1.434768030,4504,~(0x7E),a(0x61),Write,ACK
1.435011550,4506,DEL(0x7F),CR (0x0D),Read,NAK
1.435104130,4506,DEL(0x7F),NUL(0x00),Read,ACK
1.435359850,4508,~(0x7E),FS (0x1C),Write,ACK
1.435452420,4508,~(0x7E),(198)(0xC6),Write,ACK
1.435688380,4510,DEL(0x7F),SO (0x0E),Read,NAK
1.435780960,4510,DEL(0x7F),0(0x30),Read,NAK
1.436036860,4512,~(0x7E),RS (0x1E),Write,ACK
1.436129430,4512,~(0x7E),NUL(0x00),Write,ACK
1.436374810,4514,~(0x7E),US (0x1F),Write,ACK
1.436467390,4514,~(0x7E),(198)(0xC6),Write,ACK
1.436703620,4516,DEL(0x7F),BS (0x08),Read,ACK
1.436785910,4516,DEL(0x7F),CAN(0x18),Read,ACK
1.437055530,4518,~(0x7E),!(0x21),Write,ACK
1.437148100,4518,~(0x7E),NUL(0x00),Write,ACK
1.437408720,4520,~(0x7E),"(0x22),Write,ACK
1.437501320,4520,~(0x7E),NUL(0x00),Write,ACK
1.437755300,4522,~(0x7E),DLE(0x10),Write,NAK
1.437827360,4522,~(0x7E),(128)(0x80),Write,ACK
1.438083320,4524,DEL(0x7F),DC2(0x12),Read,ACK
1.438175900,4524,DEL(0x7F),NUL(0x00),Read,ACK
1.438432180,4526,~(0x7E),NUL(0x00),Write,NAK
1.438514510,4526,~(0x7E),NUL(0x00),Write,ACK
1.438771060,4528,~(0x7E),STX(0x02),Write,ACK
1.438863640,4528,~(0x7E),NUL(0x00),Write,ACK
1.439109220,4530,~(0x7E),ETX(0x03),Write,ACK
1.439201800,4530,~(0x7E),NUL(0x00),Write,ACK
1.439447200,4532,~(0x7E),%(0x25),Write,ACK
1.439539790,4532,~(0x7E),NUL(0x00),Write,ACK
1.459892620,4534,~(0x7E),&(0x26),Write,ACK
1.459985290,4534,~(0x7E),SOH(0x01),Write,ACK
1.460242300,4536,DEL(0x7F),DC3(0x13),Read,NAK
1.460334870,4536,DEL(0x7F),NUL(0x00),Read,NAK
1.460498780,,DEL(0x7F),,Read,NAK
1.460570780,4538,DEL(0x7F),LF (0x0A),Read,ACK
1.460663370,4538,DEL(0x7F),NUL(0x00),Read,ACK
1.460929940,4540,~(0x7E),)(0x29),Write,ACK
1.461022520,4540,~(0x7E),SOH(0x01),Write,ACK
1.461268070,4542,~(0x7E),*(0x2A),Write,ACK
1.461360650,4542,~(0x7E),SOH(0x01),Write,ACK
1.461606810,4544,~(0x7E),+(0x2B),Write,ACK
1.461699480,4544,~(0x7E),SOH(0x01),Write,ACK
1.461944120,4546,~(0x7E),,(0x2C),Write,ACK
1.462036690,4546,~(0x7E),SOH(0x01),Write,ACK
1.462283960,4548,~(0x7E),-(0x2D),Write,ACK
1.462376520,4548,~(0x7E),SOH(0x01),Write,ACK
1.462611710,4550,?(0x3F),ETB(0x17),Read,ACK
1.462704360,4550,?(0x3F),NUL(0x00),Read,NAK
1.462940660,4552,~(0x7E),VT (0x0B),Write,NAK
1.463033220,4552,~(0x7E),(128)(0x80),Write,ACK
1.463289100,4554,DEL(0x7F),CAN(0x18),Read,ACK
1.463381680,4554,DEL(0x7F),NUL(0x00),Read,NAK
1.463637920,4556,~(0x7E),1(0x31),Write,ACK
1.463730500,4556,~(0x7E),NUL(0x00),Write,NAK
1.463976850,4558,~(0x7E),2(0x32),Write,ACK
1.464069440,4558,~(0x7E),SOH(0x01),Write,ACK
1.464301200,4560,DEL(0x7F),EM (0x19),Read,NAK
1.464383480,4560,DEL(0x7F),(192)(0xC0),Read,ACK
1.464649330,4562,~(0x7E),:(0x3A),Write,ACK
1.464731620,4562,~(0x7E),NUL(0x00),Write,NAK
1.464978130,4564,DEL(0x7F),SUB(0x1A),Read,NAK
1.465070710,4564,DEL(0x7F),NUL(0x00),Read,NAK
1.465326330,4566,~(0x7E),6(0x36),Write,ACK
1.465418900,4566,~(0x7E),SOH(0x01),Write,ACK
1.465664110,4568,~(0x7E),7(0x37),Write,ACK
1.465756690,4568,~(0x7E),SOH(0x01),Write,ACK
1.466002380,4570,~(0x7E),8(0x38),Write,ACK
1.466094960,4570,~(0x7E),NUL(0x00),Write,NAK
1.466340140,4572,~(0x7E),9(0x39),Write,ACK
1.466432730,4572,~(0x7E),NUL(0x00),Write,NAK
1.466673500,4574,~(0x7E),:(0x3A),Write,ACK
1.466766080,4574,~(0x7E),SOH(0x01),Write,ACK
1.467012000,4576,~(0x7E),;(0x3B),Write,ACK
1.467104600,4576,~(0x7E),NUL(0x00),Write,NAK
1.467350040,4578,~(0x7E),<(0x3C),Write,ACK
1.467442620,4578,~(0x7E),NUL(0x00),Write,NAK
1.467677610,4580,?(0x3F),RS (0x1E),Read,NAK
1.467770180,4580,?(0x3F),NUL(0x00),Read,NAK
1.468031330,4582,~(0x7E),>(0x3E),Write,ACK
1.468123930,4582,~(0x7E),SOH(0x01),Write,ACK
1.468369320,4584,~(0x7E),?(0x3F),Write,ACK
1.468461900,4584,~(0x7E),SOH(0x01),Write,ACK
1.468708010,4586,~(0x7E),@(0x40),Write,ACK
1.468800600,4586,~(0x7E),NUL(0x00),Write,NAK
1.469121930,4588,~(0x7E),A(0x41),Write,ACK
1.469214510,4588,~(0x7E),SOH(0x01),Write,ACK
1.469461420,4590,~(0x7E),A(0x41),Write,ACK
1.469543720,4590,~(0x7E),NUL(0x00),Write,NAK
1.469799430,4592,~(0x7E),C(0x43),Write,ACK
1.469891990,4592,~(0x7E),NUL(0x00),Write,NAK
1.470137570,4594,~(0x7E),D(0x44),Write,ACK
1.470230160,4594,~(0x7E),SOH(0x01),Write,ACK
1.470476090,4596,~(0x7E),E(0x45),Write,ACK
1.470568670,4596,~(0x7E),SOH(0x01),Write,ACK
1.470814200,4598,~(0x7E),F(0x46),Write,ACK
1.470906780,4598,~(0x7E),SOH(0x01),Write,ACK
1.471159830,4600,~(0x7E),G(0x47),Write,ACK
1.471252420,4600,~(0x7E),SOH(0x01),Write,ACK
1.471493500,4602,~(0x7E),H(0x48),Write,ACK
1.471586090,4602,~(0x7E),SOH(0x01),Write,ACK
1.471821430,4604,DEL(0x7F),$(0x24),Read,NAK
1.471913980,4604,DEL(0x7F),NUL(0x00),Read,NAK
1.472169810,4606,~(0x7E),%(0x25),Write,ACK
1.472262390,4606,~(0x7E),NUL(0x00),Write,ACK
1.472757810,4608,~(0x7E),EOT(0x04),Write,ACK
1.472840100,4608,~(0x7E),NUL(0x00),Write,ACK
1.473097280,4610,~(0x7E),ENQ(0x05),Write,ACK
1.473189860,4610,~(0x7E),NUL(0x00),Write,ACK
1.473433790,4612,~(0x7E),ACK(0x06),Write,ACK
1.473526370,4612,~(0x7E),NUL(0x00),Write,ACK
1.473770280,4614,~(0x7E),BEL(0x07),Write,ACK
1.473862870,4614,~(0x7E),NUL(0x00),Write,ACK
1.474106060,4616,~(0x7E),BS (0x08),Write,ACK
1.474198630,4616,~(0x7E),NUL(0x00),Write,ACK
1.474431670,4618,DEL(0x7F),ACK(0x06),Read,ACK
1.474513960,4618,DEL(0x7F),(128)(0x80),Read,ACK
1.474776930,4620,~(0x7E),LF (0x0A),Write,ACK
1.474869520,4620,~(0x7E),NUL(0x00),Write,ACK
1.475121350,4622,~(0x7E),VT (0x0B),Write,ACK
1.475213930,4622,~(0x7E),NUL(0x00),Write,ACK
1.475457330,4624,~(0x7E),FF (0x0C),Write,ACK
1.475549910,4624,~(0x7E),NUL(0x00),Write,ACK
1.475782670,4626,DEL(0x7F),ACK(0x06),Read,NAK
1.475875250,4626,DEL(0x7F),NUL(0x00),Read,ACK
1.476128560,4628,~(0x7E),SO (0x0E),Write,ACK
1.476221150,4628,~(0x7E),NUL(0x00),Write,ACK
1.476454230,4630,DEL(0x7F),BEL(0x07),Read,NAK
1.476546810,4630,DEL(0x7F),NUL(0x00),Read,ACK
1.476790000,4632,~(0x7E),BS (0x08),Write,ACK
1.476882580,4632,~(0x7E),NUL(0x00),Write,ACK
1.477135500,4634,~(0x7E),DC1(0x11),Write,ACK
1.477228080,4634,~(0x7E),NUL(0x00),Write,ACK
1.477492310,4636,DEL(0x7F),HT (0x09),Read,ACK
1.477584900,4636,DEL(0x7F),NUL(0x00),Read,ACK
1.477839410,4638,~(0x7E),DC3(0x13),Write,ACK
1.477931990,4638,~(0x7E),NUL(0x00),Write,ACK
1.491891430,4640,~(0x7E),LF (0x0A),Write,ACK
1.491973720,4640,~(0x7E),NUL(0x00),Write,ACK
1.492264080,4642,~(0x7E),NAK(0x15),Write,ACK
1.492356650,4642,~(0x7E),NUL(0x00),Write,ACK
1.492604540,4644,~(0x7E),SYN(0x16),Write,ACK
1.492697120,4644,~(0x7E),NUL(0x00),Write,ACK
1.492933070,4646,DEL(0x7F),VT (0x0B),Read,NAK
1.493025740,4646,DEL(0x7F),NUL(0x00),Read,ACK
1.493279610,4648,~(0x7E),CAN(0x18),Write,ACK
1.493372200,4648,~(0x7E),NUL(0x00),Write,ACK
1.493606070,4650,DEL(0x7F),FF (0x0C),Read,NAK
1.493698740,4650,DEL(0x7F),NUL(0x00),Read,ACK
1.493953650,4652,~(0x7E),SUB(0x1A),Write,ACK
1.494046210,4652,~(0x7E),NUL(0x00),Write,ACK
1.494298060,4654,~(0x7E),ESC(0x1B),Write,ACK
1.494390640,4654,~(0x7E),NUL(0x00),Write,ACK
1.494634390,4656,~(0x7E),FS (0x1C),Write,ACK
1.494726980,4656,~(0x7E),(198)(0xC6),Write,ACK
1.494970340,4658,~(0x7E),GS (0x1D),Write,ACK
1.495062920,4658,~(0x7E),a(0x61),Write,NAK
1.495306460,4660,~(0x7E),RS (0x1E),Write,ACK
1.495399040,4660,~(0x7E),NUL(0x00),Write,ACK
1.495643940,4662,~(0x7E),US (0x1F),Write,ACK
1.495736510,4662,~(0x7E),(198)(0xC6),Write,ACK
1.495980020,4664,~(0x7E),(SP)(0x20),Write,ACK
1.496072600,4664,~(0x7E),a(0x61),Write,ACK
1.496305980,4666,DEL(0x7F),DLE(0x10),Read,NAK
1.496398560,4666,DEL(0x7F),NUL(0x00),Read,ACK
1.496650000,4668,~(0x7E),!(0x21),Write,ACK
1.496732290,4668,~(0x7E),c(0x63),Write,ACK
1.496893160,,DEL(0x7F),,Read,NAK
1.496965170,4670,DEL(0x7F),BS (0x08),Read,NAK
1.497057750,4670,DEL(0x7F),(152)(0x98),Read,ACK
1.497324580,4672,~(0x7E),$(0x24),Write,ACK
1.497417160,4672,~(0x7E),NUL(0x00),Write,ACK
1.497662780,4674,~(0x7E),NUL(0x00),Write,NAK
1.497745080,4674,~(0x7E),NUL(0x00),Write,ACK
1.497990570,4676,DEL(0x7F),SOH(0x01),Read,ACK
1.498083150,4676,DEL(0x7F),NUL(0x00),Read,ACK
1.498338720,4678,~(0x7E),SOH(0x01),Write,NAK
1.498421030,4678,~(0x7E),NUL(0x00),Write,ACK
1.498673480,4680,~(0x7E),%(0x25),Write,ACK
1.498766060,4680,~(0x7E),NUL(0x00),Write,ACK
1.524048800,4682,~(0x7E),&(0x26),Write,ACK
1.524141370,4682,~(0x7E),SOH(0x01),Write,ACK
1.524410610,4684,~(0x7E),'(0x27),Write,ACK
1.524503190,4684,~(0x7E),NUL(0x00),Write,NAK
1.524749720,4686,~(0x7E),((0x28),Write,ACK
1.524832030,4686,~(0x7E),NUL(0x00),Write,NAK
1.525099710,4688,~(0x7E),)(0x29),Write,ACK
1.525192290,4688,~(0x7E),SOH(0x01),Write,ACK
1.525515000,4690,~(0x7E),*(0x2A),Write,ACK
1.525607590,4690,~(0x7E),SOH(0x01),Write,ACK
1.525853720,4692,~(0x7E),+(0x2B),Write,ACK
1.525946300,4692,~(0x7E),NUL(0x00),Write,NAK
1.526255400,4694,~(0x7E),,(0x2C),Write,ACK
1.526347980,4694,~(0x7E),SOH(0x01),Write,ACK
1.526583220,4696,DEL(0x7F),SYN(0x16),Read,NAK
1.526675800,4696,DEL(0x7F),NUL(0x00),Read,NAK
1.526931910,4698,~(0x7E),.(0x2E),Write,ACK
1.527024500,4698,~(0x7E),SOH(0x01),Write,ACK
1.527282880,4700,~(0x7E),/(0x2F),Write,ACK
1.527375460,4700,~(0x7E),SOH(0x01),Write,ACK
1.527617930,4702,~(0x7E),0(0x30),Write,ACK
1.527700220,4702,~(0x7E),NUL(0x00),Write,NAK
1.527864020,,DEL(0x7F),,Read,NAK
1.527936040,4704,DEL(0x7F),FF (0x0C),Read,ACK
1.528028610,4704,DEL(0x7F),(128)(0x80),Read,ACK
1.528295350,4706,~(0x7E),2(0x32),Write,ACK
1.528387930,4706,~(0x7E),SOH(0x01),Write,ACK
1.528622750,4708,DEL(0x7F),EM (0x19),Read,NAK
1.528715340,4708,DEL(0x7F),NUL(0x00),Read,NAK
1.528972010,4710,~(0x7E),4(0x34),Write,ACK
1.529064580,4710,~(0x7E),SOH(0x01),Write,ACK
1.529310250,4712,~(0x7E),5(0x35),Write,ACK
1.529402840,4712,~(0x7E),SOH(0x01),Write,ACK
1.529643560,4714,~(0x7E),6(0x36),Write,ACK
1.529736150,4714,~(0x7E),SOH(0x01),Write,ACK
1.529988810,4716,~(0x7E),7(0x37),Write,ACK
1.530081400,4716,~(0x7E),SOH(0x01),Write,ACK
1.530327000,4718,~(0x7E),8(0x38),Write,ACK
1.530419600,4718,~(0x7E),NUL(0x00),Write,NAK
1.530664780,4720,~(0x7E),9(0x39),Write,ACK
1.530757350,4720,~(0x7E),NUL(0x00),Write,NAK
1.530992820,4722,~(0x7E),SO (0x0E),Write,NAK
1.531075130,4722,~(0x7E),NUL(0x00),Write,ACK
1.531340870,4724,~(0x7E),;(0x3B),Write,ACK
1.531433470,4724,~(0x7E),SOH(0x01),Write,ACK
1.531678600,4726,~(0x7E),<(0x3C),Write,ACK
1.531771300,4726,~(0x7E),SOH(0x01),Write,ACK
1.532018120,4728,~(0x7E),=(0x3D),Write,ACK
1.532110790,4728,~(0x7E),SOH(0x01),Write,ACK
1.532352370,4730,~(0x7E),>(0x3E),Write,ACK
1.532445050,4730,~(0x7E),SOH(0x01),Write,ACK
1.532690520,4732,~(0x7E),?(0x3F),Write,ACK
1.532783090,4732,~(0x7E),NUL(0x00),Write,NAK
1.533102250,4734,~(0x7E),@(0x40),Write,ACK
1.533184550,4734,~(0x7E),NUL(0x00),Write,NAK
1.533440460,4736,~(0x7E),A(0x41),Write,ACK
1.533533040,4736,~(0x7E),SOH(0x01),Write,ACK
1.533778540,4738,~(0x7E),B(0x42),Write,ACK
1.533871110,4738,~(0x7E),SOH(0x01),Write,ACK
1.534116910,4740,~(0x7E),C(0x43),Write,ACK
1.534209490,4740,~(0x7E),SOH(0x01),Write,ACK
1.534457540,4742,~(0x7E),D(0x44),Write,ACK
1.534550110,4742,~(0x7E),SOH(0x01),Write,ACK
1.534795380,4744,~(0x7E),E(0x45),Write,ACK
1.534887970,4744,~(0x7E),SOH(0x01),Write,ACK
1.535129820,4746,~(0x7E),F(0x46),Write,ACK
1.535222410,4746,~(0x7E),SOH(0x01),Write,ACK
1.535457460,4748,DEL(0x7F),#(0x23),Read,NAK
1.535539770,4748,DEL(0x7F),(128)(0x80),Read,ACK
1.535806220,4750,~(0x7E),H(0x48),Write,ACK
1.535898800,4750,~(0x7E),SOH(0x01),Write,ACK
1.536144070,4752,~(0x7E),I(0x49),Write,ACK
1.536236650,4752,~(0x7E),SOH(0x01),Write,ACK
1.536482330,4754,~(0x7E),%(0x25),Write,ACK
1.536574910,4754,~(0x7E),NUL(0x00),Write,ACK
1.537097960,4756,~(0x7E),EOT(0x04),Write,ACK
1.537190540,4756,~(0x7E),NUL(0x00),Write,ACK
1.537435850,4758,~(0x7E),ENQ(0x05),Write,ACK
1.537528420,4758,~(0x7E),NUL(0x00),Write,ACK
1.537771830,4760,~(0x7E),ACK(0x06),Write,ACK
1.537864410,4760,~(0x7E),NUL(0x00),Write,ACK
1.538107860,4762,~(0x7E),ETX(0x03),Write,NAK
1.538190140,4762,~(0x7E),NUL(0x00),Write,ACK
1.538444310,4764,~(0x7E),BS (0x08),Write,ACK
1.538536890,4764,~(0x7E),NUL(0x00),Write,ACK
1.538780590,4766,~(0x7E),HT (0x09),Write,ACK
1.538873140,4766,~(0x7E),NUL(0x00),Write,ACK
1.539129940,4768,~(0x7E),LF (0x0A),Write,ACK
1.539222600,4768,~(0x7E),NUL(0x00),Write,ACK
1.539463710,4770,~(0x7E),VT (0x0B),Write,ACK
1.539556300,4770,~(0x7E),NUL(0x00),Write,ACK
1.539799310,4772,~(0x7E),FF (0x0C),Write,ACK
1.539891980,4772,~(0x7E),NUL(0x00),Write,ACK
1.540135240,4774,~(0x7E),CR (0x0D),Write,ACK
1.540227850,4774,~(0x7E),NUL(0x00),Write,ACK
1.540471400,4776,~(0x7E),SO (0x0E),Write,ACK
1.540563960,4776,~(0x7E),NUL(0x00),Write,ACK
1.540796810,4778,DEL(0x7F),BEL(0x07),Read,NAK
1.540879190,4778,DEL(0x7F),(128)(0x80),Read,ACK
1.541143930,4780,~(0x7E),DLE(0x10),Write,ACK
1.541236510,4780,~(0x7E),NUL(0x00),Write,ACK
1.541506520,4782,~(0x7E),DC1(0x11),Write,ACK
1.541599100,4782,~(0x7E),NUL(0x00),Write,ACK
1.541832690,4784,DEL(0x7F),HT (0x09),Read,ACK
1.541925330,4784,DEL(0x7F),NUL(0x00),Read,ACK
1.556060590,4786,~(0x7E),DC3(0x13),Write,ACK
1.556153170,4786,~(0x7E),NUL(0x00),Write,ACK
1.556432250,4788,~(0x7E),DC4(0x14),Write,ACK
1.556524830,4788,~(0x7E),NUL(0x00),Write,ACK
1.556679520,,DEL(0x7F),,Read,NAK
1.556751540,4790,DEL(0x7F),ENQ(0x05),Read,ACK
1.556844110,4790,DEL(0x7F),(128)(0x80),Read,ACK
1.557120670,4792,~(0x7E),SYN(0x16),Write,ACK
1.557213250,4792,~(0x7E),NUL(0x00),Write,ACK
1.557526930,4794,~(0x7E),ETB(0x17),Write,ACK
1.557619510,4794,~(0x7E),NUL(0x00),Write,ACK
1.557855040,4796,DEL(0x7F),FF (0x0C),Read,ACK
1.557947620,4796,DEL(0x7F),NUL(0x00),Read,ACK
1.558257730,4798,~(0x7E),EM (0x19),Write,ACK
1.558350310,4798,~(0x7E),NUL(0x00),Write,ACK
1.558585470,4800,?(0x3F),CR (0x0D),Read,ACK
1.558678040,4800,?(0x3F),NUL(0x00),Read,ACK
1.558934210,4802,~(0x7E),GS (0x1D),Write,NAK
1.559016580,4802,~(0x7E),NUL(0x00),Write,ACK
1.559271990,4804,DEL(0x7F),SO (0x0E),Read,ACK
1.559364660,4804,DEL(0x7F),c(0x63),Read,ACK
1.559618910,4806,~(0x7E),GS (0x1D),Write,ACK
1.559711490,4806,~(0x7E),a(0x61),Write,ACK
1.559947530,4808,DEL(0x7F),SI (0x0F),Read,ACK
1.560040110,4808,DEL(0x7F),NUL(0x00),Read,ACK
1.560295880,4810,~(0x7E),US (0x1F),Write,ACK
1.560388530,4810,~(0x7E),(198)(0xC6),Write,ACK
1.560634320,4812,~(0x7E),DLE(0x10),Write,ACK
1.560716610,4812,~(0x7E),0(0x30),Write,NAK
1.560978400,4814,~(0x7E),!(0x21),Write,ACK
1.561060690,4814,~(0x7E),NUL(0x00),Write,ACK
1.561306020,4816,DEL(0x7F),DC1(0x11),Read,ACK
1.561398600,4816,DEL(0x7F),a(0x61),Read,NAK
1.561644190,4818,DEL(0x7F),DC1(0x11),Read,NAK
1.561736770,4818,DEL(0x7F),0(0x30),Read,NAK
1.561988090,4820,~(0x7E),$(0x24),Write,ACK
1.562080690,4820,~(0x7E),NUL(0x00),Write,ACK
1.562315750,4822,DEL(0x7F),NUL(0x00),Read,NAK
1.562408420,4822,DEL(0x7F),NUL(0x00),Read,ACK
1.562664640,4824,~(0x7E),STX(0x02),Write,ACK
1.562757230,4824,~(0x7E),NUL(0x00),Write,ACK
1.563003340,4826,~(0x7E),ETX(0x03),Write,ACK
1.563095920,4826,~(0x7E),NUL(0x00),Write,ACK
1.563331010,4828,DEL(0x7F),DC2(0x12),Read,NAK
1.563423590,4828,DEL(0x7F),NUL(0x00),Read,ACK
1.588374600,4830,~(0x7E),&(0x26),Write,ACK
1.588467170,4830,~(0x7E),SOH(0x01),Write,ACK
1.588733870,4832,~(0x7E),'(0x27),Write,ACK
1.588826440,4832,~(0x7E),SOH(0x01),Write,ACK
1.589095150,4834,~(0x7E),DC4(0x14),Write,ACK
1.589177450,4834,~(0x7E),NUL(0x00),Write,NAK
1.589434340,4836,~(0x7E),)(0x29),Write,ACK
1.589526930,4836,~(0x7E),SOH(0x01),Write,ACK
1.589773150,4838,~(0x7E),*(0x2A),Write,ACK
1.589865720,4838,~(0x7E),SOH(0x01),Write,ACK
1.590111160,4840,~(0x7E),+(0x2B),Write,ACK
1.590203750,4840,~(0x7E),SOH(0x01),Write,ACK
1.590439050,4842,DEL(0x7F),SYN(0x16),Read,ACK
1.590531630,4842,DEL(0x7F),NUL(0x00),Read,NAK
1.590787450,4844,~(0x7E),-(0x2D),Write,ACK
1.590880030,4844,~(0x7E),NUL(0x00),Write,NAK
1.591133330,4846,~(0x7E),.(0x2E),Write,ACK
1.591225910,4846,~(0x7E),NUL(0x00),Write,NAK
1.591471920,4848,~(0x7E),/(0x2F),Write,ACK
1.591564500,4848,~(0x7E),NUL(0x00),Write,NAK
1.591810810,4850,~(0x7E),0(0x30),Write,ACK
1.591903370,4850,~(0x7E),NUL(0x00),Write,NAK
1.592149180,4852,~(0x7E),1(0x31),Write,ACK
1.592241840,4852,~(0x7E),SOH(0x01),Write,ACK
1.592477490,4854,DEL(0x7F),EM (0x19),Read,ACK
1.592570070,4854,DEL(0x7F),NUL(0x00),Read,NAK
1.592826410,4856,~(0x7E),3(0x33),Write,NAK
1.592908700,4856,~(0x7E),NUL(0x00),Write,NAK
1.593161780,4858,~(0x7E),4(0x34),Write,ACK
1.593254370,4858,~(0x7E),SOH(0x01),Write,ACK
1.593500380,4860,~(0x7E),5(0x35),Write,ACK
1.593592960,4860,~(0x7E),SOH(0x01),Write,ACK
1.593838580,4862,~(0x7E),6(0x36),Write,ACK
1.593931160,4862,~(0x7E),SOH(0x01),Write,ACK
1.594177000,4864,~(0x7E),7(0x37),Write,ACK
1.594269590,4864,~(0x7E),SOH(0x01),Write,ACK
1.594515070,4866,~(0x7E),8(0x38),Write,ACK
1.594607650,4866,~(0x7E),SOH(0x01),Write,ACK
1.594852830,4868,~(0x7E),9(0x39),Write,ACK
1.594945410,4868,~(0x7E),NUL(0x00),Write,NAK
1.595191060,4870,~(0x7E),:(0x3A),Write,ACK
1.595283640,4870,~(0x7E),NUL(0x00),Write,NAK
1.595525630,4872,~(0x7E),;(0x3B),Write,ACK
1.595618210,4872,~(0x7E),SOH(0x01),Write,ACK
1.595863800,4874,~(0x7E),<(0x3C),Write,ACK
1.595956380,4874,~(0x7E),SOH(0x01),Write,ACK
1.596201950,4876,~(0x7E),=(0x3D),Write,ACK
1.596294530,4876,~(0x7E),SOH(0x01),Write,ACK
1.596529480,4878,DEL(0x7F),US (0x1F),Read,ACK
1.596622070,4878,DEL(0x7F),NUL(0x00),Read,ACK
1.596868110,4880,~(0x7E),US (0x1F),Write,NAK
1.596960690,4880,~(0x7E),NUL(0x00),Write,NAK
1.597217020,4882,~(0x7E),@(0x40),Write,ACK
1.597309600,4882,~(0x7E),SOH(0x01),Write,ACK
1.597554880,4884,~(0x7E),@(0x40),Write,NAK
1.597637180,4884,~(0x7E),NUL(0x00),Write,NAK
1.597889310,4886,~(0x7E),B(0x42),Write,ACK
1.597981890,4886,~(0x7E),SOH(0x01),Write,ACK
1.598227490,4888,~(0x7E),C(0x43),Write,ACK
1.598320080,4888,~(0x7E),SOH(0x01),Write,ACK
1.598566270,4890,~(0x7E),D(0x44),Write,ACK
1.598658880,4890,~(0x7E),NUL(0x00),Write,NAK
1.598905080,4892,~(0x7E),E(0x45),Write,ACK
1.598997670,4892,~(0x7E),SOH(0x01),Write,ACK
1.599243150,4894,~(0x7E),F(0x46),Write,ACK
1.599335730,4894,~(0x7E),SOH(0x01),Write,ACK
1.599581040,4896,~(0x7E),G(0x47),Write,ACK
1.599673620,4896,~(0x7E),SOH(0x01),Write,ACK
1.599919080,4898,~(0x7E),H(0x48),Write,ACK
1.600011660,4898,~(0x7E),SOH(0x01),Write,ACK
1.600253800,4900,~(0x7E),I(0x49),Write,ACK
1.600346450,4900,~(0x7E),SOH(0x01),Write,ACK
1.600591820,4902,~(0x7E),%(0x25),Write,ACK
1.600684500,4902,~(0x7E),NUL(0x00),Write,ACK
1.601252010,4904,~(0x7E),EOT(0x04),Write,ACK
1.601344590,4904,~(0x7E),NUL(0x00),Write,ACK
1.601579520,4906,~(0x7E),STX(0x02),Write,NAK
1.601672070,4906,~(0x7E),NUL(0x00),Write,ACK
1.601925930,4908,~(0x7E),ACK(0x06),Write,ACK
1.602018490,4908,~(0x7E),NUL(0x00),Write,ACK
1.602251630,4910,DEL(0x7F),ETX(0x03),Read,NAK
1.602344210,4910,DEL(0x7F),NUL(0x00),Read,ACK
1.602587750,4912,DEL(0x7F),EOT(0x04),Read,ACK
1.602670090,4912,DEL(0x7F),NUL(0x00),Read,ACK
1.602933770,4914,~(0x7E),HT (0x09),Write,ACK
1.603026350,4914,~(0x7E),NUL(0x00),Write,ACK
1.603272520,4916,~(0x7E),LF (0x0A),Write,ACK
1.603365190,4916,~(0x7E),NUL(0x00),Write,ACK
1.603606300,4918,~(0x7E),VT (0x0B),Write,ACK
1.603698870,4918,~(0x7E),NUL(0x00),Write,ACK
1.603942080,4920,~(0x7E),FF (0x0C),Write,ACK
1.604034660,4920,~(0x7E),NUL(0x00),Write,ACK
1.604278100,4922,~(0x7E),CR (0x0D),Write,ACK
1.604370680,4922,~(0x7E),NUL(0x00),Write,ACK
1.604614120,4924,~(0x7E),SO (0x0E),Write,ACK
1.604706710,4924,~(0x7E),NUL(0x00),Write,ACK
1.604949830,4926,~(0x7E),BEL(0x07),Write,NAK
1.605032150,4926,~(0x7E),NUL(0x00),Write,ACK
1.605286130,4928,~(0x7E),DLE(0x10),Write,ACK
1.605378720,4928,~(0x7E),NUL(0x00),Write,ACK
1.605622620,4930,~(0x7E),DLE(0x10),Write,NAK
1.605704930,4930,~(0x7E),NUL(0x00),Write,ACK
1.605961090,4932,~(0x7E),DC2(0x12),Write,ACK
1.606053670,4932,~(0x7E),NUL(0x00),Write,ACK
1.620027350,4934,~(0x7E),DC3(0x13),Write,ACK
1.620119930,4934,~(0x7E),NUL(0x00),Write,ACK
1.620381230,4936,~(0x7E),DC4(0x14),Write,ACK
1.620473810,4936,~(0x7E),NUL(0x00),Write,ACK
1.620717550,4938,~(0x7E),NAK(0x15),Write,ACK
1.620810120,4938,~(0x7E),NUL(0x00),Write,ACK
1.621170540,4940,~(0x7E),SYN(0x16),Write,ACK
1.621263120,4940,~(0x7E),NUL(0x00),Write,ACK
1.621540860,4942,~(0x7E),VT (0x0B),Write,NAK
1.621623150,4942,~(0x7E),NUL(0x00),Write,ACK
1.621879320,4944,~(0x7E),CAN(0x18),Write,ACK
1.621971880,4944,~(0x7E),NUL(0x00),Write,ACK
1.622270630,4946,~(0x7E),EM (0x19),Write,ACK
1.622363210,4946,~(0x7E),NUL(0x00),Write,ACK
1.622608770,4948,~(0x7E),SUB(0x1A),Write,ACK
1.622701440,4948,~(0x7E),NUL(0x00),Write,ACK
1.622946920,4950,~(0x7E),ESC(0x1B),Write,ACK
1.623039500,4950,~(0x7E),NUL(0x00),Write,ACK
1.623284560,4952,~(0x7E),FS (0x1C),Write,ACK
1.623366960,4952,~(0x7E),NUL(0x00),Write,ACK
1.623635770,4954,~(0x7E),GS (0x1D),Write,NAK
1.623718150,4954,~(0x7E),NUL(0x00),Write,ACK
1.623970610,4956,~(0x7E),US (0x1F),Write,ACK
1.624052920,4956,~(0x7E),NUL(0x00),Write,ACK
1.624308330,4958,~(0x7E),US (0x1F),Write,ACK
1.624400920,4958,~(0x7E),(198)(0xC6),Write,ACK
1.624646880,4960,~(0x7E),(SP)(0x20),Write,ACK
1.624739460,4960,~(0x7E),a(0x61),Write,ACK
1.624985400,4962,~(0x7E),!(0x21),Write,ACK
1.625077990,4962,~(0x7E),NUL(0x00),Write,ACK
1.625313410,4964,DEL(0x7F),BS (0x08),Read,NAK
1.625395700,4964,DEL(0x7F),1(0x31),Read,NAK
1.625662130,4966,~(0x7E),#(0x23),Write,ACK
1.625754720,4966,~(0x7E),`(0x60),Write,NAK
1.626003320,4968,~(0x7E),$(0x24),Write,ACK
1.626095890,4968,~(0x7E),NUL(0x00),Write,ACK
1.626326820,4970,DEL(0x7F),NUL(0x00),Read,NAK
1.626419400,4970,DEL(0x7F),c(0x63),Read,ACK
1.626675880,4972,~(0x7E),STX(0x02),Write,ACK
1.626768460,4972,~(0x7E),a(0x61),Write,ACK
1.627003700,4974,DEL(0x7F),SOH(0x01),Read,NAK
1.627086000,4974,DEL(0x7F),(128)(0x80),Read,ACK
1.627342170,4976,DEL(0x7F),DC2(0x12),Read,NAK
1.627434740,4976,DEL(0x7F),NUL(0x00),Read,ACK
1.650494340,4978,~(0x7E),&(0x26),Write,ACK
1.650586920,4978,~(0x7E),SOH(0x01),Write,ACK
1.652095620,4980,~(0x7E),'(0x27),Write,ACK
1.652188190,4980,~(0x7E),SOH(0x01),Write,ACK
1.652446370,4982,~(0x7E),((0x28),Write,ACK
1.652539070,4982,~(0x7E),SOH(0x01),Write,ACK
1.652785330,4984,~(0x7E),)(0x29),Write,ACK
1.652877900,4984,~(0x7E),SOH(0x01),Write,ACK
1.653123610,4986,DEL(0x7F),NAK(0x15),Read,ACK
1.653216200,4986,DEL(0x7F),NUL(0x00),Read,NAK
1.653539340,4988,~(0x7E),+(0x2B),Write,ACK
1.653631990,4988,~(0x7E),SOH(0x01),Write,ACK
1.653875580,4990,~(0x7E),,(0x2C),Write,ACK
1.653968160,4990,~(0x7E),SOH(0x01),Write,ACK
1.654264250,4992,~(0x7E),-(0x2D),Write,ACK
1.654356830,4992,~(0x7E),SOH(0x01),Write,ACK
1.654601220,4994,~(0x7E),.(0x2E),Write,ACK
1.654693810,4994,~(0x7E),SOH(0x01),Write,ACK
1.654937420,4996,~(0x7E),/(0x2F),Write,NAK
1.655019710,4996,~(0x7E),NUL(0x00),Write,NAK
1.655274410,4998,~(0x7E),0(0x30),Write,ACK
1.655366990,4998,~(0x7E),SOH(0x01),Write,ACK
1.655618450,5000,~(0x7E),1(0x31),Write,ACK
1.655711020,5000,~(0x7E),SOH(0x01),Write,ACK
1.655944550,5002,DEL(0x7F),EM (0x19),Read,ACK
1.656037140,5002,DEL(0x7F),NUL(0x00),Read,NAK
1.656290820,5004,~(0x7E),3(0x33),Write,NAK
1.656373110,5004,~(0x7E),NUL(0x00),Write,NAK
1.656626560,5006,~(0x7E),4(0x34),Write,ACK
1.656719150,5006,~(0x7E),SOH(0x01),Write,ACK
1.656962290,5008,~(0x7E),5(0x35),Write,ACK
1.657054870,5008,~(0x7E),SOH(0x01),Write,ACK
1.657300670,5010,~(0x7E),6(0x36),Write,ACK
1.657393250,5010,~(0x7E),SOH(0x01),Write,ACK
1.657642700,5012,~(0x7E),3(0x33),Write,NAK
1.657725000,5012,~(0x7E),NUL(0x00),Write,NAK
1.657978660,5014,~(0x7E),8(0x38),Write,ACK
1.658071250,5014,~(0x7E),SOH(0x01),Write,ACK
1.658317010,5016,~(0x7E),9(0x39),Write,ACK
1.658409670,5016,~(0x7E),SOH(0x01),Write,ACK
1.658655230,5018,~(0x7E),:(0x3A),Write,ACK
1.658747810,5018,~(0x7E),NUL(0x00),Write,NAK
1.658993770,5020,~(0x7E),;(0x3B),Write,NAK
1.659076060,5020,~(0x7E),NUL(0x00),Write,NAK
1.659332160,5022,~(0x7E),<(0x3C),Write,ACK
1.659424840,5022,~(0x7E),SOH(0x01),Write,ACK
1.659670380,5024,~(0x7E),=(0x3D),Write,ACK
1.659763140,5024,~(0x7E),SOH(0x01),Write,ACK
1.660008220,5026,~(0x7E),>(0x3E),Write,ACK
1.660100800,5026,~(0x7E),SOH(0x01),Write,ACK
1.660342430,5028,~(0x7E),?(0x3F),Write,ACK
1.660435010,5028,~(0x7E),SOH(0x01),Write,ACK
1.660680790,5030,~(0x7E),@(0x40),Write,ACK
1.660773350,5030,~(0x7E),SOH(0x01),Write,ACK
1.661009480,5032,DEL(0x7F),(SP)(0x20),Read,NAK
1.661102060,5032,DEL(0x7F),NUL(0x00),Read,NAK
1.661358310,5034,~(0x7E),B(0x42),Write,ACK
1.661450980,5034,~(0x7E),SOH(0x01),Write,ACK
1.661696560,5036,~(0x7E),C(0x43),Write,ACK
1.661789150,5036,~(0x7E),SOH(0x01),Write,ACK
1.662035360,5038,~(0x7E),D(0x44),Write,ACK
1.662117660,5038,~(0x7E),NUL(0x00),Write,NAK
1.662280610,,DEL(0x7F),,Read,NAK
1.662352700,5040,DEL(0x7F),DC1(0x11),Read,ACK
1.662445270,5040,DEL(0x7F),(128)(0x80),Read,ACK
1.662711690,5042,~(0x7E),F(0x46),Write,ACK
1.662804280,5042,~(0x7E),SOH(0x01),Write,NAK
1.663049520,5044,~(0x7E),G(0x47),Write,ACK
1.663142100,5044,~(0x7E),SOH(0x01),Write,ACK
1.663392390,5046,~(0x7E),H(0x48),Write,ACK
1.663484970,5046,~(0x7E),SOH(0x01),Write,ACK
1.663730490,5048,~(0x7E),I(0x49),Write,ACK
1.663823070,5048,~(0x7E),SOH(0x01),Write,ACK
1.664068190,5050,~(0x7E),%(0x25),Write,ACK
1.664160770,5050,~(0x7E),NUL(0x00),Write,ACK
1.664650870,5052,~(0x7E),EOT(0x04),Write,ACK
1.664743460,5052,~(0x7E),NUL(0x00),Write,ACK
1.664987230,5054,~(0x7E),ENQ(0x05),Write,ACK
1.665079810,5054,~(0x7E),NUL(0x00),Write,ACK
1.665313780,5056,DEL(0x7F),ETX(0x03),Read,ACK
1.665406370,5056,DEL(0x7F),NUL(0x00),Read,ACK
1.665686960,5058,~(0x7E),ETX(0x03),Write,NAK
1.665769260,5058,~(0x7E),NUL(0x00),Write,ACK
1.666022680,5060,~(0x7E),BS (0x08),Write,ACK
1.666115260,5060,~(0x7E),NUL(0x00),Write,ACK
1.666372100,5062,~(0x7E),HT (0x09),Write,ACK
1.666464690,5062,~(0x7E),NUL(0x00),Write,ACK
1.666705150,5064,~(0x7E),LF (0x0A),Write,ACK
1.666797730,5064,~(0x7E),NUL(0x00),Write,ACK
1.667040840,5066,~(0x7E),VT (0x0B),Write,ACK
1.667133420,5066,~(0x7E),NUL(0x00),Write,ACK
1.667377020,5068,~(0x7E),FF (0x0C),Write,ACK
1.667469600,5068,~(0x7E),NUL(0x00),Write,ACK
1.667713010,5070,~(0x7E),SO (0x0E),Write,NAK
1.667795310,5070,~(0x7E),NUL(0x00),Write,ACK
1.668048240,5072,~(0x7E),SO (0x0E),Write,ACK
1.668140820,5072,~(0x7E),NUL(0x00),Write,ACK
1.668291650,,DEL(0x7F),,Read,NAK
1.668363650,5074,DEL(0x7F),ETX(0x03),Read,NAK
1.668456230,5074,DEL(0x7F),(128)(0x80),Read,ACK
1.668719740,5076,~(0x7E),DLE(0x10),Write,ACK
1.668812320,5076,~(0x7E),NUL(0x00),Write,ACK
1.669092530,5078,~(0x7E),DC1(0x11),Write,NAK
1.669174840,5078,~(0x7E),NUL(0x00),Write,ACK
1.669419120,5080,DEL(0x7F),FF (0x0C),Read,NAK
1.669501420,5080,DEL(0x7F),NUL(0x00),Read,ACK
1.669766250,5082,~(0x7E),DC3(0x13),Write,ACK
1.669858830,5082,~(0x7E),NUL(0x00),Write,ACK
1.670102180,5084,~(0x7E),DC4(0x14),Write,ACK
1.670184470,5084,~(0x7E),NUL(0x00),Write,ACK
1.684730880,5086,DEL(0x7F),LF (0x0A),Read,NAK
1.684823470,5086,DEL(0x7F),NUL(0x00),Read,ACK
1.685181330,5088,~(0x7E),SYN(0x16),Write,ACK
1.685273920,5088,~(0x7E),NUL(0x00),Write,ACK
1.685534770,5090,DEL(0x7F),VT (0x0B),Read,NAK
1.685627350,5090,DEL(0x7F),NUL(0x00),Read,ACK
1.685883110,5092,~(0x7E),CAN(0x18),Write,ACK
1.685975690,5092,~(0x7E),NUL(0x00),Write,ACK
1.686274270,5094,~(0x7E),EM (0x19),Write,ACK
1.686366850,5094,~(0x7E),NUL(0x00),Write,ACK
1.686602350,5096,DEL(0x7F),CR (0x0D),Read,ACK
1.686694930,5096,DEL(0x7F),NUL(0x00),Read,ACK
1.686950540,5098,~(0x7E),ESC(0x1B),Write,ACK
1.687043120,5098,~(0x7E),NUL(0x00),Write,ACK
1.687286580,5100,~(0x7E),FS (0x1C),Write,ACK
1.687379160,5100,~(0x7E),NUL(0x00),Write,ACK
1.687631190,5102,~(0x7E),GS (0x1D),Write,ACK
1.687723770,5102,~(0x7E),NUL(0x00),Write,ACK
1.687969670,5104,~(0x7E),RS (0x1E),Write,ACK
1.688062250,5104,~(0x7E),NUL(0x00),Write,ACK
1.688307940,5106,~(0x7E),US (0x1F),Write,ACK
1.688400510,5106,~(0x7E),(198)(0xC6),Write,ACK
1.688636070,5108,?(0x3F),BS (0x08),Read,ACK
1.688718350,5108,?(0x3F),CAN(0x18),Read,ACK
1.688984770,5110,~(0x7E),(SP)(0x20),Write,NAK
1.689067070,5110,~(0x7E),NUL(0x00),Write,ACK
1.689322810,5112,~(0x7E),"(0x22),Write,ACK
1.689415390,5112,~(0x7E),(198)(0xC6),Write,ACK
1.689660820,5114,~(0x7E),#(0x23),Write,NAK
1.689743120,5114,~(0x7E),0(0x30),Write,NAK
1.690003690,5116,~(0x7E),$(0x24),Write,ACK
1.690096260,5116,~(0x7E),NUL(0x00),Write,ACK
1.690341390,5118,~(0x7E),SOH(0x01),Write,ACK
1.690433970,5118,~(0x7E),(198)(0xC6),Write,ACK
1.690679710,5120,~(0x7E),STX(0x02),Write,ACK
1.690772290,5120,~(0x7E),a(0x61),Write,ACK
1.691017650,5122,~(0x7E),SOH(0x01),Write,NAK
1.691099950,5122,~(0x7E),NUL(0x00),Write,ACK
1.691355340,5124,~(0x7E),%(0x25),Write,ACK
1.691447920,5124,~(0x7E),NUL(0x00),Write,ACK
1.714604910,5126,~(0x7E),&(0x26),Write,ACK
1.714697500,5126,~(0x7E),SOH(0x01),Write,ACK
1.716167930,5128,?(0x3F),DC3(0x13),Read,NAK
1.716260520,5128,?(0x3F),NUL(0x00),Read,NAK
1.716530920,5130,~(0x7E),((0x28),Write,ACK
1.716623500,5130,~(0x7E),SOH(0x01),Write,ACK
1.716871010,5132,~(0x7E),)(0x29),Write,ACK
1.716963590,5132,~(0x7E),SOH(0x01),Write,ACK
1.717208730,5134,~(0x7E),LF (0x0A),Write,NAK
1.717291030,5134,~(0x7E),NUL(0x00),Write,ACK
1.717559060,5136,~(0x7E),+(0x2B),Write,ACK
1.717651630,5136,~(0x7E),SOH(0x01),Write,ACK
1.717902540,5138,~(0x7E),,(0x2C),Write,ACK
1.717995120,5138,~(0x7E),SOH(0x01),Write,ACK
1.718286300,5140,~(0x7E),-(0x2D),Write,ACK
1.718378870,5140,~(0x7E),SOH(0x01),Write,ACK
1.718624490,5142,~(0x7E),.(0x2E),Write,ACK
1.718717070,5142,~(0x7E),SOH(0x01),Write,ACK
1.718961810,5144,~(0x7E),/(0x2F),Write,NAK
1.719044100,5144,~(0x7E),NUL(0x00),Write,NAK
1.719299850,5146,~(0x7E),CAN(0x18),Write,ACK
1.719382150,5146,~(0x7E),NUL(0x00),Write,NAK
1.719638070,5148,~(0x7E),1(0x31),Write,ACK
1.719730650,5148,~(0x7E),NUL(0x00),Write,NAK
1.719977590,5150,~(0x7E),2(0x32),Write,ACK
1.720070170,5150,~(0x7E),SOH(0x01),Write,ACK
1.720315650,5152,~(0x7E),3(0x33),Write,ACK
1.720408230,5152,~(0x7E),SOH(0x01),Write,ACK
1.720653850,5154,~(0x7E),4(0x34),Write,ACK
1.720746540,5154,~(0x7E),NUL(0x00),Write,NAK
1.720993280,5156,~(0x7E),5(0x35),Write,ACK
1.721085840,5156,~(0x7E),SOH(0x01),Write,ACK
1.721327360,5158,~(0x7E),6(0x36),Write,ACK
1.721419980,5158,~(0x7E),SOH(0x01),Write,ACK
1.721665580,5160,~(0x7E),7(0x37),Write,ACK
1.721758250,5160,~(0x7E),SOH(0x01),Write,ACK
1.721993200,5162,~(0x7E),FS (0x1C),Write,ACK
1.722075500,5162,~(0x7E),NUL(0x00),Write,ACK
1.722341650,5164,~(0x7E),FS (0x1C),Write,NAK
1.722424030,5164,~(0x7E),NUL(0x00),Write,NAK
1.722669420,5166,DEL(0x7F),GS (0x1D),Read,ACK
1.722762000,5166,DEL(0x7F),NUL(0x00),Read,NAK
1.723017380,5168,~(0x7E),;(0x3B),Write,ACK
1.723109960,5168,~(0x7E),SOH(0x01),Write,ACK
1.723355710,5170,~(0x7E),<(0x3C),Write,ACK
1.723448290,5170,~(0x7E),SOH(0x01),Write,ACK
1.723689940,5172,~(0x7E),=(0x3D),Write,ACK
1.723782520,5172,~(0x7E),SOH(0x01),Write,ACK
1.724017360,5174,DEL(0x7F),US (0x1F),Read,ACK
1.724109930,5174,DEL(0x7F),NUL(0x00),Read,NAK
1.724365230,5176,~(0x7E),?(0x3F),Write,NAK
1.724447520,5176,~(0x7E),NUL(0x00),Write,ACK
1.724720040,5178,~(0x7E),@(0x40),Write,ACK
1.724802330,5178,~(0x7E),NUL(0x00),Write,NAK
1.725121760,5180,?(0x3F),0(0x30),Read,ACK
1.725204060,5180,?(0x3F),(128)(0x80),Read,ACK
1.725470260,5182,~(0x7E),B(0x42),Write,ACK
1.725562840,5182,~(0x7E),SOH(0x01),Write,ACK
1.725797910,5184,DEL(0x7F),!(0x21),Read,NAK
1.725890490,5184,DEL(0x7F),NUL(0x00),Read,NAK
1.726145900,5186,~(0x7E),D(0x44),Write,ACK
1.726238480,5186,~(0x7E),SOH(0x01),Write,ACK
1.726476280,5188,DEL(0x7F),"(0x22),Read,NAK
1.726568860,5188,DEL(0x7F),NUL(0x00),Read,NAK
1.726825070,5190,~(0x7E),F(0x46),Write,ACK
1.726917660,5190,~(0x7E),NUL(0x00),Write,NAK
1.727163220,5192,~(0x7E),G(0x47),Write,ACK
1.727255800,5192,~(0x7E),SOH(0x01),Write,ACK
1.727501670,5194,~(0x7E),H(0x48),Write,ACK
1.727594250,5194,~(0x7E),SOH(0x01),Write,ACK
1.727839470,5196,~(0x7E),I(0x49),Write,ACK
1.727932040,5196,~(0x7E),NUL(0x00),Write,NAK
1.728177590,5198,~(0x7E),%(0x25),Write,ACK
1.728270180,5198,~(0x7E),NUL(0x00),Write,ACK
1.728767000,5200,~(0x7E),EOT(0x04),Write,ACK
1.728859570,5200,~(0x7E),(198)(0xC6),Write,ACK
1.729133750,5202,~(0x7E),ENQ(0x05),Write,ACK
1.729226340,5202,~(0x7E),a(0x61),Write,ACK
1.729460650,5204,?(0x3F),SOH(0x01),Read,NAK
1.729542940,5204,?(0x3F),NUL(0x00),Read,ACK
1.729815370,5206,~(0x7E),BEL(0x07),Write,ACK
1.729907940,5206,~(0x7E),NUL(0x00),Write,ACK
1.730140970,5208,~(0x7E),EOT(0x04),Write,ACK
1.730233530,5208,~(0x7E),NUL(0x00),Write,ACK
1.730477680,5210,DEL(0x7F),EOT(0x04),Read,NAK
1.730570250,5210,DEL(0x7F),NUL(0x00),Read,ACK
1.730833600,5212,~(0x7E),LF (0x0A),Write,ACK
1.730926170,5212,~(0x7E),NUL(0x00),Write,ACK
1.731166750,5214,~(0x7E),VT (0x0B),Write,ACK
1.731259320,5214,~(0x7E),NUL(0x00),Write,ACK
1.731502490,5216,~(0x7E),FF (0x0C),Write,ACK
1.731595080,5216,~(0x7E),NUL(0x00),Write,ACK
1.731837970,5218,~(0x7E),CR (0x0D),Write,ACK
1.731930540,5218,~(0x7E),NUL(0x00),Write,ACK
1.732173570,5220,~(0x7E),BEL(0x07),Write,ACK
1.732255870,5220,~(0x7E),NUL(0x00),Write,ACK
1.732509420,5222,~(0x7E),SI (0x0F),Write,ACK
1.732601990,5222,~(0x7E),NUL(0x00),Write,ACK
1.732845370,5224,~(0x7E),DLE(0x10),Write,ACK
1.732937950,5224,~(0x7E),NUL(0x00),Write,ACK
1.733190810,5226,~(0x7E),DC1(0x11),Write,ACK
1.733283470,5226,~(0x7E),NUL(0x00),Write,ACK
1.733531030,5228,~(0x7E),DC2(0x12),Write,ACK
1.733623610,5228,~(0x7E),NUL(0x00),Write,ACK
1.733867950,5230,~(0x7E),DC3(0x13),Write,ACK
1.733960520,5230,~(0x7E),NUL(0x00),Write,ACK
1.748163250,5232,~(0x7E),DC4(0x14),Write,ACK
1.748255840,5232,~(0x7E),NUL(0x00),Write,ACK
1.748530700,5234,~(0x7E),NAK(0x15),Write,ACK
1.748623280,5234,~(0x7E),NUL(0x00),Write,ACK
1.748869160,5236,~(0x7E),SYN(0x16),Write,ACK
1.748961750,5236,~(0x7E),NUL(0x00),Write,ACK
1.749231780,5238,~(0x7E),ETB(0x17),Write,ACK
1.749324360,5238,~(0x7E),NUL(0x00),Write,ACK
1.749568370,5240,~(0x7E),CAN(0x18),Write,ACK
1.749660950,5240,~(0x7E),NUL(0x00),Write,ACK
1.749906670,5242,~(0x7E),EM (0x19),Write,ACK
1.749999250,5242,~(0x7E),NUL(0x00),Write,ACK
1.750283960,5244,~(0x7E),SUB(0x1A),Write,ACK
1.750376550,5244,~(0x7E),NUL(0x00),Write,ACK
1.750622480,5246,~(0x7E),ESC(0x1B),Write,ACK
1.750715050,5246,~(0x7E),NUL(0x00),Write,ACK
1.750960350,5248,~(0x7E),FS (0x1C),Write,ACK
1.751052940,5248,~(0x7E),NUL(0x00),Write,ACK
1.751298590,5250,~(0x7E),GS (0x1D),Write,ACK
1.751391170,5250,~(0x7E),NUL(0x00),Write,ACK
1.751638150,5252,~(0x7E),RS (0x1E),Write,ACK
1.751730820,5252,~(0x7E),NUL(0x00),Write,ACK
1.751976600,5256,~(0x7E),US (0x1F),Write,ACK
1.752069190,5256,~(0x7E),NUL(0x00),Write,ACK
1.752320030,5258,~(0x7E),(SP)(0x20),Write,ACK
1.752412700,5258,~(0x7E),NUL(0x00),Write,ACK
1.752658880,5260,~(0x7E),DLE(0x10),Write,NAK
1.752741180,5260,~(0x7E),NUL(0x00),Write,ACK
1.752997300,5262,~(0x7E),!(0x21),Write,ACK
1.753079600,5262,~(0x7E),c(0x63),Write,ACK
1.753332110,5264,~(0x7E),#(0x23),Write,ACK
1.753424770,5264,~(0x7E),a(0x61),Write,ACK
1.753670930,5266,~(0x7E),$(0x24),Write,ACK
1.753763500,5266,~(0x7E),NUL(0x00),Write,ACK
1.754009010,5268,~(0x7E),SOH(0x01),Write,ACK
1.754101590,5268,~(0x7E),(198)(0xC6),Write,ACK
1.754346600,5270,~(0x7E),STX(0x02),Write,ACK
1.754439180,5270,~(0x7E),a(0x61),Write,ACK
1.754684770,5272,~(0x7E),ETX(0x03),Write,NAK
1.754767070,5272,~(0x7E),NUL(0x00),Write,ACK
1.755022730,5274,~(0x7E),%(0x25),Write,ACK
1.755115300,5274,~(0x7E),NUL(0x00),Write,ACK
1.778426140,5276,~(0x7E),&(0x26),Write,ACK
1.778518730,5276,~(0x7E),NUL(0x00),Write,NAK
1.779961280,5278,~(0x7E),DC3(0x13),Write,NAK
1.780053860,5278,~(0x7E),NUL(0x00),Write,NAK
1.780312880,5280,DEL(0x7F),DC4(0x14),Read,ACK
1.780405460,5280,DEL(0x7F),NUL(0x00),Read,NAK
1.780661840,5282,~(0x7E),)(0x29),Write,ACK
1.780754430,5282,~(0x7E),NUL(0x00),Write,NAK
1.781001830,5284,~(0x7E),*(0x2A),Write,ACK
1.781094410,5284,~(0x7E),NUL(0x00),Write,NAK
1.781337620,5286,~(0x7E),+(0x2B),Write,ACK
1.781430200,5286,~(0x7E),NUL(0x00),Write,NAK
1.781673390,5288,~(0x7E),,(0x2C),Write,ACK
1.781765970,5288,~(0x7E),SOH(0x01),Write,ACK
1.782011350,5290,~(0x7E),-(0x2D),Write,ACK
1.782103940,5290,~(0x7E),SOH(0x01),Write,ACK
1.782355490,5292,~(0x7E),.(0x2E),Write,ACK
1.782448060,5292,~(0x7E),NUL(0x00),Write,NAK
1.782681260,5294,DEL(0x7F),ETB(0x17),Read,NAK
1.782773830,5294,DEL(0x7F),NUL(0x00),Read,NAK
1.783017090,5296,DEL(0x7F),CAN(0x18),Read,ACK
1.783109680,5296,DEL(0x7F),NUL(0x00),Read,NAK
1.783362870,5298,~(0x7E),1(0x31),Write,ACK
1.783455450,5298,~(0x7E),SOH(0x01),Write,ACK
1.783698800,5300,~(0x7E),2(0x32),Write,ACK
1.783791470,5300,~(0x7E),SOH(0x01),Write,ACK
1.784034950,5302,~(0x7E),3(0x33),Write,ACK
1.784127530,5302,~(0x7E),SOH(0x01),Write,ACK
1.784281870,,DEL(0x7F),,Read,NAK
1.784353870,5304,DEL(0x7F),CR (0x0D),Read,ACK
1.784446460,5304,DEL(0x7F),NUL(0x00),Read,ACK
1.784707260,5306,~(0x7E),5(0x35),Write,ACK
1.784799840,5306,~(0x7E),SOH(0x01),Write,ACK
1.785033030,5308,DEL(0x7F),ESC(0x1B),Read,ACK
1.785125600,5308,DEL(0x7F),NUL(0x00),Read,NAK
1.785382080,5310,~(0x7E),7(0x37),Write,ACK
1.785474660,5310,~(0x7E),SOH(0x01),Write,ACK
1.785719980,5312,~(0x7E),8(0x38),Write,ACK
1.785812560,5312,~(0x7E),SOH(0x01),Write,ACK
1.786057980,5314,~(0x7E),FS (0x1C),Write,NAK
1.786140270,5314,~(0x7E),NUL(0x00),Write,NAK
1.786394730,5318,~(0x7E),:(0x3A),Write,ACK
1.786487310,5318,~(0x7E),NUL(0x00),Write,ACK
1.786739390,5320,~(0x7E),;(0x3B),Write,ACK
1.786831980,5320,~(0x7E),SOH(0x01),Write,ACK
1.787077220,5322,~(0x7E),<(0x3C),Write,ACK
1.787169800,5322,~(0x7E),SOH(0x01),Write,ACK
1.787415800,5324,~(0x7E),=(0x3D),Write,ACK
1.787508380,5324,~(0x7E),SOH(0x01),Write,ACK
1.787753730,5326,~(0x7E),>(0x3E),Write,ACK
1.787846310,5326,~(0x7E),SOH(0x01),Write,ACK
1.788080970,5328,DEL(0x7F),US (0x1F),Read,NAK
1.788173560,5328,DEL(0x7F),NUL(0x00),Read,NAK
1.788429950,5330,~(0x7E),@(0x40),Write,ACK
1.788522530,5330,~(0x7E),SOH(0x01),Write,ACK
1.788769530,5332,~(0x7E),A(0x41),Write,ACK
1.788862080,5332,~(0x7E),NUL(0x00),Write,NAK
1.789108220,5334,~(0x7E),B(0x42),Write,ACK
1.789200790,5334,~(0x7E),SOH(0x01),Write,ACK
1.789446590,5336,~(0x7E),C(0x43),Write,ACK
1.789539180,5336,~(0x7E),SOH(0x01),Write,ACK
1.789784580,5338,~(0x7E),D(0x44),Write,ACK
1.789877160,5338,~(0x7E),SOH(0x01),Write,ACK
1.790122620,5340,~(0x7E),F(0x46),Write,NAK
1.790204920,5340,~(0x7E),NUL(0x00),Write,NAK
1.790451240,5342,DEL(0x7F),#(0x23),Read,ACK
1.790543820,5342,DEL(0x7F),NUL(0x00),Read,NAK
1.790799800,5344,~(0x7E),#(0x23),Write,NAK
1.790882100,5344,~(0x7E),NUL(0x00),Write,NAK
1.791153290,5346,~(0x7E),H(0x48),Write,ACK
1.791245880,5346,~(0x7E),SOH(0x01),Write,ACK
1.791487530,5348,~(0x7E),I(0x49),Write,ACK
1.791580110,5348,~(0x7E),SOH(0x01),Write,ACK
1.791826050,5350,~(0x7E),%(0x25),Write,ACK
1.791918630,5350,~(0x7E),NUL(0x00),Write,ACK
1.792420630,5352,~(0x7E),EOT(0x04),Write,ACK
1.792513210,5352,~(0x7E),(198)(0xC6),Write,ACK
1.792758410,5354,~(0x7E),ACK(0x06),Write,NAK
1.792840710,5354,~(0x7E),0(0x30),Write,ACK
1.793126500,5356,~(0x7E),ACK(0x06),Write,ACK
1.793219090,5356,~(0x7E),NUL(0x00),Write,ACK
1.793462970,5358,~(0x7E),BEL(0x07),Write,ACK
1.793555550,5358,~(0x7E),NUL(0x00),Write,ACK
1.793799830,5360,~(0x7E),BS (0x08),Write,ACK
1.793892510,5360,~(0x7E),NUL(0x00),Write,ACK
1.794135650,5362,~(0x7E),HT (0x09),Write,ACK
1.794228230,5362,~(0x7E),NUL(0x00),Write,ACK
1.794471350,5364,~(0x7E),LF (0x0A),Write,ACK
1.794563930,5364,~(0x7E),NUL(0x00),Write,ACK
1.794806640,5366,~(0x7E),VT (0x0B),Write,ACK
1.794899220,5366,~(0x7E),NUL(0x00),Write,ACK
1.795150250,5368,~(0x7E),FF (0x0C),Write,ACK
1.795242830,5368,~(0x7E),NUL(0x00),Write,ACK
1.795486280,5370,~(0x7E),CR (0x0D),Write,ACK
1.795578870,5370,~(0x7E),NUL(0x00),Write,ACK
1.795822880,5372,~(0x7E),SO (0x0E),Write,ACK
1.795915460,5372,~(0x7E),NUL(0x00),Write,ACK
1.796148220,5374,DEL(0x7F),ETX(0x03),Read,NAK
1.796230520,5374,DEL(0x7F),(128)(0x80),Read,ACK
1.796493930,5376,~(0x7E),DLE(0x10),Write,ACK
1.796586510,5376,~(0x7E),NUL(0x00),Write,ACK
1.796830040,5378,~(0x7E),DC1(0x11),Write,ACK
1.796922620,5378,~(0x7E),NUL(0x00),Write,ACK
1.797168700,5380,~(0x7E),DC2(0x12),Write,ACK
1.797261290,5380,~(0x7E),NUL(0x00),Write,ACK
1.797543370,5382,~(0x7E),DC3(0x13),Write,ACK
1.797625660,5382,~(0x7E),NUL(0x00),Write,ACK
1.797879720,5384,~(0x7E),DC4(0x14),Write,ACK
1.797972410,5384,~(0x7E),NUL(0x00),Write,ACK
1.812065560,5386,~(0x7E),NAK(0x15),Write,ACK
1.812158130,5386,~(0x7E),NUL(0x00),Write,ACK
1.812424120,5388,~(0x7E),SYN(0x16),Write,ACK
1.812516700,5388,~(0x7E),NUL(0x00),Write,ACK
1.812753440,5390,DEL(0x7F),VT (0x0B),Read,NAK
1.812846020,5390,DEL(0x7F),NUL(0x00),Read,ACK
1.813112310,5392,~(0x7E),CAN(0x18),Write,ACK
1.813204900,5392,~(0x7E),NUL(0x00),Write,ACK
1.813448490,5394,~(0x7E),EM (0x19),Write,ACK
1.813541080,5394,~(0x7E),NUL(0x00),Write,ACK
1.813774550,5396,~(0x7E),CR (0x0D),Write,ACK
1.813867120,5396,~(0x7E),NUL(0x00),Write,ACK
1.814120740,5398,~(0x7E),ESC(0x1B),Write,ACK
1.814213320,5398,~(0x7E),NUL(0x00),Write,ACK
1.814448370,5400,DEL(0x7F),BEL(0x07),Read,ACK
1.814530670,5400,DEL(0x7F),NUL(0x00),Read,ACK
1.814795400,5402,~(0x7E),GS (0x1D),Write,ACK
1.814887990,5402,~(0x7E),NUL(0x00),Write,ACK
1.815120730,5404,?(0x3F),SI (0x0F),Read,ACK
1.815213310,5404,?(0x3F),NUL(0x00),Read,ACK
1.815466750,5406,~(0x7E),US (0x1F),Write,ACK
1.815559330,5406,~(0x7E),NUL(0x00),Write,ACK
1.815803830,5408,~(0x7E),(SP)(0x20),Write,ACK
1.815896410,5408,~(0x7E),NUL(0x00),Write,ACK
1.816139670,5410,~(0x7E),!(0x21),Write,ACK
1.816232260,5410,~(0x7E),NUL(0x00),Write,ACK
1.816478380,5412,~(0x7E),"(0x22),Write,ACK
1.816570960,5412,~(0x7E),(198)(0xC6),Write,ACK
1.816812030,5414,~(0x7E),!(0x21),Write,NAK
1.816894320,5414,~(0x7E),0(0x30),Write,NAK
1.817150790,5416,~(0x7E),$(0x24),Write,ACK
1.817243360,5416,~(0x7E),NUL(0x00),Write,ACK
1.817488720,5418,~(0x7E),SOH(0x01),Write,NAK
1.817571010,5418,~(0x7E),a(0x61),Write,NAK
1.817827350,5420,~(0x7E),STX(0x02),Write,ACK
1.817920020,5420,~(0x7E),a(0x61),Write,ACK
1.818155030,5422,?(0x3F),SOH(0x01),Read,NAK
1.818247680,5422,?(0x3F),NUL(0x00),Read,ACK
1.818492830,5424,DEL(0x7F),DC2(0x12),Read,NAK
1.818585410,5424,DEL(0x7F),NUL(0x00),Read,ACK
1.842492750,5426,~(0x7E),&(0x26),Write,ACK
1.842585310,5426,~(0x7E),SOH(0x01),Write,NAK
1.844032810,5428,DEL(0x7F),DC3(0x13),Read,NAK
1.844125390,5428,DEL(0x7F),NUL(0x00),Read,NAK
1.844394700,5430,~(0x7E),((0x28),Write,ACK
1.844476990,5430,~(0x7E),NUL(0x00),Write,NAK
1.844733310,5432,~(0x7E),)(0x29),Write,ACK
1.844825890,5432,~(0x7E),SOH(0x01),Write,ACK
1.845096350,5434,~(0x7E),NAK(0x15),Write,ACK
1.845188930,5434,~(0x7E),NUL(0x00),Write,NAK
1.845444990,5436,~(0x7E),NAK(0x15),Write,NAK
1.845527280,5436,~(0x7E),NUL(0x00),Write,ACK
1.845783280,5438,~(0x7E),,(0x2C),Write,ACK
1.845875860,5438,~(0x7E),SOH(0x01),Write,ACK
1.846121820,5440,~(0x7E),-(0x2D),Write,NAK
1.846204110,5440,~(0x7E),NUL(0x00),Write,NAK
1.846461080,5442,~(0x7E),.(0x2E),Write,ACK
1.846553660,5442,~(0x7E),SOH(0x01),Write,ACK
1.846806770,5444,~(0x7E),ETB(0x17),Write,NAK
1.846889080,5444,~(0x7E),NUL(0x00),Write,NAK
1.847135020,5446,DEL(0x7F),CAN(0x18),Read,ACK
1.847227610,5446,DEL(0x7F),NUL(0x00),Read,NAK
1.847523510,5448,~(0x7E),1(0x31),Write,ACK
1.847616080,5448,~(0x7E),SOH(0x01),Write,ACK
1.847861580,5450,~(0x7E),2(0x32),Write,ACK
1.847954160,5450,~(0x7E),SOH(0x01),Write,ACK
1.848200210,5452,~(0x7E),3(0x33),Write,ACK
1.848292790,5452,~(0x7E),SOH(0x01),Write,ACK
1.848538690,5454,~(0x7E),4(0x34),Write,ACK
1.848631270,5454,~(0x7E),SOH(0x01),Write,ACK
1.848877010,5456,~(0x7E),5(0x35),Write,ACK
1.848969590,5456,~(0x7E),SOH(0x01),Write,ACK
1.849216260,5458,~(0x7E),6(0x36),Write,ACK
1.849308850,5458,~(0x7E),SOH(0x01),Write,ACK
1.849562810,5460,~(0x7E),7(0x37),Write,ACK
1.849655390,5460,~(0x7E),SOH(0x01),Write,ACK
1.849901200,5462,~(0x7E),8(0x38),Write,ACK
1.849993780,5462,~(0x7E),SOH(0x01),Write,ACK
1.850239580,5464,~(0x7E),<(0x3C),Write,ACK
1.850311580,5464,~(0x7E),(128)(0x80),Write,ACK
1.850577940,5466,~(0x7E),:(0x3A),Write,ACK
1.850670510,5466,~(0x7E),SOH(0x01),Write,ACK
1.850916480,5468,~(0x7E),=(0x3D),Write,NAK
1.850998770,5468,~(0x7E),NUL(0x00),Write,NAK
1.851265370,5470,~(0x7E),<(0x3C),Write,ACK
1.851357950,5470,~(0x7E),SOH(0x01),Write,ACK
1.851599010,5472,~(0x7E),>(0x3E),Write,NAK
1.851681320,5472,~(0x7E),NUL(0x00),Write,NAK
1.851937280,5474,~(0x7E),>(0x3E),Write,ACK
1.852029880,5474,~(0x7E),SOH(0x01),Write,NAK
1.852275450,5476,~(0x7E),?(0x3F),Write,NAK
1.852357740,5476,~(0x7E),NUL(0x00),Write,NAK
1.852608280,5478,~(0x7E),(SP)(0x20),Write,ACK
1.852700850,5478,~(0x7E),NUL(0x00),Write,NAK
1.852957360,5480,~(0x7E),A(0x41),Write,ACK
1.853049940,5480,~(0x7E),SOH(0x01),Write,ACK
1.853295400,5482,~(0x7E),B(0x42),Write,ACK
1.853387980,5482,~(0x7E),SOH(0x01),Write,ACK
1.853633240,5484,~(0x7E),C(0x43),Write,ACK
1.853725830,5484,~(0x7E),SOH(0x01),Write,ACK
1.853956910,5486,DEL(0x7F),DC1(0x11),Read,ACK
1.854039210,5486,DEL(0x7F),NUL(0x00),Read,ACK
1.854369420,5488,~(0x7E),E(0x45),Write,ACK
1.854462000,5488,~(0x7E),SOH(0x01),Write,ACK
1.854697370,5490,DEL(0x7F),#(0x23),Read,ACK
1.854789940,5490,DEL(0x7F),NUL(0x00),Read,NAK
1.855040480,5492,DEL(0x7F),#(0x23),Read,NAK
1.855133060,5492,DEL(0x7F),NUL(0x00),Read,NAK
1.855397500,5494,~(0x7E),H(0x48),Write,ACK
1.855490080,5494,~(0x7E),SOH(0x01),Write,ACK
1.855725160,5496,DEL(0x7F),$(0x24),Read,NAK
1.855817750,5496,DEL(0x7F),NUL(0x00),Read,NAK
1.856073000,5498,~(0x7E),"(0x22),Write,NAK
1.856155290,5498,~(0x7E),NUL(0x00),Write,ACK
1.856656910,5500,~(0x7E),EOT(0x04),Write,ACK
1.856749490,5500,~(0x7E),(195)(0xC3),Write,ACK
1.856901720,,DEL(0x7F),,Read,NAK
1.856973720,5502,DEL(0x7F),SOH(0x01),Read,ACK
1.857066290,5502,DEL(0x7F),(152)(0x98),Read,ACK
1.857320860,5504,~(0x7E),ETX(0x03),Write,ACK
1.857413600,5504,~(0x7E),NUL(0x00),Write,ACK
1.857702240,5506,~(0x7E),ETX(0x03),Write,NAK
1.857784600,5506,~(0x7E),c(0x63),Write,ACK
1.858038290,5508,~(0x7E),BS (0x08),Write,ACK
1.858130870,5508,~(0x7E),a(0x61),Write,ACK
1.858372430,5510,~(0x7E),HT (0x09),Write,ACK
1.858465110,5510,~(0x7E),NUL(0x00),Write,ACK
1.858715580,5512,~(0x7E),LF (0x0A),Write,ACK
1.858808150,5512,~(0x7E),NUL(0x00),Write,ACK
1.859051740,5514,~(0x7E),VT (0x0B),Write,ACK
1.859144320,5514,~(0x7E),NUL(0x00),Write,ACK
1.859387700,5516,~(0x7E),FF (0x0C),Write,ACK
1.859480280,5516,~(0x7E),NUL(0x00),Write,ACK
1.859723660,5518,~(0x7E),CR (0x0D),Write,ACK
1.859816240,5518,~(0x7E),NUL(0x00),Write,ACK
1.860059580,5520,~(0x7E),SI (0x0F),Write,ACK
1.860141880,5520,~(0x7E),NUL(0x00),Write,ACK
1.860395020,5522,~(0x7E),BEL(0x07),Write,NAK
1.860477310,5522,~(0x7E),NUL(0x00),Write,ACK
1.860729990,5524,~(0x7E),BS (0x08),Write,ACK
1.860812290,5524,~(0x7E),NUL(0x00),Write,ACK
1.861090290,5526,~(0x7E),DC1(0x11),Write,ACK
1.861182870,5526,~(0x7E),NUL(0x00),Write,ACK
1.861426540,5528,~(0x7E),DC2(0x12),Write,ACK
1.861519120,5528,~(0x7E),NUL(0x00),Write,ACK
1.861763420,5530,~(0x7E),DC3(0x13),Write,NAK
1.861845720,5530,~(0x7E),NUL(0x00),Write,ACK
1.862089040,5534,DEL(0x7F),LF (0x0A),Read,ACK
1.862181630,5534,DEL(0x7F),NUL(0x00),Read,ACK
1.875971710,5536,~(0x7E),NAK(0x15),Write,ACK
1.876064280,5536,~(0x7E),NUL(0x00),Write,ACK
1.876328240,5538,~(0x7E),SYN(0x16),Write,ACK
1.876420810,5538,~(0x7E),NUL(0x00),Write,ACK
1.876667760,5540,~(0x7E),ETB(0x17),Write,ACK
1.876760340,5540,~(0x7E),NUL(0x00),Write,ACK
1.876997170,5542,DEL(0x7F),FF (0x0C),Read,ACK
1.877089730,5542,DEL(0x7F),NUL(0x00),Read,ACK
1.877345570,5544,~(0x7E),EM (0x19),Write,ACK
1.877438240,5544,~(0x7E),NUL(0x00),Write,ACK
1.877684660,5546,~(0x7E),SUB(0x1A),Write,ACK
1.877777220,5546,~(0x7E),NUL(0x00),Write,ACK
1.878036050,5548,~(0x7E),ESC(0x1B),Write,ACK
1.878128630,5548,~(0x7E),NUL(0x00),Write,ACK
1.878373290,5550,~(0x7E),FS (0x1C),Write,ACK
1.878465870,5550,~(0x7E),NUL(0x00),Write,ACK
1.878701740,5552,DEL(0x7F),SO (0x0E),Read,NAK
1.878794370,5552,DEL(0x7F),NUL(0x00),Read,ACK
1.879050400,5554,~(0x7E),RS (0x1E),Write,ACK
1.879142980,5554,~(0x7E),NUL(0x00),Write,ACK
1.879388360,5556,~(0x7E),US (0x1F),Write,ACK
1.879481030,5556,~(0x7E),NUL(0x00),Write,ACK
1.879727150,5558,~(0x7E),(SP)(0x20),Write,ACK
1.879809450,5558,~(0x7E),NUL(0x00),Write,ACK
1.880065840,5560,~(0x7E),!(0x21),Write,ACK
1.880158430,5560,~(0x7E),NUL(0x00),Write,ACK
1.880404020,5562,~(0x7E),"(0x22),Write,ACK
1.880496620,5562,~(0x7E),NUL(0x00),Write,ACK
1.880738380,5564,~(0x7E),#(0x23),Write,ACK
1.880830970,5564,~(0x7E),NUL(0x00),Write,ACK
1.881156550,5566,~(0x7E),$(0x24),Write,ACK
1.881249140,5566,~(0x7E),NUL(0x00),Write,ACK
1.881493090,5568,~(0x7E),SOH(0x01),Write,NAK
1.881575380,5568,~(0x7E),c(0x63),Write,ACK
1.881829520,5570,~(0x7E),SOH(0x01),Write,ACK
1.881911900,5570,~(0x7E),0(0x30),Write,NAK
1.882165660,5572,~(0x7E),ETX(0x03),Write,ACK
1.882258320,5572,~(0x7E),NUL(0x00),Write,ACK
1.882501950,5574,~(0x7E),%(0x25),Write,NAK
1.882584250,5574,~(0x7E),NUL(0x00),Write,ACK
1.906622970,5576,~(0x7E),&(0x26),Write,ACK
1.906715550,5576,~(0x7E),SOH(0x01),Write,ACK
1.908482660,5578,~(0x7E),'(0x27),Write,ACK
1.908575240,5578,~(0x7E),NUL(0x00),Write,NAK
1.908833340,5580,~(0x7E),((0x28),Write,ACK
1.908925920,5580,~(0x7E),NUL(0x00),Write,NAK
1.909196450,5582,~(0x7E),)(0x29),Write,ACK
1.909289040,5582,~(0x7E),SOH(0x01),Write,ACK
1.909577850,5584,~(0x7E),*(0x2A),Write,ACK
1.909670420,5584,~(0x7E),SOH(0x01),Write,ACK
1.909905780,5586,~(0x7E),NAK(0x15),Write,NAK
1.909998340,5586,~(0x7E),NUL(0x00),Write,ACK
1.910302380,5588,~(0x7E),,(0x2C),Write,ACK
1.910394950,5588,~(0x7E),SOH(0x01),Write,ACK
1.910641130,5590,~(0x7E),-(0x2D),Write,ACK
1.910733720,5590,~(0x7E),SOH(0x01),Write,ACK
1.910978900,5592,~(0x7E),.(0x2E),Write,ACK
1.911071480,5592,~(0x7E),NUL(0x00),Write,NAK
1.911317210,5594,~(0x7E),/(0x2F),Write,ACK
1.911409790,5594,~(0x7E),SOH(0x01),Write,ACK
1.911660410,5596,~(0x7E),8(0x38),Write,ACK
1.911742690,5596,~(0x7E),NUL(0x00),Write,NAK
1.911988610,5598,DEL(0x7F),CAN(0x18),Read,NAK
1.912081200,5598,DEL(0x7F),NUL(0x00),Read,NAK
1.912327070,5600,DEL(0x7F),EM (0x19),Read,ACK
1.912419690,5600,DEL(0x7F),NUL(0x00),Read,NAK
1.912675280,5602,~(0x7E),1(0x31),Write,NAK
1.912757580,5602,~(0x7E),NUL(0x00),Write,NAK
1.913013440,5604,~(0x7E),SUB(0x1A),Write,ACK
1.913095740,5604,~(0x7E),NUL(0x00),Write,NAK
1.913356880,5606,~(0x7E),5(0x35),Write,ACK
1.913449550,5606,~(0x7E),SOH(0x01),Write,ACK
1.913695310,5608,~(0x7E),6(0x36),Write,ACK
1.913787900,5608,~(0x7E),SOH(0x01),Write,ACK
1.914030540,5610,~(0x7E),3(0x33),Write,NAK
1.914112840,5610,~(0x7E),NUL(0x00),Write,NAK
1.914368650,5612,~(0x7E),8(0x38),Write,ACK
1.914461220,5612,~(0x7E),SOH(0x01),Write,ACK
1.914706520,5614,~(0x7E),<(0x3C),Write,NAK
1.914788820,5614,~(0x7E),NUL(0x00),Write,NAK
1.915044170,5616,~(0x7E),9(0x39),Write,ACK
1.915126460,5616,~(0x7E),NUL(0x00),Write,ACK
1.915382260,5618,~(0x7E),;(0x3B),Write,ACK
1.915474830,5618,~(0x7E),NUL(0x00),Write,NAK
1.915719930,5620,~(0x7E),<(0x3C),Write,ACK
1.915812510,5620,~(0x7E),SOH(0x01),Write,ACK
1.916057570,5622,~(0x7E),=(0x3D),Write,ACK
1.916150140,5622,~(0x7E),SOH(0x01),Write,ACK
1.916391560,5624,~(0x7E),>(0x3E),Write,ACK
1.916484150,5624,~(0x7E),SOH(0x01),Write,ACK
1.916754550,5626,~(0x7E),?(0x3F),Write,ACK
1.916847130,5626,~(0x7E),SOH(0x01),Write,NAK
1.917096780,5628,~(0x7E),@(0x40),Write,ACK
1.917189360,5628,~(0x7E),SOH(0x01),Write,ACK
1.917424990,5630,~(0x7E),(SP)(0x20),Write,ACK
1.917507250,5630,~(0x7E),(128)(0x80),Write,ACK
1.917773290,5632,~(0x7E),B(0x42),Write,ACK
1.917865870,5632,~(0x7E),SOH(0x01),Write,ACK
1.918111050,5634,~(0x7E),C(0x43),Write,ACK
1.918203630,5634,~(0x7E),SOH(0x01),Write,ACK
1.918491050,5636,DEL(0x7F),"(0x22),Read,ACK
1.918583640,5636,DEL(0x7F),NUL(0x00),Read,NAK
1.918839590,5638,~(0x7E),E(0x45),Write,ACK
1.918932140,5638,~(0x7E),SOH(0x01),Write,ACK
1.919165160,5640,~(0x7E),#(0x23),Write,ACK
1.919257740,5640,~(0x7E),NUL(0x00),Write,ACK
1.919518170,5642,~(0x7E),G(0x47),Write,ACK
1.919610840,5642,~(0x7E),SOH(0x01),Write,ACK
1.919856380,5644,~(0x7E),H(0x48),Write,ACK
1.919948960,5644,~(0x7E),NUL(0x00),Write,NAK
1.920194500,5646,~(0x7E),I(0x49),Write,ACK
1.920276800,5646,~(0x7E),NUL(0x00),Write,NAK
1.920533070,5648,~(0x7E),%(0x25),Write,ACK
1.920625650,5648,~(0x7E),NUL(0x00),Write,ACK
1.921230120,5650,~(0x7E),EOT(0x04),Write,ACK
1.921322700,5650,~(0x7E),(198)(0xC6),Write,ACK
1.921567560,5652,~(0x7E),ENQ(0x05),Write,ACK
1.921660140,5652,~(0x7E),a(0x61),Write,ACK
1.921903310,5654,~(0x7E),ACK(0x06),Write,ACK
1.921995880,5654,~(0x7E),NUL(0x00),Write,ACK
1.922229440,5656,DEL(0x7F),ETX(0x03),Read,NAK
1.922322010,5656,DEL(0x7F),c(0x63),Read,ACK
1.922575220,5658,~(0x7E),BS (0x08),Write,ACK
1.922667810,5658,~(0x7E),a(0x61),Write,ACK
1.922911260,5660,~(0x7E),HT (0x09),Write,ACK
1.923003860,5660,~(0x7E),NUL(0x00),Write,ACK
1.923248520,5662,~(0x7E),LF (0x0A),Write,ACK
1.923341090,5662,~(0x7E),NUL(0x00),Write,ACK
1.923581750,5664,~(0x7E),VT (0x0B),Write,ACK
1.923674310,5664,~(0x7E),NUL(0x00),Write,ACK
1.923917740,5666,~(0x7E),FF (0x0C),Write,ACK
1.924010320,5666,~(0x7E),NUL(0x00),Write,ACK
1.924253390,5668,~(0x7E),CR (0x0D),Write,ACK
1.924345980,5668,~(0x7E),NUL(0x00),Write,ACK
1.924578350,5670,DEL(0x7F),BEL(0x07),Read,ACK
1.924670940,5670,DEL(0x7F),NUL(0x00),Read,ACK
1.924924580,5672,~(0x7E),SI (0x0F),Write,ACK
1.925017170,5672,~(0x7E),NUL(0x00),Write,ACK
1.925250640,5674,DEL(0x7F),BS (0x08),Read,ACK
1.925343230,5674,DEL(0x7F),NUL(0x00),Read,ACK
1.925598000,5676,~(0x7E),DC1(0x11),Write,ACK
1.925690580,5676,~(0x7E),NUL(0x00),Write,ACK
1.925941400,5678,~(0x7E),DC2(0x12),Write,ACK
1.926033970,5678,~(0x7E),NUL(0x00),Write,ACK
1.939928950,5680,~(0x7E),HT (0x09),Write,NAK
1.940011280,5680,~(0x7E),NUL(0x00),Write,ACK
1.940288620,5682,~(0x7E),DC4(0x14),Write,ACK
1.940381200,5682,~(0x7E),NUL(0x00),Write,ACK
1.940627330,5684,~(0x7E),NAK(0x15),Write,ACK
1.940719920,5684,~(0x7E),NUL(0x00),Write,ACK
1.940965920,5686,~(0x7E),SYN(0x16),Write,ACK
1.941058500,5686,~(0x7E),NUL(0x00),Write,ACK
1.941304290,5688,~(0x7E),ETB(0x17),Write,ACK
1.941396860,5688,~(0x7E),NUL(0x00),Write,ACK
1.941652830,5690,~(0x7E),CAN(0x18),Write,ACK
1.941745420,5690,~(0x7E),NUL(0x00),Write,ACK
1.941989490,5692,~(0x7E),EM (0x19),Write,ACK
1.942082090,5692,~(0x7E),NUL(0x00),Write,ACK
1.942335480,5694,~(0x7E),SUB(0x1A),Write,ACK
1.942428060,5694,~(0x7E),NUL(0x00),Write,ACK
1.942674200,5696,~(0x7E),ESC(0x1B),Write,ACK
1.942766780,5696,~(0x7E),NUL(0x00),Write,ACK
1.943012620,5698,~(0x7E),FS (0x1C),Write,ACK
1.943105210,5698,~(0x7E),NUL(0x00),Write,ACK
1.943351200,5700,~(0x7E),GS (0x1D),Write,ACK
1.943443860,5700,~(0x7E),NUL(0x00),Write,ACK
1.943679770,5702,DEL(0x7F),SI (0x0F),Read,NAK
1.943762090,5702,DEL(0x7F),NUL(0x00),Read,ACK
1.944017890,5704,DEL(0x7F),SI (0x0F),Read,NAK
1.944100190,5704,DEL(0x7F),(128)(0x80),Read,ACK
1.944353120,5706,DEL(0x7F),DLE(0x10),Read,ACK
1.944445700,5706,DEL(0x7F),NUL(0x00),Read,ACK
1.944701930,5708,~(0x7E),!(0x21),Write,NAK
1.944784220,5708,~(0x7E),NUL(0x00),Write,ACK
1.945040340,5710,~(0x7E),"(0x22),Write,ACK
1.945132920,5710,~(0x7E),NUL(0x00),Write,ACK
1.945378970,5712,~(0x7E),#(0x23),Write,ACK
1.945471550,5712,~(0x7E),NUL(0x00),Write,ACK
1.945707010,5714,DEL(0x7F),HT (0x09),Read,ACK
1.945789340,5714,DEL(0x7F),NUL(0x00),Read,ACK
1.946055370,5716,~(0x7E),SOH(0x01),Write,ACK
1.946147960,5716,~(0x7E),(198)(0xC6),Write,ACK
1.946393810,5718,~(0x7E),STX(0x02),Write,ACK
1.946486390,5718,~(0x7E),a(0x61),Write,ACK
1.946718330,5720,DEL(0x7F),NUL(0x00),Read,NAK
1.946800620,5720,DEL(0x7F),(128)(0x80),Read,ACK
1.947066620,5722,~(0x7E),%(0x25),Write,ACK
1.947159200,5722,~(0x7E),NUL(0x00),Write,ACK
1.970474690,5724,~(0x7E),&(0x26),Write,ACK
1.970567260,5724,~(0x7E),NUL(0x00),Write,NAK
1.972023080,5726,~(0x7E),'(0x27),Write,ACK
1.972115650,5726,~(0x7E),SOH(0x01),Write,ACK
1.972372800,5728,~(0x7E),((0x28),Write,ACK
1.972465380,5728,~(0x7E),SOH(0x01),Write,ACK
1.972712020,5730,~(0x7E),)(0x29),Write,ACK
1.972804610,5730,~(0x7E),SOH(0x01),Write,ACK
1.973050850,5732,~(0x7E),+(0x2B),Write,ACK
1.973133160,5732,~(0x7E),NUL(0x00),Write,NAK
1.973294130,,DEL(0x7F),,Read,NAK
1.973366140,5734,DEL(0x7F),LF (0x0A),Read,NAK
1.973458710,5734,DEL(0x7F),(128)(0x80),Read,ACK
1.973723000,5736,~(0x7E),,(0x2C),Write,ACK
1.973815590,5736,~(0x7E),SOH(0x01),Write,ACK
1.974059790,5738,~(0x7E),-(0x2D),Write,ACK
1.974152370,5738,~(0x7E),SOH(0x01),Write,ACK
1.974403560,5740,~(0x7E),.(0x2E),Write,ACK
1.974496140,5740,~(0x7E),SOH(0x01),Write,ACK
1.974739480,5742,~(0x7E),/(0x2F),Write,ACK
1.974832060,5742,~(0x7E),SOH(0x01),Write,ACK
1.975075060,5744,~(0x7E),0(0x30),Write,ACK
1.975167640,5744,~(0x7E),NUL(0x00),Write,NAK
1.975410600,5746,~(0x7E),1(0x31),Write,ACK
1.975503180,5746,~(0x7E),SOH(0x01),Write,ACK
1.975746900,5748,~(0x7E),2(0x32),Write,ACK
1.975839480,5748,~(0x7E),SOH(0x01),Write,ACK
1.976082740,5750,~(0x7E),3(0x33),Write,ACK
1.976175320,5750,~(0x7E),NUL(0x00),Write,NAK
1.976423360,5752,~(0x7E),4(0x34),Write,ACK
1.976515940,5752,~(0x7E),SOH(0x01),Write,ACK
1.976758960,5754,~(0x7E),:(0x3A),Write,NAK
1.976841250,5754,~(0x7E),NUL(0x00),Write,NAK
1.977156910,5756,~(0x7E),6(0x36),Write,ACK
1.977249490,5756,~(0x7E),SOH(0x01),Write,ACK
1.977495800,5758,~(0x7E),7(0x37),Write,ACK
1.977588380,5758,~(0x7E),SOH(0x01),Write,ACK
1.977833620,5760,~(0x7E),8(0x38),Write,ACK
1.977926210,5760,~(0x7E),NUL(0x00),Write,NAK
1.978171070,5762,~(0x7E),<(0x3C),Write,NAK
1.978253370,5762,~(0x7E),NUL(0x00),Write,NAK
1.978509210,5764,~(0x7E),:(0x3A),Write,ACK
1.978601780,5764,~(0x7E),SOH(0x01),Write,ACK
1.978836810,5766,~(0x7E),GS (0x1D),Write,NAK
1.978929400,5766,~(0x7E),NUL(0x00),Write,NAK
1.979186950,5768,~(0x7E),<(0x3C),Write,ACK
1.979279520,5768,~(0x7E),SOH(0x01),Write,ACK
1.979521530,5770,~(0x7E),=(0x3D),Write,ACK
1.979614110,5770,~(0x7E),SOH(0x01),Write,ACK
1.979859320,5772,~(0x7E),US (0x1F),Write,ACK
1.979941620,5772,~(0x7E),NUL(0x00),Write,NAK
1.980197630,5774,~(0x7E),?(0x3F),Write,ACK
1.980290250,5774,~(0x7E),SOH(0x01),Write,ACK
1.980544490,5776,~(0x7E),@(0x40),Write,ACK
1.980637060,5776,~(0x7E),SOH(0x01),Write,ACK
1.980883010,5778,~(0x7E),@(0x40),Write,NAK
1.980965300,5778,~(0x7E),NUL(0x00),Write,NAK
1.981219620,5780,~(0x7E),B(0x42),Write,ACK
1.981312210,5780,~(0x7E),SOH(0x01),Write,ACK
1.981562860,5782,~(0x7E),C(0x43),Write,NAK
1.981645160,5782,~(0x7E),NUL(0x00),Write,NAK
1.981885500,5784,DEL(0x7F),"(0x22),Read,ACK
1.981978070,5784,DEL(0x7F),NUL(0x00),Read,NAK
1.982231990,5786,~(0x7E),E(0x45),Write,ACK
1.982324670,5786,~(0x7E),SOH(0x01),Write,ACK
1.982568870,5788,~(0x7E),F(0x46),Write,ACK
1.982661450,5788,~(0x7E),SOH(0x01),Write,ACK
1.982894260,5790,DEL(0x7F),#(0x23),Read,NAK
1.982986930,5790,DEL(0x7F),NUL(0x00),Read,NAK
1.983240410,5792,~(0x7E),H(0x48),Write,ACK
1.983332990,5792,~(0x7E),SOH(0x01),Write,ACK
1.983578520,5794,~(0x7E),I(0x49),Write,ACK
1.983671110,5794,~(0x7E),SOH(0x01),Write,ACK
1.983911430,5796,~(0x7E),%(0x25),Write,ACK
1.984004010,5796,~(0x7E),NUL(0x00),Write,ACK
1.984505000,5798,~(0x7E),EOT(0x04),Write,ACK
1.984597570,5798,~(0x7E),(198)(0xC6),Write,ACK
1.984842350,5800,~(0x7E),ENQ(0x05),Write,ACK
1.984934930,5800,~(0x7E),a(0x61),Write,ACK
1.985168040,5802,~(0x7E),ETX(0x03),Write,ACK
1.985260610,5802,~(0x7E),NUL(0x00),Write,ACK
1.985514840,5804,~(0x7E),BEL(0x07),Write,ACK
1.985607420,5804,~(0x7E),(198)(0xC6),Write,ACK
1.985851800,5806,~(0x7E),BS (0x08),Write,ACK
1.985934110,5806,~(0x7E),0(0x30),Write,NAK
1.986187710,5808,~(0x7E),HT (0x09),Write,NAK
1.986270000,5808,~(0x7E),NUL(0x00),Write,ACK
1.986522990,5810,~(0x7E),LF (0x0A),Write,ACK
1.986615560,5810,~(0x7E),(227)(0xE3),Write,ACK
1.986857650,5812,~(0x7E),ENQ(0x05),Write,NAK
1.986939940,5812,~(0x7E),0(0x30),Write,ACK
1.987193390,5814,~(0x7E),FF (0x0C),Write,ACK
1.987285980,5814,~(0x7E),NUL(0x00),Write,ACK
1.987529500,5816,~(0x7E),CR (0x0D),Write,ACK
1.987622080,5816,~(0x7E),NUL(0x00),Write,ACK
1.987865220,5818,~(0x7E),SO (0x0E),Write,ACK
1.987957790,5818,~(0x7E),NUL(0x00),Write,ACK
1.988200800,5820,~(0x7E),SI (0x0F),Write,ACK
1.988283100,5820,~(0x7E),NUL(0x00),Write,ACK
1.988536350,5822,~(0x7E),DLE(0x10),Write,ACK
1.988628930,5822,~(0x7E),NUL(0x00),Write,ACK
1.988862120,5824,DEL(0x7F),BS (0x08),Read,NAK
1.988954700,5824,DEL(0x7F),NUL(0x00),Read,ACK
1.989206320,5826,~(0x7E),DC2(0x12),Write,ACK
1.989298900,5826,~(0x7E),NUL(0x00),Write,ACK
1.989535560,5828,~(0x7E),EOT(0x04),Write,NAK
1.989628120,5828,~(0x7E),(128)(0x80),Write,ACK
1.989892790,5830,~(0x7E),DC4(0x14),Write,ACK
1.989985370,5830,~(0x7E),NUL(0x00),Write,ACK
2.004026040,5832,~(0x7E),NAK(0x15),Write,ACK
2.004118620,5832,~(0x7E),NUL(0x00),Write,ACK
2.004396080,5834,~(0x7E),SYN(0x16),Write,ACK
2.004488660,5834,~(0x7E),NUL(0x00),Write,ACK
2.004735530,5836,~(0x7E),ESC(0x1B),Write,NAK
2.004817820,5836,~(0x7E),NUL(0x00),Write,ACK
2.005073920,5838,~(0x7E),CAN(0x18),Write,ACK
2.005166500,5838,~(0x7E),NUL(0x00),Write,ACK
2.005415130,5840,~(0x7E),EM (0x19),Write,ACK
2.005507720,5840,~(0x7E),NUL(0x00),Write,ACK
2.005754010,5842,~(0x7E),SUB(0x1A),Write,ACK
2.005846570,5842,~(0x7E),NUL(0x00),Write,ACK
2.006082090,5844,?(0x3F),CR (0x0D),Read,NAK
2.006174670,5844,?(0x3F),NUL(0x00),Read,ACK
2.006430900,5846,~(0x7E),FS (0x1C),Write,ACK
2.006523480,5846,~(0x7E),NUL(0x00),Write,ACK
2.006769880,5848,~(0x7E),GS (0x1D),Write,ACK
2.006862460,5848,~(0x7E),NUL(0x00),Write,ACK
2.007108110,5850,~(0x7E),RS (0x1E),Write,ACK
2.007200690,5850,~(0x7E),NUL(0x00),Write,ACK
2.007473070,5852,~(0x7E),SI (0x0F),Write,NAK
2.007565660,5852,~(0x7E),NUL(0x00),Write,ACK
2.007822420,5854,~(0x7E),(SP)(0x20),Write,ACK
2.007904720,5854,~(0x7E),NUL(0x00),Write,ACK
2.008160550,5856,~(0x7E),0(0x30),Write,NAK
2.008242840,5856,~(0x7E),NUL(0x00),Write,ACK
2.008498690,5858,~(0x7E),"(0x22),Write,ACK
2.008591270,5858,~(0x7E),NUL(0x00),Write,ACK
2.008842590,5860,~(0x7E),#(0x23),Write,ACK
2.008935180,5860,~(0x7E),NUL(0x00),Write,ACK
2.009182670,5862,~(0x7E),$(0x24),Write,ACK
2.009275250,5862,~(0x7E),NUL(0x00),Write,ACK
2.009520790,5864,~(0x7E),SOH(0x01),Write,ACK
2.009613390,5864,~(0x7E),NUL(0x00),Write,ACK
2.009849090,5866,DEL(0x7F),SOH(0x01),Read,ACK
2.009941670,5866,DEL(0x7F),NUL(0x00),Read,ACK
2.010197560,5868,~(0x7E),ETX(0x03),Write,ACK
2.010290140,5868,~(0x7E),NUL(0x00),Write,ACK
2.010535760,5870,~(0x7E),%(0x25),Write,ACK
2.010628350,5870,~(0x7E),NUL(0x00),Write,ACK
2.034799640,5872,~(0x7E),&(0x26),Write,ACK
2.034892230,5872,~(0x7E),SOH(0x01),Write,ACK
2.036400810,5874,~(0x7E),'(0x27),Write,ACK
2.036493390,5874,~(0x7E),SOH(0x01),Write,ACK
2.036751970,5876,~(0x7E),DC4(0x14),Write,ACK
2.036834260,5876,~(0x7E),NUL(0x00),Write,NAK
2.037126190,5878,~(0x7E),4(0x34),Write,NAK
2.037208490,5878,~(0x7E),NUL(0x00),Write,NAK
2.037464650,5880,~(0x7E),*(0x2A),Write,ACK
2.037557220,5880,~(0x7E),SOH(0x01),Write,ACK
2.037803230,5882,~(0x7E),+(0x2B),Write,ACK
2.037895800,5882,~(0x7E),SOH(0x01),Write,ACK
2.038141620,5884,~(0x7E),,(0x2C),Write,ACK
2.038234220,5884,~(0x7E),SOH(0x01),Write,ACK
2.038480120,5886,~(0x7E),-(0x2D),Write,ACK
2.038572700,5886,~(0x7E),SOH(0x01),Write,ACK
2.038816090,5888,~(0x7E),/(0x2F),Write,ACK
2.038898390,5888,~(0x7E),NUL(0x00),Write,NAK
2.039154740,5890,~(0x7E),/(0x2F),Write,ACK
2.039247330,5890,~(0x7E),SOH(0x01),Write,ACK
2.039492710,5892,~(0x7E),0(0x30),Write,ACK
2.039585290,5892,~(0x7E),SOH(0x01),Write,ACK
2.039826820,5894,~(0x7E),CAN(0x18),Write,NAK
2.039919390,5894,~(0x7E),NUL(0x00),Write,NAK
2.040165640,5896,~(0x7E),EM (0x19),Write,ACK
2.040258210,5896,~(0x7E),NUL(0x00),Write,NAK
2.040513740,5898,~(0x7E),3(0x33),Write,ACK
2.040606320,5898,~(0x7E),SOH(0x01),Write,ACK
2.040851910,5900,~(0x7E),4(0x34),Write,ACK
2.040944490,5900,~(0x7E),NUL(0x00),Write,NAK
2.041186890,5902,~(0x7E),5(0x35),Write,ACK
2.041279470,5902,~(0x7E),SOH(0x01),Write,ACK
2.041525030,5904,~(0x7E),6(0x36),Write,ACK
2.041617600,5904,~(0x7E),SOH(0x01),Write,ACK
2.041862760,5906,~(0x7E),7(0x37),Write,ACK
2.041955300,5906,~(0x7E),SOH(0x01),Write,NAK
2.042190290,5908,DEL(0x7F),FS (0x1C),Read,ACK
2.042282890,5908,DEL(0x7F),NUL(0x00),Read,NAK
2.042538730,5910,~(0x7E),9(0x39),Write,ACK
2.042631310,5910,~(0x7E),SOH(0x01),Write,ACK
2.042866350,5912,DEL(0x7F),GS (0x1D),Read,ACK
2.042958930,5912,DEL(0x7F),NUL(0x00),Read,NAK
2.043204070,5914,DEL(0x7F),GS (0x1D),Read,NAK
2.043296650,5914,DEL(0x7F),NUL(0x00),Read,NAK
2.043538860,5916,DEL(0x7F),RS (0x1E),Read,ACK
2.043631420,5916,DEL(0x7F),NUL(0x00),Read,NAK
2.043887360,5918,~(0x7E),>(0x3E),Write,NAK
2.043969660,5918,~(0x7E),NUL(0x00),Write,NAK
2.044225040,5920,~(0x7E),>(0x3E),Write,ACK
2.044317620,5920,~(0x7E),SOH(0x01),Write,ACK
2.044563160,5922,~(0x7E),?(0x3F),Write,ACK
2.044655750,5922,~(0x7E),SOH(0x01),Write,ACK
2.044886050,5924,DEL(0x7F),DLE(0x10),Read,ACK
2.044968350,5924,DEL(0x7F),NUL(0x00),Read,ACK
2.045232320,5926,~(0x7E),A(0x41),Write,ACK
2.045324900,5926,~(0x7E),SOH(0x01),Write,ACK
2.045571800,5928,~(0x7E),B(0x42),Write,ACK
2.045664380,5928,~(0x7E),SOH(0x01),Write,ACK
2.045904860,5930,~(0x7E),C(0x43),Write,ACK
2.045997440,5930,~(0x7E),SOH(0x01),Write,ACK
2.046240590,5932,~(0x7E),D(0x44),Write,ACK
2.046333170,5932,~(0x7E),SOH(0x01),Write,ACK
2.046637070,5934,~(0x7E),E(0x45),Write,ACK
2.046729650,5934,~(0x7E),SOH(0x01),Write,ACK
2.046973060,5936,~(0x7E),F(0x46),Write,ACK
2.047065640,5936,~(0x7E),SOH(0x01),Write,ACK
2.047308820,5938,~(0x7E),G(0x47),Write,ACK
2.047401400,5938,~(0x7E),SOH(0x01),Write,ACK
2.047634930,5940,~(0x7E),$(0x24),Write,ACK
2.047727490,5940,~(0x7E),NUL(0x00),Write,NAK
2.047980780,5942,~(0x7E),I(0x49),Write,ACK
2.048073360,5942,~(0x7E),SOH(0x01),Write,ACK
2.048316410,5944,~(0x7E),%(0x25),Write,ACK
2.048408990,5944,~(0x7E),NUL(0x00),Write,ACK
2.048908530,5946,~(0x7E),EOT(0x04),Write,ACK
2.049001100,5946,~(0x7E),NUL(0x00),Write,ACK
2.049314070,5948,r(0x72),(147)(0x93),Write,NAK
2.049574260,5950,~(0x7E),ENQ(0x05),Write,ACK
2.049666840,5950,~(0x7E),NUL(0x00),Write,ACK
2.049935100,5952,s(0x73),SOH(0x01),Read,NAK
2.050196580,5954,DEL(0x7F),ETX(0x03),Read,ACK
2.050289150,5954,DEL(0x7F),NUL(0x00),Read,ACK
2.050558110,5956,r(0x72),(154)(0x9A),Write,ACK
2.050823060,5958,~(0x7E),BEL(0x07),Write,NAK
2.050905360,5958,~(0x7E),c(0x63),Write,ACK
2.051175480,5960,s(0x73),SOH(0x01),Read,NAK
2.051435970,5962,~(0x7E),BS (0x08),Write,ACK
2.051518270,5962,~(0x7E),0(0x30),Write,NAK
2.051786120,5964,r(0x72),(149)(0x95),Write,ACK
2.052043250,5966,~(0x7E),HT (0x09),Write,ACK
2.052135830,5966,~(0x7E),NUL(0x00),Write,ACK
2.052395020,5968,s(0x73),NAK(0x15),Read,NAK
2.052655290,5970,~(0x7E),LF (0x0A),Write,ACK
2.052747900,5970,~(0x7E),(198)(0xC6),Write,ACK
2.052997290,5972,9(0x39),K(0x4B),Read,ACK
2.053275420,5974,~(0x7E),VT (0x0B),Write,ACK
2.053368080,5974,~(0x7E),a(0x61),Write,ACK
2.053536240,,q(0x71),,Read,NAK
2.053618620,5976,q(0x71),V(0x56),Read,NAK
2.053796880,,DEL(0x7F),,Read,NAK
2.053868900,5978,DEL(0x7F),ETX(0x03),Read,ACK
2.053961480,5978,DEL(0x7F),NUL(0x00),Read,ACK
2.068100190,5980,r(0x72),(151)(0x97),Write,ACK
2.068391760,5982,~(0x7E),CR (0x0D),Write,ACK
2.068484340,5982,~(0x7E),(198)(0xC6),Write,ACK
2.068749130,5984,s(0x73),ENQ(0x05),Read,NAK
2.069014910,5986,~(0x7E),SO (0x0E),Write,ACK
2.069107480,5986,~(0x7E),a(0x61),Write,ACK
2.069368830,5988,r(0x72),(230)(0xE6),Write,ACK
2.069639570,5990,~(0x7E),SI (0x0F),Write,ACK
2.069732140,5990,~(0x7E),NUL(0x00),Write,ACK
2.069994110,5992,r(0x72),(147)(0x93),Write,ACK
2.070306400,5994,~(0x7E),DLE(0x10),Write,ACK
2.070398970,5994,~(0x7E),NUL(0x00),Write,ACK
2.070568720,,q(0x71),,Read,NAK
2.070651010,5996,q(0x71),NUL(0x00),Read,ACK
2.070931870,5998,~(0x7E),DC1(0x11),Write,ACK
2.071024450,5998,~(0x7E),NUL(0x00),Write,ACK
2.071286410,6000,r(0x72),(148)(0x94),Write,ACK
2.071550130,6002,~(0x7E),DC2(0x12),Write,ACK
2.071642720,6002,~(0x7E),NUL(0x00),Write,ACK
2.071905020,6004,s(0x73),NUL(0x00),Read,NAK
2.072174490,6006,~(0x7E),DC3(0x13),Write,NAK
2.072256800,6006,~(0x7E),NUL(0x00),Write,ACK
2.072519280,6008,y(0x79),J(0x4A),Read,NAK
2.072792000,6010,~(0x7E),DC4(0x14),Write,ACK
2.072884580,6010,~(0x7E),NUL(0x00),Write,ACK
2.073150570,6012,s(0x73),NAK(0x15),Read,NAK
2.073409340,6014,~(0x7E),NAK(0x15),Write,ACK
2.073501920,6014,~(0x7E),NUL(0x00),Write,ACK
2.073763810,6016,r(0x72),(150)(0x96),Write,ACK
2.074026520,6018,~(0x7E),SYN(0x16),Write,ACK
2.074119100,6018,~(0x7E),NUL(0x00),Write,ACK
2.074380270,6020,s(0x73),(173)(0xAD),Read,NAK
2.074639140,6022,~(0x7E),ETB(0x17),Write,ACK
2.074721450,6022,~(0x7E),NUL(0x00),Write,ACK
2.074994150,6024,r(0x72),(151)(0x97),Write,ACK
2.075255450,6026,~(0x7E),CAN(0x18),Write,ACK
2.075348030,6026,~(0x7E),NUL(0x00),Write,ACK
2.075609610,6028,s(0x73),ENQ(0x05),Read,NAK
2.075867850,6030,~(0x7E),EM (0x19),Write,ACK
2.075960440,6030,~(0x7E),NUL(0x00),Write,ACK
2.076212260,6032,9(0x39),s(0x73),Read,ACK
2.076504670,6034,~(0x7E),SUB(0x1A),Write,ACK
2.076597250,6034,~(0x7E),NUL(0x00),Write,ACK
2.076859560,6036,r(0x72),(147)(0x93),Write,ACK
2.077182140,6038,~(0x7E),ESC(0x1B),Write,ACK
2.077274810,6038,~(0x7E),NUL(0x00),Write,ACK
2.077535370,6040,s(0x73),SOH(0x01),Read,NAK
2.077796470,6042,~(0x7E),FS (0x1C),Write,ACK
2.077889050,6042,~(0x7E),NUL(0x00),Write,ACK
2.078151340,6044,r(0x72),(202)(0xCA),Write,ACK
2.078414320,6046,~(0x7E),GS (0x1D),Write,ACK
2.078506880,6046,~(0x7E),NUL(0x00),Write,ACK
2.078769230,6048,s(0x73),NUL(0x00),Read,NAK
2.079038990,6050,~(0x7E),RS (0x1E),Write,ACK
2.079131550,6050,~(0x7E),NUL(0x00),Write,ACK
2.079384070,6052,q(0x71),J(0x4A),Read,NAK
2.079645720,6054,DEL(0x7F),SI (0x0F),Read,NAK
2.079738300,6054,DEL(0x7F),NUL(0x00),Read,ACK
2.080010900,6056,s(0x73),NAK(0x15),Read,NAK
2.080269780,6058,~(0x7E),(SP)(0x20),Write,ACK
2.080352070,6058,~(0x7E),NUL(0x00),Write,ACK
2.080624040,6060,r(0x72),(150)(0x96),Write,ACK
2.080875790,6062,DEL(0x7F),DLE(0x10),Read,NAK
2.080968370,6062,DEL(0x7F),NUL(0x00),Read,ACK
2.081238610,6064,s(0x73),(173)(0xAD),Read,NAK
2.081496850,6066,~(0x7E),"(0x22),Write,ACK
2.081589430,6066,~(0x7E),NUL(0x00),Write,ACK
2.081849310,6068,r(0x72),(151)(0x97),Write,ACK
2.082099090,6070,~(0x7E),BS (0x08),Write,NAK
2.082181420,6070,~(0x7E),(128)(0x80),Write,ACK
2.082369730,,s(0x73),,Read,NAK
2.082452030,6072,s(0x73),STX(0x02),Read,NAK
2.082728970,6074,~(0x7E),$(0x24),Write,ACK
2.082821550,6074,~(0x7E),NUL(0x00),Write,ACK
2.083081250,6076,r(0x72),(230)(0xE6),Write,ACK
2.083392460,6078,~(0x7E),SOH(0x01),Write,ACK
2.083485100,6078,~(0x7E),NUL(0x00),Write,ACK
2.083636270,,DEL(0x7F),,Read,NAK
2.083708280,6080,DEL(0x7F),NUL(0x00),Read,NAK
2.083800840,6080,DEL(0x7F),NUL(0x00),Read,ACK
2.084064960,6082,~(0x7E),ETX(0x03),Write,ACK
2.084147260,6082,~(0x7E),NUL(0x00),Write,ACK
2.084400730,6084,~(0x7E),%(0x25),Write,ACK
2.084493310,6084,~(0x7E),NUL(0x00),Write,ACK
2.098574000,6086,~(0x7E),3(0x33),Write,ACK
2.098656300,6086,~(0x7E),NUL(0x00),Write,NAK
2.100114210,6088,~(0x7E),3(0x33),Write,NAK
2.100196500,6088,~(0x7E),NUL(0x00),Write,NAK
2.100454710,6090,?(0x3F),DC4(0x14),Read,ACK
2.100547320,6090,?(0x3F),NUL(0x00),Read,NAK
2.100804330,6092,~(0x7E),)(0x29),Write,ACK
2.100896910,6092,~(0x7E),NUL(0x00),Write,NAK
2.101152880,6094,~(0x7E),*(0x2A),Write,ACK
2.101245470,6094,~(0x7E),SOH(0x01),Write,ACK
2.101490580,6096,~(0x7E),+(0x2B),Write,ACK
2.101583170,6096,~(0x7E),SOH(0x01),Write,ACK
2.101828890,6098,~(0x7E),6(0x36),Write,ACK
2.101911190,6098,~(0x7E),NUL(0x00),Write,NAK
2.102166540,6100,~(0x7E),SYN(0x16),Write,NAK
2.102248830,6100,~(0x7E),NUL(0x00),Write,NAK
2.102504270,6102,~(0x7E),ETB(0x17),Write,ACK
2.102586680,6102,~(0x7E),NUL(0x00),Write,NAK
2.102842410,6104,~(0x7E),/(0x2F),Write,ACK
2.102934990,6104,~(0x7E),SOH(0x01),Write,ACK
2.103180380,6106,~(0x7E),0(0x30),Write,ACK
2.103272930,6106,~(0x7E),SOH(0x01),Write,ACK
2.103561870,6108,DEL(0x7F),CAN(0x18),Read,NAK
2.103654450,6108,DEL(0x7F),NUL(0x00),Read,NAK
2.103910640,6110,~(0x7E),1(0x31),Write,ACK
2.103992940,6110,~(0x7E),NUL(0x00),Write,NAK
2.104237990,6112,DEL(0x7F),EM (0x19),Read,NAK
2.104330580,6112,DEL(0x7F),NUL(0x00),Read,NAK
2.104587260,6114,~(0x7E),4(0x34),Write,ACK
2.104679840,6114,~(0x7E),SOH(0x01),Write,ACK
2.104925490,6116,~(0x7E),5(0x35),Write,ACK
2.105018070,6116,~(0x7E),SOH(0x01),Write,ACK
2.105259960,6118,~(0x7E),6(0x36),Write,ACK
2.105352540,6118,~(0x7E),NUL(0x00),Write,ACK
2.105598410,6120,~(0x7E),7(0x37),Write,ACK
2.105691000,6120,~(0x7E),SOH(0x01),Write,ACK
2.105925920,6122,DEL(0x7F),FS (0x1C),Read,ACK
2.106018500,6122,DEL(0x7F),NUL(0x00),Read,NAK
2.106274020,6124,~(0x7E),9(0x39),Write,ACK
2.106366600,6124,~(0x7E),SOH(0x01),Write,ACK
2.106612070,6126,~(0x7E),:(0x3A),Write,ACK
2.106704650,6126,~(0x7E),SOH(0x01),Write,ACK
2.106949720,6128,~(0x7E),;(0x3B),Write,ACK
2.107042300,6128,~(0x7E),SOH(0x01),Write,ACK
2.107287310,6130,~(0x7E),<(0x3C),Write,ACK
2.107379890,6130,~(0x7E),SOH(0x01),Write,ACK
2.107622210,6132,~(0x7E),=(0x3D),Write,ACK
2.107714790,6132,~(0x7E),SOH(0x01),Write,ACK
2.107960490,6134,~(0x7E),>(0x3E),Write,ACK
2.108053060,6134,~(0x7E),SOH(0x01),Write,ACK
2.108298330,6136,~(0x7E),US (0x1F),Write,NAK
2.108380650,6136,~(0x7E),NUL(0x00),Write,NAK
2.108665080,6138,~(0x7E),@(0x40),Write,ACK
2.108757660,6138,~(0x7E),SOH(0x01),Write,ACK
2.109003710,6140,~(0x7E),A(0x41),Write,ACK
2.109096280,6140,~(0x7E),SOH(0x01),Write,ACK
2.109341530,6142,~(0x7E),B(0x42),Write,ACK
2.109434130,6142,~(0x7E),SOH(0x01),Write,ACK
2.109679730,6144,~(0x7E),C(0x43),Write,ACK
2.109772310,6144,~(0x7E),NUL(0x00),Write,NAK
2.110003820,6146,~(0x7E),"(0x22),Write,ACK
2.110096390,6146,~(0x7E),NUL(0x00),Write,NAK
2.110351830,6148,~(0x7E),E(0x45),Write,ACK
2.110444410,6148,~(0x7E),SOH(0x01),Write,ACK
2.110691100,6150,~(0x7E),F(0x46),Write,ACK
2.110783680,6150,~(0x7E),SOH(0x01),Write,ACK
2.111019110,6152,~(0x7E),#(0x23),Write,NAK
2.111111690,6152,~(0x7E),NUL(0x00),Write,ACK
2.111367340,6154,~(0x7E),H(0x48),Write,ACK
2.111459920,6154,~(0x7E),NUL(0x00),Write,NAK
2.111705820,6156,~(0x7E),I(0x49),Write,NAK
2.111788110,6156,~(0x7E),NUL(0x00),Write,NAK
2.112020410,6158,DEL(0x7F),HT (0x09),Read,ACK
2.112113000,6158,DEL(0x7F),(128)(0x80),Read,ACK
2.112630450,6160,~(0x7E),EOT(0x04),Write,ACK
2.112723040,6160,~(0x7E),NUL(0x00),Write,ACK
2.112969200,6162,~(0x7E),ENQ(0x05),Write,ACK
2.113061780,6162,~(0x7E),NUL(0x00),Write,ACK
2.113304810,6164,~(0x7E),ACK(0x06),Write,ACK
2.113397360,6164,~(0x7E),NUL(0x00),Write,ACK
2.113640730,6166,~(0x7E),BEL(0x07),Write,ACK
2.113733310,6166,~(0x7E),(198)(0xC6),Write,ACK
2.113977200,6168,~(0x7E),BS (0x08),Write,ACK
2.114069790,6168,~(0x7E),a(0x61),Write,ACK
2.114302580,6170,DEL(0x7F),EOT(0x04),Read,NAK
2.114395160,6170,DEL(0x7F),NUL(0x00),Read,ACK
2.114650460,6172,~(0x7E),ENQ(0x05),Write,ACK
2.114732760,6172,~(0x7E),c(0x63),Write,ACK
2.114983500,6174,~(0x7E),VT (0x0B),Write,ACK
2.115076070,6174,~(0x7E),a(0x61),Write,ACK
2.115319610,6176,~(0x7E),FF (0x0C),Write,ACK
2.115412180,6176,~(0x7E),NUL(0x00),Write,ACK
2.115655070,6178,~(0x7E),CR (0x0D),Write,ACK
2.115747660,6178,~(0x7E),(199)(0xC7),Write,ACK
2.115990890,6180,~(0x7E),SO (0x0E),Write,ACK
2.116083480,6180,~(0x7E),a(0x61),Write,ACK
2.116326470,6182,~(0x7E),SI (0x0F),Write,ACK
2.116419060,6182,~(0x7E),NUL(0x00),Write,ACK
2.116662160,6184,~(0x7E),DLE(0x10),Write,ACK
2.116754740,6184,~(0x7E),NUL(0x00),Write,ACK
2.116997740,6186,~(0x7E),DC1(0x11),Write,ACK
2.117090320,6186,~(0x7E),NUL(0x00),Write,ACK
2.117332470,6188,~(0x7E),DC2(0x12),Write,ACK
2.117414770,6188,~(0x7E),NUL(0x00),Write,ACK
2.117668550,6190,~(0x7E),DC3(0x13),Write,ACK
2.117761130,6190,~(0x7E),NUL(0x00),Write,ACK
2.118004850,6192,~(0x7E),DC4(0x14),Write,ACK
2.118097420,6192,~(0x7E),NUL(0x00),Write,ACK
2.131975590,6194,~(0x7E),NAK(0x15),Write,ACK
2.132068170,6194,~(0x7E),NUL(0x00),Write,ACK
2.132332570,6198,~(0x7E),SYN(0x16),Write,ACK
2.132425150,6198,~(0x7E),NUL(0x00),Write,ACK
2.132672560,6200,~(0x7E),ETB(0x17),Write,ACK
2.132765140,6200,~(0x7E),NUL(0x00),Write,ACK
2.133012200,6202,~(0x7E),CAN(0x18),Write,ACK
2.133104780,6202,~(0x7E),NUL(0x00),Write,ACK
2.133348000,6204,~(0x7E),EM (0x19),Write,ACK
2.133440580,6204,~(0x7E),NUL(0x00),Write,ACK
2.133591720,,DEL(0x7F),,Read,NAK
2.133663730,6206,DEL(0x7F),ACK(0x06),Read,ACK
2.133746020,6206,DEL(0x7F),(128)(0x80),Read,ACK
2.134022360,6208,~(0x7E),CR (0x0D),Write,NAK
2.134104650,6208,~(0x7E),NUL(0x00),Write,ACK
2.134366450,6210,~(0x7E),FS (0x1C),Write,ACK
2.134459030,6210,~(0x7E),NUL(0x00),Write,ACK
2.134702640,6212,~(0x7E),GS (0x1D),Write,ACK
2.134795230,6212,~(0x7E),NUL(0x00),Write,ACK
2.135028550,6214,?(0x3F),SI (0x0F),Read,ACK
2.135121130,6214,?(0x3F),NUL(0x00),Read,ACK
2.135374440,6216,~(0x7E),US (0x1F),Write,NAK
2.135456730,6216,~(0x7E),NUL(0x00),Write,ACK
2.135710560,6218,~(0x7E),(SP)(0x20),Write,ACK
2.135792860,6218,~(0x7E),NUL(0x00),Write,ACK
2.136036530,6220,DEL(0x7F),DLE(0x10),Read,NAK
2.136129110,6220,DEL(0x7F),NUL(0x00),Read,ACK
2.136396290,6222,~(0x7E),"(0x22),Write,ACK
2.136488860,6222,~(0x7E),NUL(0x00),Write,ACK
2.136730200,6224,~(0x7E),#(0x23),Write,ACK
2.136822780,6224,~(0x7E),NUL(0x00),Write,ACK
2.137066340,6228,~(0x7E),$(0x24),Write,ACK
2.137158920,6228,~(0x7E),NUL(0x00),Write,ACK
2.137395320,6230,DEL(0x7F),NUL(0x00),Read,NAK
2.137487890,6230,DEL(0x7F),NUL(0x00),Read,ACK
2.137743670,6232,~(0x7E),STX(0x02),Write,ACK
2.137836250,6232,~(0x7E),NUL(0x00),Write,ACK
2.138082090,6234,~(0x7E),ETX(0x03),Write,ACK
2.138174670,6234,~(0x7E),NUL(0x00),Write,ACK
2.138417860,6236,~(0x7E),%(0x25),Write,ACK
2.138510440,6236,~(0x7E),NUL(0x00),Write,ACK
2.162539500,6238,~(0x7E),&(0x26),Write,ACK
2.162632080,6238,~(0x7E),SOH(0x01),Write,ACK
2.164125610,6240,~(0x7E),DC3(0x13),Write,NAK
2.164218190,6240,~(0x7E),NUL(0x00),Write,NAK
2.164486690,6242,~(0x7E),4(0x34),Write,ACK
2.164568980,6242,~(0x7E),NUL(0x00),Write,NAK
2.164824950,6244,~(0x7E),:(0x3A),Write,ACK
2.164896950,6244,~(0x7E),(128)(0x80),Write,ACK
2.165173020,6246,~(0x7E),%(0x25),Write,ACK
2.165255320,6246,~(0x7E),NUL(0x00),Write,NAK
2.165590850,6248,~(0x7E),+(0x2B),Write,ACK
2.165683430,6248,~(0x7E),NUL(0x00),Write,NAK
2.165918430,6250,DEL(0x7F),SYN(0x16),Read,ACK
2.166011000,6250,DEL(0x7F),NUL(0x00),Read,NAK
2.166309850,6252,DEL(0x7F),SYN(0x16),Read,NAK
2.166402440,6252,DEL(0x7F),NUL(0x00),Read,NAK
2.166658810,6254,~(0x7E),/(0x2F),Write,ACK
2.166741090,6254,~(0x7E),NUL(0x00),Write,ACK
2.166986300,6256,DEL(0x7F),ETB(0x17),Read,NAK
2.167078890,6256,DEL(0x7F),NUL(0x00),Read,NAK
2.167323390,6258,DEL(0x7F),CAN(0x18),Read,ACK
2.167415970,6258,DEL(0x7F),NUL(0x00),Read,NAK
2.167678920,6260,~(0x7E),CAN(0x18),Write,NAK
2.167761250,6260,~(0x7E),NUL(0x00),Write,NAK
2.168017120,6262,~(0x7E),2(0x32),Write,ACK
2.168109710,6262,~(0x7E),SOH(0x01),Write,ACK
2.168355210,6264,~(0x7E),3(0x33),Write,NAK
2.168437510,6264,~(0x7E),NUL(0x00),Write,NAK
2.168693070,6266,~(0x7E),4(0x34),Write,ACK
2.168785650,6266,~(0x7E),SOH(0x01),Write,ACK
2.169031250,6268,~(0x7E),5(0x35),Write,ACK
2.169123830,6268,~(0x7E),SOH(0x01),Write,ACK
2.169367100,6270,~(0x7E),6(0x36),Write,ACK
2.169459680,6270,~(0x7E),SOH(0x01),Write,ACK
2.169700990,6272,~(0x7E),ESC(0x1B),Write,NAK
2.169783280,6272,~(0x7E),NUL(0x00),Write,NAK
2.170034120,6274,DEL(0x7F),FS (0x1C),Read,ACK
2.170126710,6274,DEL(0x7F),NUL(0x00),Read,NAK
2.170369590,6276,DEL(0x7F),FS (0x1C),Read,NAK
2.170462160,6276,DEL(0x7F),NUL(0x00),Read,NAK
2.170715450,6278,~(0x7E),:(0x3A),Write,ACK
2.170808040,6278,~(0x7E),SOH(0x01),Write,NAK
2.171050850,6280,~(0x7E),;(0x3B),Write,ACK
2.171143400,6280,~(0x7E),SOH(0x01),Write,ACK
2.171386300,6282,~(0x7E),<(0x3C),Write,ACK
2.171478870,6282,~(0x7E),NUL(0x00),Write,NAK
2.171722140,6284,~(0x7E),=(0x3D),Write,ACK
2.171814720,6284,~(0x7E),SOH(0x01),Write,ACK
2.172049690,6286,DEL(0x7F),US (0x1F),Read,ACK
2.172142360,6286,DEL(0x7F),NUL(0x00),Read,NAK
2.172395270,6288,~(0x7E),?(0x3F),Write,ACK
2.172487910,6288,~(0x7E),SOH(0x01),Write,ACK
2.172731650,6290,~(0x7E),@(0x40),Write,ACK
2.172824230,6290,~(0x7E),SOH(0x01),Write,ACK
2.173068040,6292,~(0x7E),A(0x41),Write,ACK
2.173160620,6292,~(0x7E),SOH(0x01),Write,ACK
2.173396150,6294,DEL(0x7F),!(0x21),Read,ACK
2.173488730,6294,DEL(0x7F),NUL(0x00),Read,NAK
2.173744910,6296,~(0x7E),C(0x43),Write,ACK
2.173837500,6296,~(0x7E),SOH(0x01),Write,ACK
2.174073070,6298,DEL(0x7F),#(0x23),Read,ACK
2.174155360,6298,DEL(0x7F),NUL(0x00),Read,ACK
2.174424780,6300,~(0x7E),E(0x45),Write,ACK
2.174517360,6300,~(0x7E),SOH(0x01),Write,ACK
2.174753240,6302,DEL(0x7F),#(0x23),Read,ACK
2.174835540,6302,DEL(0x7F),NUL(0x00),Read,ACK
2.175101600,6304,~(0x7E),G(0x47),Write,ACK
2.175194180,6304,~(0x7E),SOH(0x01),Write,ACK
2.175439520,6306,~(0x7E),H(0x48),Write,ACK
2.175532110,6306,~(0x7E),SOH(0x01),Write,ACK
2.175777890,6308,~(0x7E),I(0x49),Write,ACK
2.175870470,6308,~(0x7E),SOH(0x01),Write,ACK
2.176116010,6310,~(0x7E),%(0x25),Write,ACK
2.176208590,6310,~(0x7E),NUL(0x00),Write,ACK
2.176703830,6312,~(0x7E),EOT(0x04),Write,ACK
2.176786140,6312,~(0x7E),NUL(0x00),Write,ACK
2.177046280,6314,~(0x7E),ENQ(0x05),Write,ACK
2.177138870,6314,~(0x7E),NUL(0x00),Write,ACK
2.177382950,6316,~(0x7E),ACK(0x06),Write,ACK
2.177475530,6316,~(0x7E),NUL(0x00),Write,ACK
2.177734900,6318,~(0x7E),BEL(0x07),Write,ACK
2.177827480,6318,~(0x7E),NUL(0x00),Write,ACK
2.178071280,6320,~(0x7E),BS (0x08),Write,ACK
2.178163870,6320,~(0x7E),NUL(0x00),Write,ACK
2.178405180,6322,~(0x7E),HT (0x09),Write,ACK
2.178497770,6322,~(0x7E),NUL(0x00),Write,ACK
2.178748340,6324,~(0x7E),LF (0x0A),Write,ACK
2.178840920,6324,~(0x7E),(198)(0xC6),Write,ACK
2.179084430,6326,~(0x7E),VT (0x0B),Write,ACK
2.179176980,6326,~(0x7E),a(0x61),Write,ACK
2.179420920,6328,~(0x7E),FF (0x0C),Write,ACK
2.179513570,6328,~(0x7E),NUL(0x00),Write,ACK
2.179756450,6330,~(0x7E),CR (0x0D),Write,ACK
2.179849000,6330,~(0x7E),(198)(0xC6),Write,ACK
2.180092150,6332,~(0x7E),SO (0x0E),Write,ACK
2.180184740,6332,~(0x7E),a(0x61),Write,ACK
2.180428350,6334,~(0x7E),SI (0x0F),Write,ACK
2.180521020,6334,~(0x7E),NUL(0x00),Write,ACK
2.180764050,6336,~(0x7E),DLE(0x10),Write,ACK
2.180856630,6336,~(0x7E),(198)(0xC6),Write,ACK
2.181122960,6338,DEL(0x7F),BS (0x08),Read,NAK
2.181215540,6338,DEL(0x7F),8(0x38),Read,ACK
2.181470440,6340,~(0x7E),DC2(0x12),Write,ACK
2.181563020,6340,~(0x7E),NUL(0x00),Write,ACK
2.181806770,6342,~(0x7E),DC1(0x11),Write,NAK
2.181889060,6342,~(0x7E),NUL(0x00),Write,ACK
2.182143140,6344,~(0x7E),DC4(0x14),Write,ACK
2.182235710,6344,~(0x7E),NUL(0x00),Write,ACK
2.196903550,6346,~(0x7E),NAK(0x15),Write,ACK
2.196996130,6346,~(0x7E),NUL(0x00),Write,ACK
2.197262360,6348,~(0x7E),SYN(0x16),Write,ACK
2.197355000,6348,~(0x7E),NUL(0x00),Write,ACK
2.197599050,6350,~(0x7E),ETB(0x17),Write,ACK
2.197691620,6350,~(0x7E),NUL(0x00),Write,ACK
2.197937570,6352,~(0x7E),CAN(0x18),Write,ACK
2.198030140,6352,~(0x7E),NUL(0x00),Write,ACK
2.198329790,6354,~(0x7E),EM (0x19),Write,ACK
2.198422390,6354,~(0x7E),NUL(0x00),Write,ACK
2.198667950,6356,~(0x7E),SUB(0x1A),Write,ACK
2.198760710,6356,~(0x7E),NUL(0x00),Write,ACK
2.199006690,6358,~(0x7E),ESC(0x1B),Write,ACK
2.199089070,6358,~(0x7E),NUL(0x00),Write,ACK
2.199345160,6360,~(0x7E),FS (0x1C),Write,ACK
2.199437840,6360,~(0x7E),NUL(0x00),Write,ACK
2.199680340,6362,~(0x7E),GS (0x1D),Write,ACK
2.199772920,6362,~(0x7E),NUL(0x00),Write,ACK
2.200019270,6364,~(0x7E),RS (0x1E),Write,ACK
2.200111840,6364,~(0x7E),NUL(0x00),Write,ACK
2.200357080,6366,~(0x7E),US (0x1F),Write,ACK
2.200449750,6366,~(0x7E),NUL(0x00),Write,ACK
2.200694960,6368,~(0x7E),(SP)(0x20),Write,ACK
2.200787550,6368,~(0x7E),NUL(0x00),Write,ACK
2.201033850,6370,~(0x7E),!(0x21),Write,ACK
2.201126430,6370,~(0x7E),NUL(0x00),Write,ACK
2.201371880,6372,~(0x7E),"(0x22),Write,ACK
2.201464450,6372,~(0x7E),NUL(0x00),Write,ACK
2.201713600,6374,~(0x7E),#(0x23),Write,ACK
2.201806200,6374,~(0x7E),NUL(0x00),Write,ACK
2.202047570,6376,~(0x7E),$(0x24),Write,ACK
2.202140150,6376,~(0x7E),NUL(0x00),Write,ACK
2.202385530,6378,~(0x7E),SOH(0x01),Write,ACK
2.202478100,6378,~(0x7E),NUL(0x00),Write,ACK
2.202723260,6380,~(0x7E),STX(0x02),Write,ACK
2.202815850,6380,~(0x7E),NUL(0x00),Write,ACK
2.203061380,6382,~(0x7E),ETX(0x03),Write,ACK
2.203153960,6382,~(0x7E),NUL(0x00),Write,ACK
2.203399040,6384,~(0x7E),%(0x25),Write,ACK
2.203491710,6384,~(0x7E),NUL(0x00),Write,ACK
2.226527280,6386,~(0x7E),&(0x26),Write,ACK
2.226619860,6386,~(0x7E),SOH(0x01),Write,ACK
2.228365120,6388,~(0x7E),'(0x27),Write,ACK
2.228457680,6388,~(0x7E),SOH(0x01),Write,ACK
2.228714800,6390,~(0x7E),((0x28),Write,ACK
2.228797100,6390,~(0x7E),NUL(0x00),Write,NAK
2.229053700,6392,~(0x7E),)(0x29),Write,ACK
2.229146280,6392,~(0x7E),SOH(0x01),Write,ACK
2.229392530,6394,~(0x7E),*(0x2A),Write,ACK
2.229485110,6394,~(0x7E),SOH(0x01),Write,ACK
2.229730710,6396,~(0x7E),+(0x2B),Write,ACK
2.229823280,6396,~(0x7E),SOH(0x01),Write,ACK
2.230069200,6398,~(0x7E),,(0x2C),Write,ACK
2.230161770,6398,~(0x7E),SOH(0x01),Write,ACK
2.230405940,6400,~(0x7E),-(0x2D),Write,ACK
2.230498530,6400,~(0x7E),SOH(0x01),Write,ACK
2.230743710,6402,~(0x7E),.(0x2E),Write,ACK
2.230836290,6402,~(0x7E),SOH(0x01),Write,ACK
2.231087020,6404,~(0x7E),/(0x2F),Write,ACK
2.231179610,6404,~(0x7E),SOH(0x01),Write,ACK
2.231425450,6406,~(0x7E),0(0x30),Write,ACK
2.231517990,6406,~(0x7E),SOH(0x01),Write,ACK
2.231763930,6408,~(0x7E),1(0x31),Write,NAK
2.231846290,6408,~(0x7E),NUL(0x00),Write,NAK
2.232009630,,DEL(0x7F),,Read,NAK
2.232081630,6410,DEL(0x7F),SO (0x0E),Read,ACK
2.232163930,6410,DEL(0x7F),(128)(0x80),Read,ACK
2.232440650,6412,~(0x7E),3(0x33),Write,ACK
2.232533220,6412,~(0x7E),SOH(0x01),Write,ACK
2.232775060,6414,~(0x7E),4(0x34),Write,ACK
2.232867630,6414,~(0x7E),SOH(0x01),Write,ACK
2.233192780,6416,~(0x7E),5(0x35),Write,ACK
2.233275100,6416,~(0x7E),NUL(0x00),Write,NAK
2.233531760,6418,~(0x7E),6(0x36),Write,ACK
2.233624350,6418,~(0x7E),SOH(0x01),Write,ACK
2.233869840,6420,~(0x7E),7(0x37),Write,ACK
2.233962420,6420,~(0x7E),SOH(0x01),Write,ACK
2.234208180,6422,~(0x7E),8(0x38),Write,ACK
2.234300770,6422,~(0x7E),SOH(0x01),Write,ACK
2.234546370,6424,~(0x7E),9(0x39),Write,ACK
2.234638960,6424,~(0x7E),SOH(0x01),Write,ACK
2.234884340,6426,~(0x7E),:(0x3A),Write,ACK
2.234976920,6426,~(0x7E),SOH(0x01),Write,ACK
2.235223110,6428,~(0x7E),;(0x3B),Write,ACK
2.235315690,6428,~(0x7E),SOH(0x01),Write,ACK
2.235556770,6430,~(0x7E),<(0x3C),Write,ACK
2.235639070,6430,~(0x7E),NUL(0x00),Write,NAK
2.235894780,6432,~(0x7E),=(0x3D),Write,ACK
2.235987360,6432,~(0x7E),SOH(0x01),Write,ACK
2.236233090,6434,~(0x7E),>(0x3E),Write,ACK
2.236325670,6434,~(0x7E),SOH(0x01),Write,ACK
2.236571090,6436,~(0x7E),?(0x3F),Write,ACK
2.236663670,6436,~(0x7E),SOH(0x01),Write,ACK
2.236909680,6438,~(0x7E),@(0x40),Write,ACK
2.237002260,6438,~(0x7E),SOH(0x01),Write,ACK
2.237247870,6440,~(0x7E),A(0x41),Write,ACK
2.237340460,6440,~(0x7E),SOH(0x01),Write,ACK
2.237588380,6442,~(0x7E),B(0x42),Write,ACK
2.237680960,6442,~(0x7E),SOH(0x01),Write,ACK
2.237922610,6444,~(0x7E),C(0x43),Write,ACK
2.238015190,6444,~(0x7E),NUL(0x00),Write,NAK
2.238260580,6446,~(0x7E),D(0x44),Write,ACK
2.238353160,6446,~(0x7E),SOH(0x01),Write,ACK
2.238598870,6448,~(0x7E),E(0x45),Write,ACK
2.238691520,6448,~(0x7E),SOH(0x01),Write,ACK
2.238937330,6450,~(0x7E),F(0x46),Write,ACK
2.239029900,6450,~(0x7E),SOH(0x01),Write,ACK
2.239274910,6452,~(0x7E),G(0x47),Write,ACK
2.239367490,6452,~(0x7E),SOH(0x01),Write,ACK
2.239616620,6454,DEL(0x7F),$(0x24),Read,ACK
2.239709200,6454,DEL(0x7F),NUL(0x00),Read,NAK
2.239960400,6456,~(0x7E),I(0x49),Write,ACK
2.240052990,6456,~(0x7E),NUL(0x00),Write,NAK
2.240298210,6458,~(0x7E),%(0x25),Write,ACK
2.240390790,6458,~(0x7E),NUL(0x00),Write,ACK
2.240893380,6460,~(0x7E),EOT(0x04),Write,ACK
2.240985960,6460,~(0x7E),NUL(0x00),Write,ACK
2.241229950,6462,~(0x7E),ENQ(0x05),Write,ACK
2.241322540,6462,~(0x7E),NUL(0x00),Write,ACK
2.241566870,6464,~(0x7E),ACK(0x06),Write,ACK
2.241659430,6464,~(0x7E),NUL(0x00),Write,ACK
2.241893410,6466,DEL(0x7F),ETX(0x03),Read,NAK
2.241985990,6466,DEL(0x7F),NUL(0x00),Read,ACK
2.242239640,6468,~(0x7E),BS (0x08),Write,ACK
2.242332210,6468,~(0x7E),NUL(0x00),Write,ACK
2.242576150,6470,~(0x7E),HT (0x09),Write,ACK
2.242668820,6470,~(0x7E),NUL(0x00),Write,ACK
2.242911230,6472,~(0x7E),LF (0x0A),Write,ACK
2.243003810,6472,~(0x7E),(195)(0xC3),Write,ACK
2.243244840,6474,DEL(0x7F),ENQ(0x05),Read,NAK
2.243337420,6474,DEL(0x7F),0(0x30),Read,NAK
2.243580380,6478,DEL(0x7F),ACK(0x06),Read,ACK
2.243672960,6478,DEL(0x7F),NUL(0x00),Read,ACK
2.243926370,6480,~(0x7E),CR (0x0D),Write,ACK
2.244018940,6480,~(0x7E),(198)(0xC6),Write,ACK
2.244262040,6482,~(0x7E),SO (0x0E),Write,ACK
2.244354620,6482,~(0x7E),a(0x61),Write,ACK
2.244597770,6484,~(0x7E),SI (0x0F),Write,NAK
2.244680070,6484,~(0x7E),NUL(0x00),Write,ACK
2.244932910,6486,~(0x7E),DLE(0x10),Write,ACK
2.245025480,6486,~(0x7E),(198)(0xC6),Write,ACK
2.245308370,6488,~(0x7E),BS (0x08),Write,NAK
2.245390670,6488,~(0x7E),0(0x30),Write,NAK
2.245644790,6490,~(0x7E),DC2(0x12),Write,ACK
2.245737370,6490,~(0x7E),NUL(0x00),Write,ACK
2.245970420,6492,DEL(0x7F),HT (0x09),Read,NAK
2.246063000,6492,DEL(0x7F),NUL(0x00),Read,ACK
2.260502720,6494,~(0x7E),DC4(0x14),Write,ACK
2.260595300,6494,~(0x7E),NUL(0x00),Write,ACK
2.260849600,6496,DEL(0x7F),LF (0x0A),Read,NAK
2.260942180,6496,DEL(0x7F),NUL(0x00),Read,ACK
2.261197680,6498,~(0x7E),ETB(0x17),Write,ACK
2.261279980,6498,~(0x7E),NUL(0x00),Write,ACK
2.261591070,6500,DEL(0x7F),VT (0x0B),Read,NAK
2.261683640,6500,DEL(0x7F),NUL(0x00),Read,ACK
2.261927950,6502,?(0x3F),FF (0x0C),Read,ACK
2.262020540,6502,?(0x3F),NUL(0x00),Read,ACK
2.262335890,6504,~(0x7E),EM (0x19),Write,ACK
2.262428470,6504,~(0x7E),NUL(0x00),Write,ACK
2.262671910,6506,~(0x7E),SUB(0x1A),Write,ACK
2.262754400,6506,~(0x7E),NUL(0x00),Write,ACK
2.263007720,6508,~(0x7E),ESC(0x1B),Write,ACK
2.263100390,6508,~(0x7E),NUL(0x00),Write,ACK
2.263343590,6510,~(0x7E),FS (0x1C),Write,ACK
2.263436160,6510,~(0x7E),NUL(0x00),Write,ACK
2.263682140,6512,~(0x7E),GS (0x1D),Write,ACK
2.263774720,6512,~(0x7E),NUL(0x00),Write,ACK
2.264018540,6514,~(0x7E),RS (0x1E),Write,ACK
2.264111130,6514,~(0x7E),NUL(0x00),Write,ACK
2.264354020,6516,~(0x7E),US (0x1F),Write,NAK
2.264436320,6516,~(0x7E),NUL(0x00),Write,ACK
2.264690050,6518,~(0x7E),(SP)(0x20),Write,ACK
2.264782630,6518,~(0x7E),NUL(0x00),Write,ACK
2.265025910,6520,~(0x7E),!(0x21),Write,ACK
2.265118480,6520,~(0x7E),NUL(0x00),Write,ACK
2.265359860,6522,~(0x7E),"(0x22),Write,ACK
2.265452440,6522,~(0x7E),NUL(0x00),Write,ACK
2.265698120,6524,~(0x7E),#(0x23),Write,ACK
2.265790700,6524,~(0x7E),NUL(0x00),Write,ACK
2.266041720,6526,~(0x7E),"(0x22),Write,ACK
2.266124010,6526,~(0x7E),NUL(0x00),Write,ACK
2.266379800,6528,~(0x7E),SOH(0x01),Write,ACK
2.266472380,6528,~(0x7E),NUL(0x00),Write,ACK
2.266707750,6530,DEL(0x7F),SOH(0x01),Read,ACK
2.266800330,6530,DEL(0x7F),NUL(0x00),Read,ACK
2.267056420,6532,~(0x7E),ETX(0x03),Write,ACK
2.267149000,6532,~(0x7E),NUL(0x00),Write,ACK
2.267384070,6534,DEL(0x7F),DC2(0x12),Read,NAK
2.267476650,6534,DEL(0x7F),NUL(0x00),Read,ACK
2.290475060,6536,DEL(0x7F),DC3(0x13),Read,ACK
2.290567640,6536,DEL(0x7F),NUL(0x00),Read,NAK
2.292043730,6538,~(0x7E),'(0x27),Write,ACK
2.292136310,6538,~(0x7E),SOH(0x01),Write,ACK
2.292392190,6540,~(0x7E),((0x28),Write,ACK
2.292484760,6540,~(0x7E),NUL(0x00),Write,NAK
2.292728710,6542,~(0x7E),)(0x29),Write,ACK
2.292821290,6542,~(0x7E),SOH(0x01),Write,ACK
2.293065750,6544,~(0x7E),5(0x35),Write,ACK
2.293148050,6544,~(0x7E),NUL(0x00),Write,NAK
2.293402050,6546,~(0x7E),+(0x2B),Write,ACK
2.293494620,6546,~(0x7E),SOH(0x01),Write,ACK
2.293737960,6548,~(0x7E),,(0x2C),Write,ACK
2.293830550,6548,~(0x7E),NUL(0x00),Write,NAK
2.294072150,6550,~(0x7E),-(0x2D),Write,ACK
2.294164730,6550,~(0x7E),SOH(0x01),Write,ACK
2.294416420,6552,~(0x7E),.(0x2E),Write,ACK
2.294498730,6552,~(0x7E),NUL(0x00),Write,NAK
2.294741980,6554,DEL(0x7F),ETB(0x17),Read,NAK
2.294834560,6554,DEL(0x7F),NUL(0x00),Read,NAK
2.295087970,6556,~(0x7E),0(0x30),Write,ACK
2.295170260,6556,~(0x7E),NUL(0x00),Write,NAK
2.295424140,6558,~(0x7E),1(0x31),Write,ACK
2.295516720,6558,~(0x7E),SOH(0x01),Write,ACK
2.295760290,6560,~(0x7E),2(0x32),Write,ACK
2.295842600,6560,~(0x7E),NUL(0x00),Write,NAK
2.296085420,6562,DEL(0x7F),EM (0x19),Read,NAK
2.296178000,6562,DEL(0x7F),NUL(0x00),Read,NAK
2.296435270,6564,~(0x7E),4(0x34),Write,ACK
2.296527860,6564,~(0x7E),SOH(0x01),Write,ACK
2.296771310,6566,~(0x7E),5(0x35),Write,ACK
2.296863890,6566,~(0x7E),SOH(0x01),Write,ACK
2.297096530,6568,DEL(0x7F),ESC(0x1B),Read,ACK
2.297178830,6568,DEL(0x7F),NUL(0x00),Read,ACK
2.297446850,6570,~(0x7E),7(0x37),Write,ACK
2.297539430,6570,~(0x7E),SOH(0x01),Write,ACK
2.297785370,6572,~(0x7E),8(0x38),Write,ACK
2.297877970,6572,~(0x7E),SOH(0x01),Write,ACK
2.298123500,6574,~(0x7E),9(0x39),Write,ACK
2.298216090,6574,~(0x7E),SOH(0x01),Write,ACK
2.298459820,6576,~(0x7E),9(0x39),Write,ACK
2.298542100,6576,~(0x7E),NUL(0x00),Write,NAK
2.298783080,6578,DEL(0x7F),GS (0x1D),Read,NAK
2.298875640,6578,DEL(0x7F),NUL(0x00),Read,NAK
2.299131420,6580,~(0x7E),<(0x3C),Write,ACK
2.299224060,6580,~(0x7E),SOH(0x01),Write,ACK
2.299459540,6582,DEL(0x7F),RS (0x1E),Read,NAK
2.299552130,6582,DEL(0x7F),NUL(0x00),Read,NAK
2.299797870,6584,DEL(0x7F),US (0x1F),Read,ACK
2.299890490,6584,DEL(0x7F),NUL(0x00),Read,NAK
2.300146060,6586,~(0x7E),?(0x3F),Write,ACK
2.300238650,6586,~(0x7E),SOH(0x01),Write,ACK
2.300484460,6588,~(0x7E),@(0x40),Write,ACK
2.300577040,6588,~(0x7E),SOH(0x01),Write,ACK
2.300822630,6590,~(0x7E),A(0x41),Write,ACK
2.300915210,6590,~(0x7E),SOH(0x01),Write,ACK
2.301156170,6592,~(0x7E),B(0x42),Write,ACK
2.301248710,6592,~(0x7E),SOH(0x01),Write,ACK
2.301494170,6594,~(0x7E),C(0x43),Write,ACK
2.301586730,6594,~(0x7E),NUL(0x00),Write,NAK
2.301832550,6596,~(0x7E),D(0x44),Write,ACK
2.301925140,6596,~(0x7E),NUL(0x00),Write,ACK
2.302160140,6598,DEL(0x7F),"(0x22),Read,NAK
2.302252710,6598,DEL(0x7F),NUL(0x00),Read,NAK
2.302509200,6600,~(0x7E),F(0x46),Write,ACK
2.302601780,6600,~(0x7E),SOH(0x01),Write,ACK
2.302847980,6602,~(0x7E),a(0x61),Write,NAK
2.302919980,6602,~(0x7E),(128)(0x80),Write,ACK
2.303173460,6604,~(0x7E),$(0x24),Write,ACK
2.303266040,6604,~(0x7E),NUL(0x00),Write,NAK
2.303529460,6608,~(0x7E),I(0x49),Write,ACK
2.303622050,6608,~(0x7E),SOH(0x01),Write,ACK
2.303868140,6610,~(0x7E),%(0x25),Write,ACK
2.303960720,6610,~(0x7E),NUL(0x00),Write,ACK
2.304465120,6612,~(0x7E),EOT(0x04),Write,ACK
2.304557700,6612,~(0x7E),NUL(0x00),Write,ACK
2.304802920,6614,~(0x7E),ENQ(0x05),Write,ACK
2.304895490,6614,~(0x7E),NUL(0x00),Write,ACK
2.305179530,6616,~(0x7E),ACK(0x06),Write,ACK
2.305272100,6616,~(0x7E),NUL(0x00),Write,ACK
2.305514840,6618,~(0x7E),BEL(0x07),Write,ACK
2.305607420,6618,~(0x7E),NUL(0x00),Write,ACK
2.305841750,6620,?(0x3F),ACK(0x06),Read,ACK
2.305924050,6620,?(0x3F),NUL(0x00),Read,ACK
2.306177990,6622,DEL(0x7F),EOT(0x04),Read,NAK
2.306270570,6622,DEL(0x7F),NUL(0x00),Read,ACK
2.306523840,6624,~(0x7E),VT (0x0B),Write,ACK
2.306606130,6624,~(0x7E),NUL(0x00),Write,ACK
2.306860180,6626,~(0x7E),VT (0x0B),Write,ACK
2.306952770,6626,~(0x7E),NUL(0x00),Write,ACK
2.307196220,6628,~(0x7E),FF (0x0C),Write,ACK
2.307288800,6628,~(0x7E),NUL(0x00),Write,ACK
2.307531790,6630,~(0x7E),CR (0x0D),Write,ACK
2.307624370,6630,~(0x7E),(198)(0xC6),Write,ACK
2.307867310,6632,~(0x7E),SO (0x0E),Write,ACK
2.307959860,6632,~(0x7E),0(0x30),Write,NAK
2.308203390,6634,~(0x7E),SI (0x0F),Write,ACK
2.308295960,6634,~(0x7E),NUL(0x00),Write,ACK
2.308539220,6636,~(0x7E),DLE(0x10),Write,ACK
2.308631790,6636,~(0x7E),(198)(0xC6),Write,ACK
2.308874950,6638,~(0x7E),DC1(0x11),Write,ACK
2.308967520,6638,~(0x7E),`(0x60),Write,NAK
2.309210520,6640,~(0x7E),DC2(0x12),Write,ACK
2.309303110,6640,~(0x7E),NUL(0x00),Write,ACK
2.309598890,6642,~(0x7E),DC3(0x13),Write,ACK
2.309691470,6642,~(0x7E),(198)(0xC6),Write,ACK
2.309935130,6644,~(0x7E),DC4(0x14),Write,ACK
2.310027720,6644,~(0x7E),a(0x61),Write,ACK
2.324013670,6646,~(0x7E),LF (0x0A),Write,NAK
2.324106240,6646,~(0x7E),NUL(0x00),Write,ACK
2.324381580,6648,~(0x7E),SYN(0x16),Write,ACK
2.324474170,6648,~(0x7E),NUL(0x00),Write,ACK
2.324710620,6650,DEL(0x7F),CR (0x0D),Read,NAK
2.324792920,6650,DEL(0x7F),(128)(0x80),Read,ACK
2.325060050,6652,~(0x7E),CAN(0x18),Write,ACK
2.325152630,6652,~(0x7E),NUL(0x00),Write,ACK
2.325398230,6654,~(0x7E),FF (0x0C),Write,NAK
2.325480530,6654,~(0x7E),NUL(0x00),Write,ACK
2.325736800,6656,~(0x7E),SUB(0x1A),Write,ACK
2.325829390,6656,~(0x7E),NUL(0x00),Write,ACK
2.326089500,6658,~(0x7E),CR (0x0D),Write,NAK
2.326161520,6658,~(0x7E),(128)(0x80),Write,ACK
2.326426120,6660,~(0x7E),FS (0x1C),Write,ACK
2.326518690,6660,~(0x7E),NUL(0x00),Write,ACK
2.326764600,6662,~(0x7E),GS (0x1D),Write,ACK
2.326857190,6662,~(0x7E),NUL(0x00),Write,ACK
2.327103180,6664,~(0x7E),RS (0x1E),Write,ACK
2.327195750,6664,~(0x7E),NUL(0x00),Write,ACK
2.327441190,6666,~(0x7E),US (0x1F),Write,ACK
2.327533760,6666,~(0x7E),NUL(0x00),Write,ACK
2.327779750,6668,~(0x7E),(SP)(0x20),Write,ACK
2.327872320,6668,~(0x7E),NUL(0x00),Write,ACK
2.328118330,6670,~(0x7E),!(0x21),Write,ACK
2.328210910,6670,~(0x7E),NUL(0x00),Write,ACK
2.328464630,6672,~(0x7E),!(0x21),Write,ACK
2.328546930,6672,~(0x7E),NUL(0x00),Write,ACK
2.328798390,6674,~(0x7E),#(0x23),Write,ACK
2.328890970,6674,~(0x7E),NUL(0x00),Write,ACK
2.329141730,6676,~(0x7E),$(0x24),Write,ACK
2.329234310,6676,~(0x7E),NUL(0x00),Write,ACK
2.329480400,6678,~(0x7E),SOH(0x01),Write,ACK
2.329572980,6678,~(0x7E),NUL(0x00),Write,ACK
2.329818570,6680,~(0x7E),STX(0x02),Write,ACK
2.329911160,6680,~(0x7E),NUL(0x00),Write,ACK
2.330146560,6682,~(0x7E),SOH(0x01),Write,NAK
2.330239130,6682,~(0x7E),NUL(0x00),Write,ACK
2.330494900,6684,~(0x7E),%(0x25),Write,ACK
2.330587480,6684,~(0x7E),NUL(0x00),Write,ACK
2.354544120,,DEL(0x7F),,Read,NAK
2.354616120,6686,DEL(0x7F),HT (0x09),Read,NAK
2.354708710,6686,DEL(0x7F),NUL(0x00),Read,ACK
2.356224300,6688,~(0x7E),'(0x27),Write,ACK
2.356316880,6688,~(0x7E),SOH(0x01),Write,ACK
2.356574160,6690,~(0x7E),((0x28),Write,ACK
2.356666750,6690,~(0x7E),NUL(0x00),Write,NAK
2.356912960,6692,~(0x7E),)(0x29),Write,ACK
2.357005540,6692,~(0x7E),NUL(0x00),Write,NAK
2.357260750,6694,~(0x7E),*(0x2A),Write,ACK
2.357353330,6694,~(0x7E),SOH(0x01),Write,ACK
2.357613220,6696,DEL(0x7F),NAK(0x15),Read,NAK
2.357705890,6696,DEL(0x7F),NUL(0x00),Read,NAK
2.357961430,6698,~(0x7E),,(0x2C),Write,ACK
2.358054000,6698,~(0x7E),SOH(0x01),Write,ACK
2.358348440,6700,~(0x7E),-(0x2D),Write,ACK
2.358441030,6700,~(0x7E),SOH(0x01),Write,ACK
2.358687150,6702,~(0x7E),.(0x2E),Write,ACK
2.358779710,6702,~(0x7E),SOH(0x01),Write,NAK
2.359014520,6704,DEL(0x7F),ETB(0x17),Read,NAK
2.359107110,6704,DEL(0x7F),NUL(0x00),Read,NAK
2.359370710,6706,~(0x7E),0(0x30),Write,ACK
2.359463300,6706,~(0x7E),SOH(0x01),Write,NAK
2.359709530,6708,~(0x7E),1(0x31),Write,ACK
2.359802200,6708,~(0x7E),SOH(0x01),Write,ACK
2.360047610,6710,~(0x7E),2(0x32),Write,ACK
2.360140160,6710,~(0x7E),NUL(0x00),Write,NAK
2.360385690,6712,~(0x7E),3(0x33),Write,ACK
2.360468000,6712,~(0x7E),NUL(0x00),Write,NAK
2.360724050,6714,~(0x7E),4(0x34),Write,ACK
2.360816640,6714,~(0x7E),NUL(0x00),Write,NAK
2.361062420,6716,~(0x7E),5(0x35),Write,ACK
2.361155000,6716,~(0x7E),NUL(0x00),Write,NAK
2.361406900,6718,~(0x7E),6(0x36),Write,ACK
2.361499480,6718,~(0x7E),SOH(0x01),Write,ACK
2.361741000,6720,~(0x7E),7(0x37),Write,ACK
2.361833640,6720,~(0x7E),SOH(0x01),Write,ACK
2.362079020,6722,~(0x7E),<(0x3C),Write,ACK
2.362161320,6722,~(0x7E),NUL(0x00),Write,NAK
2.362416860,6724,~(0x7E),9(0x39),Write,ACK
2.362509450,6724,~(0x7E),SOH(0x01),Write,ACK
2.362755480,6726,~(0x7E),:(0x3A),Write,ACK
2.362848150,6726,~(0x7E),SOH(0x01),Write,ACK
2.363083350,6728,~(0x7E),GS (0x1D),Write,NAK
2.363175940,6728,~(0x7E),NUL(0x00),Write,NAK
2.363420960,6730,DEL(0x7F),RS (0x1E),Read,ACK
2.363513540,6730,DEL(0x7F),NUL(0x00),Read,ACK
2.363770240,6732,~(0x7E),=(0x3D),Write,ACK
2.363862820,6732,~(0x7E),SOH(0x01),Write,ACK
2.364103540,6734,~(0x7E),>(0x3E),Write,ACK
2.364196130,6734,~(0x7E),NUL(0x00),Write,NAK
2.364441280,6736,~(0x7E),?(0x3F),Write,ACK
2.364533860,6736,~(0x7E),SOH(0x01),Write,ACK
2.364781910,6738,~(0x7E),@(0x40),Write,ACK
2.364864200,6738,~(0x7E),NUL(0x00),Write,NAK
2.365195290,6740,~(0x7E),A(0x41),Write,ACK
2.365287880,6740,~(0x7E),SOH(0x01),Write,ACK
2.365523120,6742,DEL(0x7F),!(0x21),Read,ACK
2.365615700,6742,DEL(0x7F),NUL(0x00),Read,NAK
2.365872400,6744,~(0x7E),C(0x43),Write,ACK
2.365964980,6744,~(0x7E),SOH(0x01),Write,ACK
2.366210370,6746,~(0x7E),D(0x44),Write,ACK
2.366302950,6746,~(0x7E),SOH(0x01),Write,ACK
2.366548560,6748,~(0x7E),E(0x45),Write,ACK
2.366641140,6748,~(0x7E),NUL(0x00),Write,NAK
2.366895790,6750,~(0x7E),G(0x47),Write,ACK
2.366978080,6750,~(0x7E),NUL(0x00),Write,NAK
2.367234010,6752,~(0x7E),G(0x47),Write,ACK
2.367326590,6752,~(0x7E),SOH(0x01),Write,ACK
2.367571840,6754,~(0x7E),H(0x48),Write,ACK
2.367654130,6754,~(0x7E),NUL(0x00),Write,NAK
2.367910850,6756,~(0x7E),I(0x49),Write,ACK
2.368003440,6756,~(0x7E),SOH(0x01),Write,ACK
2.368238470,6758,DEL(0x7F),DC2(0x12),Read,NAK
2.368331050,6758,DEL(0x7F),NUL(0x00),Read,ACK
2.368847980,6760,~(0x7E),STX(0x02),Write,ACK
2.368930280,6760,~(0x7E),NUL(0x00),Write,ACK
2.369201200,6762,~(0x7E),ENQ(0x05),Write,ACK
2.369293790,6762,~(0x7E),NUL(0x00),Write,ACK
2.369537490,6764,~(0x7E),ACK(0x06),Write,ACK
2.369630070,6764,~(0x7E),NUL(0x00),Write,ACK
2.369873420,6766,~(0x7E),BEL(0x07),Write,ACK
2.369966000,6766,~(0x7E),NUL(0x00),Write,ACK
2.370209490,6768,~(0x7E),BS (0x08),Write,ACK
2.370302080,6768,~(0x7E),NUL(0x00),Write,ACK
2.370545270,6770,~(0x7E),HT (0x09),Write,ACK
2.370637850,6770,~(0x7E),NUL(0x00),Write,ACK
2.370870670,6772,DEL(0x7F),ENQ(0x05),Read,ACK
2.370963240,6772,DEL(0x7F),NUL(0x00),Read,ACK
2.371215890,6774,~(0x7E),VT (0x0B),Write,ACK
2.371308470,6774,~(0x7E),NUL(0x00),Write,ACK
2.371541580,6776,DEL(0x7F),ACK(0x06),Read,ACK
2.371634160,6776,DEL(0x7F),NUL(0x00),Read,ACK
2.371887520,6778,~(0x7E),FF (0x0C),Write,NAK
2.371969810,6778,~(0x7E),c(0x63),Write,ACK
2.372224190,6780,~(0x7E),SO (0x0E),Write,ACK
2.372316770,6780,~(0x7E),a(0x61),Write,ACK
2.372559780,6782,~(0x7E),SI (0x0F),Write,ACK
2.372642080,6782,~(0x7E),NUL(0x00),Write,ACK
2.372895220,6784,~(0x7E),DLE(0x10),Write,ACK
2.372987790,6784,~(0x7E),(198)(0xC6),Write,ACK
2.373244710,6786,~(0x7E),DC1(0x11),Write,ACK
2.373337360,6786,~(0x7E),a(0x61),Write,ACK
2.373603240,6788,~(0x7E),DC2(0x12),Write,ACK
2.373695830,6788,~(0x7E),NUL(0x00),Write,ACK
2.373929130,6790,DEL(0x7F),HT (0x09),Read,NAK
2.374021710,6790,DEL(0x7F),c(0x63),Read,ACK
2.388230560,6792,~(0x7E),LF (0x0A),Write,ACK
2.388323120,6792,~(0x7E),0(0x30),Write,NAK
2.388598800,6794,~(0x7E),NAK(0x15),Write,ACK
2.388691370,6794,~(0x7E),NUL(0x00),Write,ACK
2.388938090,6796,~(0x7E),SYN(0x16),Write,ACK
2.389030670,6796,~(0x7E),NUL(0x00),Write,ACK
2.389299550,6798,~(0x7E),ETB(0x17),Write,ACK
2.389392130,6798,~(0x7E),NUL(0x00),Write,ACK
2.389649120,6800,~(0x7E),CAN(0x18),Write,ACK
2.389741710,6800,~(0x7E),NUL(0x00),Write,ACK
2.389985360,6802,~(0x7E),EM (0x19),Write,ACK
2.390077950,6802,~(0x7E),NUL(0x00),Write,ACK
2.390339920,6804,DEL(0x7F),CR (0x0D),Read,ACK
2.390432500,6804,DEL(0x7F),NUL(0x00),Read,ACK
2.390675830,6806,DEL(0x7F),CR (0x0D),Read,NAK
2.390768410,6806,DEL(0x7F),NUL(0x00),Read,ACK
2.391013230,6808,DEL(0x7F),SO (0x0E),Read,ACK
2.391105800,6808,DEL(0x7F),NUL(0x00),Read,ACK
2.391359030,6810,~(0x7E),GS (0x1D),Write,ACK
2.391451600,6810,~(0x7E),NUL(0x00),Write,ACK
2.391684790,6812,DEL(0x7F),SI (0x0F),Read,ACK
2.391777410,6812,DEL(0x7F),NUL(0x00),Read,ACK
2.392031370,6814,~(0x7E),US (0x1F),Write,NAK
2.392113700,6814,~(0x7E),NUL(0x00),Write,ACK
2.392356890,6816,DEL(0x7F),DLE(0x10),Read,ACK
2.392449470,6816,DEL(0x7F),NUL(0x00),Read,ACK
2.392692440,6818,DEL(0x7F),DLE(0x10),Read,NAK
2.392785020,6818,DEL(0x7F),NUL(0x00),Read,ACK
2.393038840,6822,~(0x7E),#(0x23),Write,ACK
2.393121130,6822,~(0x7E),NUL(0x00),Write,ACK
2.393374110,6824,~(0x7E),#(0x23),Write,ACK
2.393466700,6824,~(0x7E),NUL(0x00),Write,ACK
2.393619700,,?(0x3F),,Read,NAK
2.393691730,6826,?(0x3F),HT (0x09),Read,ACK
2.393784320,6826,?(0x3F),NUL(0x00),Read,ACK
2.393957580,,DEL(0x7F),,Read,NAK
2.394029580,6828,DEL(0x7F),NUL(0x00),Read,ACK
2.394122160,6828,DEL(0x7F),(128)(0x80),Read,ACK
2.394389050,6830,~(0x7E),STX(0x02),Write,ACK
2.394481630,6830,~(0x7E),NUL(0x00),Write,ACK
2.394726930,6832,~(0x7E),ETX(0x03),Write,ACK
2.394819510,6832,~(0x7E),NUL(0x00),Write,ACK
2.395054430,6834,DEL(0x7F),DC2(0x12),Read,NAK
2.395147010,6834,DEL(0x7F),NUL(0x00),Read,ACK
2.419364990,6836,~(0x7E),&(0x26),Write,ACK
2.419457620,6836,~(0x7E),SOH(0x01),Write,ACK
2.420885230,6838,~(0x7E),'(0x27),Write,ACK
2.420977890,6838,~(0x7E),NUL(0x00),Write,NAK
2.421225740,6840,~(0x7E),((0x28),Write,ACK
2.421318320,6840,~(0x7E),SOH(0x01),Write,ACK
2.421629840,6842,~(0x7E),)(0x29),Write,ACK
2.421722510,6842,~(0x7E),SOH(0x01),Write,ACK
2.421965970,6844,~(0x7E),*(0x2A),Write,ACK
2.422058550,6844,~(0x7E),SOH(0x01),Write,NAK
2.422352220,6846,~(0x7E),+(0x2B),Write,ACK
2.422444820,6846,~(0x7E),SOH(0x01),Write,ACK
2.422678660,6848,?(0x3F),SYN(0x16),Read,ACK
2.422771330,6848,?(0x3F),NUL(0x00),Read,ACK
2.423024620,6850,~(0x7E),-(0x2D),Write,ACK
2.423117200,6850,~(0x7E),SOH(0x01),Write,ACK
2.423360070,6852,~(0x7E),.(0x2E),Write,ACK
2.423452650,6852,~(0x7E),SOH(0x01),Write,ACK
2.423696530,6854,~(0x7E),/(0x2F),Write,NAK
2.423778820,6854,~(0x7E),NUL(0x00),Write,NAK
2.424032830,6856,~(0x7E),0(0x30),Write,ACK
2.424125400,6856,~(0x7E),SOH(0x01),Write,ACK
2.424358220,6858,?(0x3F),CAN(0x18),Read,NAK
2.424450770,6858,?(0x3F),NUL(0x00),Read,NAK
2.424704230,6860,~(0x7E),1(0x31),Write,ACK
2.424786530,6860,~(0x7E),NUL(0x00),Write,NAK
2.425039890,6862,~(0x7E),3(0x33),Write,NAK
2.425122160,6862,~(0x7E),NUL(0x00),Write,ACK
2.425376400,6864,~(0x7E),4(0x34),Write,ACK
2.425468990,6864,~(0x7E),SOH(0x01),Write,ACK
2.425712490,6866,~(0x7E),5(0x35),Write,ACK
2.425805070,6866,~(0x7E),SOH(0x01),Write,ACK
2.426046410,6868,~(0x7E),6(0x36),Write,ACK
2.426139000,6868,~(0x7E),SOH(0x01),Write,ACK
2.426388900,6870,~(0x7E),7(0x37),Write,ACK
2.426481470,6870,~(0x7E),SOH(0x01),Write,ACK
2.426725070,6872,~(0x7E),<(0x3C),Write,ACK
2.426807370,6872,~(0x7E),NUL(0x00),Write,NAK
2.427066770,6874,~(0x7E),9(0x39),Write,ACK
2.427159350,6874,~(0x7E),SOH(0x01),Write,ACK
2.427402260,6876,~(0x7E),:(0x3A),Write,ACK
2.427494840,6876,~(0x7E),SOH(0x01),Write,ACK
2.427738290,6878,~(0x7E),;(0x3B),Write,ACK
2.427830860,6878,~(0x7E),NUL(0x00),Write,NAK
2.428074200,6880,~(0x7E),<(0x3C),Write,ACK
2.428166770,6880,~(0x7E),SOH(0x01),Write,ACK
2.428412550,6882,~(0x7E),=(0x3D),Write,ACK
2.428505130,6882,~(0x7E),SOH(0x01),Write,ACK
2.428756290,6884,~(0x7E),>(0x3E),Write,ACK
2.428848870,6884,~(0x7E),SOH(0x01),Write,ACK
2.429092710,6886,~(0x7E),?(0x3F),Write,ACK
2.429185270,6886,~(0x7E),SOH(0x01),Write,ACK
2.429431860,6888,~(0x7E),@(0x40),Write,ACK
2.429524430,6888,~(0x7E),SOH(0x01),Write,ACK
2.429759520,6890,?(0x3F),(SP)(0x20),Read,NAK
2.429852100,6890,?(0x3F),NUL(0x00),Read,NAK
2.430108410,6892,~(0x7E),B(0x42),Write,ACK
2.430201000,6892,~(0x7E),SOH(0x01),Write,ACK
2.430443940,6894,~(0x7E),C(0x43),Write,ACK
2.430536520,6894,~(0x7E),SOH(0x01),Write,ACK
2.430782090,6896,~(0x7E),D(0x44),Write,ACK
2.430874670,6896,~(0x7E),SOH(0x01),Write,ACK
2.431110810,6898,?(0x3F),"(0x22),Read,NAK
2.431203390,6898,?(0x3F),NUL(0x00),Read,NAK
2.431459140,6900,~(0x7E),F(0x46),Write,ACK
2.431551740,6900,~(0x7E),SOH(0x01),Write,ACK
2.431796980,6902,~(0x7E),c(0x63),Write,NAK
2.431879340,6902,~(0x7E),NUL(0x00),Write,NAK
2.432135580,6904,~(0x7E),$(0x24),Write,ACK
2.432217880,6904,~(0x7E),NUL(0x00),Write,NAK
2.432473400,6908,~(0x7E),I(0x49),Write,ACK
2.432566060,6908,~(0x7E),SOH(0x01),Write,ACK
2.432797670,6910,DEL(0x7F),EM (0x19),Read,ACK
2.432879990,6910,DEL(0x7F),(128)(0x80),Read,ACK
2.433378750,6912,~(0x7E),STX(0x02),Write,ACK
2.433471330,6912,~(0x7E),NUL(0x00),Write,ACK
2.433723000,6914,DEL(0x7F),STX(0x02),Read,NAK
2.433815590,6914,DEL(0x7F),NUL(0x00),Read,ACK
2.434059390,6916,~(0x7E),ETX(0x03),Write,ACK
2.434151950,6916,~(0x7E),NUL(0x00),Write,ACK
2.434406290,6918,~(0x7E),BEL(0x07),Write,ACK
2.434498870,6918,~(0x7E),NUL(0x00),Write,ACK
2.434741910,6920,~(0x7E),BS (0x08),Write,ACK
2.434834490,6920,~(0x7E),NUL(0x00),Write,ACK
2.435078120,6922,~(0x7E),HT (0x09),Write,ACK
2.435170710,6922,~(0x7E),NUL(0x00),Write,ACK
2.435414170,6924,~(0x7E),EOT(0x04),Write,NAK
2.435486180,6924,~(0x7E),NUL(0x00),Write,ACK
2.435748330,6926,~(0x7E),VT (0x0B),Write,ACK
2.435840910,6926,~(0x7E),NUL(0x00),Write,ACK
2.436083710,6928,~(0x7E),FF (0x0C),Write,ACK
2.436176290,6928,~(0x7E),NUL(0x00),Write,ACK
2.436420180,6930,~(0x7E),CR (0x0D),Write,ACK
2.436512760,6930,~(0x7E),NUL(0x00),Write,ACK
2.436755590,6932,~(0x7E),SO (0x0E),Write,ACK
2.436848170,6932,~(0x7E),NUL(0x00),Write,ACK
2.437080870,6934,?(0x3F),BEL(0x07),Read,NAK
2.437173450,6934,?(0x3F),NUL(0x00),Read,ACK
2.437427860,6936,~(0x7E),DLE(0x10),Write,ACK
2.437510200,6936,~(0x7E),c(0x63),Write,ACK
2.437764020,6938,~(0x7E),DC1(0x11),Write,ACK
2.437856590,6938,~(0x7E),a(0x61),Write,ACK
2.438098070,6940,~(0x7E),DC2(0x12),Write,ACK
2.438190760,6940,~(0x7E),NUL(0x00),Write,ACK
2.452104650,6942,DEL(0x7F),HT (0x09),Read,NAK
2.452197240,6942,DEL(0x7F),c(0x63),Read,ACK
2.452468110,6944,~(0x7E),LF (0x0A),Write,ACK
2.452550410,6944,~(0x7E),0(0x30),Write,NAK
2.452805230,6946,~(0x7E),NAK(0x15),Write,ACK
2.452897810,6946,~(0x7E),NUL(0x00),Write,ACK
2.453198580,6948,~(0x7E),SYN(0x16),Write,ACK
2.453291150,6948,~(0x7E),(198)(0xC6),Write,ACK
2.453610890,6950,~(0x7E),VT (0x0B),Write,NAK
2.453693180,6950,~(0x7E),0(0x30),Write,NAK
2.453947250,6952,~(0x7E),CAN(0x18),Write,ACK
2.454039840,6952,~(0x7E),NUL(0x00),Write,ACK
2.454333820,6954,DEL(0x7F),FF (0x0C),Read,NAK
2.454426400,6954,DEL(0x7F),NUL(0x00),Read,ACK
2.454680590,6956,~(0x7E),SUB(0x1A),Write,ACK
2.454773170,6956,~(0x7E),NUL(0x00),Write,ACK
2.455006340,6958,?(0x3F),CR (0x0D),Read,NAK
2.455098920,6958,?(0x3F),NUL(0x00),Read,ACK
2.455352970,6960,~(0x7E),FS (0x1C),Write,ACK
2.455445550,6960,~(0x7E),NUL(0x00),Write,ACK
2.455689720,6962,~(0x7E),GS (0x1D),Write,ACK
2.455782300,6962,~(0x7E),NUL(0x00),Write,ACK
2.456025820,6964,~(0x7E),SI (0x0F),Write,ACK
2.456108110,6964,~(0x7E),NUL(0x00),Write,ACK
2.456361290,6966,~(0x7E),US (0x1F),Write,NAK
2.456443590,6966,~(0x7E),NUL(0x00),Write,ACK
2.456696940,6968,~(0x7E),(SP)(0x20),Write,ACK
2.456779250,6968,~(0x7E),NUL(0x00),Write,ACK
2.457032530,6970,~(0x7E),!(0x21),Write,ACK
2.457125110,6970,~(0x7E),NUL(0x00),Write,ACK
2.457371100,6972,~(0x7E),"(0x22),Write,ACK
2.457463700,6972,~(0x7E),NUL(0x00),Write,ACK
2.457709390,6974,~(0x7E),#(0x23),Write,ACK
2.457801950,6974,~(0x7E),NUL(0x00),Write,ACK
2.458043520,6976,~(0x7E),$(0x24),Write,ACK
2.458136100,6976,~(0x7E),NUL(0x00),Write,ACK
2.458382210,6978,~(0x7E),SOH(0x01),Write,ACK
2.458474790,6978,~(0x7E),NUL(0x00),Write,ACK
2.458720620,6980,~(0x7E),STX(0x02),Write,ACK
2.458813200,6980,~(0x7E),NUL(0x00),Write,ACK
2.459058530,6982,~(0x7E),ETX(0x03),Write,ACK
2.459151110,6982,~(0x7E),NUL(0x00),Write,ACK
2.459397600,6984,~(0x7E),%(0x25),Write,ACK
2.459490180,6984,~(0x7E),NUL(0x00),Write,ACK
2.482526470,6986,~(0x7E),&(0x26),Write,ACK
2.482619050,6986,~(0x7E),SOH(0x01),Write,NAK
2.484092430,6988,~(0x7E),'(0x27),Write,ACK
2.484185020,6988,~(0x7E),SOH(0x01),Write,ACK
2.484443280,6990,~(0x7E),((0x28),Write,ACK
2.484535860,6990,~(0x7E),SOH(0x01),Write,ACK
2.484787230,6992,~(0x7E),)(0x29),Write,ACK
2.484879810,6992,~(0x7E),SOH(0x01),Write,ACK
2.485125780,6994,~(0x7E),*(0x2A),Write,ACK
2.485218350,6994,~(0x7E),SOH(0x01),Write,ACK
2.485464650,6996,~(0x7E),+(0x2B),Write,ACK
2.485557230,6996,~(0x7E),NUL(0x00),Write,NAK
2.485802750,6998,~(0x7E),.(0x2E),Write,ACK
2.485874760,6998,~(0x7E),NUL(0x00),Write,ACK
2.486147520,7000,~(0x7E),-(0x2D),Write,ACK
2.486240100,7000,~(0x7E),SOH(0x01),Write,ACK
2.486485710,7002,~(0x7E),.(0x2E),Write,ACK
2.486578290,7002,~(0x7E),SOH(0x01),Write,ACK
2.486823870,7004,~(0x7E),/(0x2F),Write,ACK
2.486916450,7004,~(0x7E),SOH(0x01),Write,ACK
2.487151570,7006,DEL(0x7F),CAN(0x18),Read,ACK
2.487244150,7006,DEL(0x7F),NUL(0x00),Read,NAK
2.487553060,7008,~(0x7E),1(0x31),Write,ACK
2.487645640,7008,~(0x7E),SOH(0x01),Write,ACK
2.487891540,7010,~(0x7E),2(0x32),Write,ACK
2.487984120,7010,~(0x7E),SOH(0x01),Write,ACK
2.488229450,7012,~(0x7E),3(0x33),Write,ACK
2.488322030,7012,~(0x7E),NUL(0x00),Write,NAK
2.488567400,7014,~(0x7E),4(0x34),Write,ACK
2.488659970,7014,~(0x7E),SOH(0x01),Write,ACK
2.488906180,7016,~(0x7E),5(0x35),Write,ACK
2.488998770,7016,~(0x7E),SOH(0x01),Write,ACK
2.489237390,7018,DEL(0x7F),ESC(0x1B),Read,ACK
2.489329960,7018,DEL(0x7F),NUL(0x00),Read,NAK
2.489583470,7020,~(0x7E),7(0x37),Write,ACK
2.489676050,7020,~(0x7E),SOH(0x01),Write,ACK
2.489909100,7022,DEL(0x7F),FS (0x1C),Read,ACK
2.490001680,7022,DEL(0x7F),NUL(0x00),Read,NAK
2.490245270,7024,~(0x7E),FS (0x1C),Write,NAK
2.490337830,7024,~(0x7E),NUL(0x00),Write,ACK
2.490580770,7026,DEL(0x7F),GS (0x1D),Read,ACK
2.490673350,7026,DEL(0x7F),NUL(0x00),Read,NAK
2.490926950,7028,~(0x7E),;(0x3B),Write,ACK
2.491019530,7028,~(0x7E),SOH(0x01),Write,ACK
2.491253430,7030,~(0x7E),RS (0x1E),Write,ACK
2.491345990,7030,~(0x7E),NUL(0x00),Write,NAK
2.491596850,7032,~(0x7E),=(0x3D),Write,ACK
2.491689470,7032,~(0x7E),NUL(0x00),Write,NAK
2.491932750,7034,~(0x7E),>(0x3E),Write,ACK
2.492025330,7034,~(0x7E),SOH(0x01),Write,ACK
2.492268580,7036,~(0x7E),?(0x3F),Write,ACK
2.492361250,7036,~(0x7E),SOH(0x01),Write,ACK
2.492612910,7038,~(0x7E),@(0x40),Write,ACK
2.492705490,7038,~(0x7E),SOH(0x01),Write,ACK
2.492949200,7040,~(0x7E),@(0x40),Write,NAK
2.493031490,7040,~(0x7E),NUL(0x00),Write,NAK
2.493283770,7042,~(0x7E),B(0x42),Write,ACK
2.493376350,7042,~(0x7E),SOH(0x01),Write,ACK
2.493628960,7044,~(0x7E),p(0x70),Write,NAK
2.493700970,7044,~(0x7E),(128)(0x80),Write,ACK
2.493967410,7046,~(0x7E),b(0x62),Write,ACK
2.494049710,7046,~(0x7E),NUL(0x00),Write,NAK
2.494305500,7048,~(0x7E),F(0x46),Write,NAK
2.494387790,7048,~(0x7E),NUL(0x00),Write,NAK
2.494644000,7050,~(0x7E),F(0x46),Write,ACK
2.494736570,7050,~(0x7E),SOH(0x01),Write,ACK
2.494972130,7052,DEL(0x7F),#(0x23),Read,NAK
2.495064720,7052,DEL(0x7F),NUL(0x00),Read,NAK
2.495320210,7054,~(0x7E),H(0x48),Write,ACK
2.495412790,7054,~(0x7E),SOH(0x01),Write,ACK
2.495657350,7056,~(0x7E),I(0x49),Write,ACK
2.495749930,7056,~(0x7E),SOH(0x01),Write,ACK
2.495898810,,DEL(0x7F),,Read,NAK
2.495970820,7058,DEL(0x7F),HT (0x09),Read,ACK
2.496063390,7058,DEL(0x7F),(128)(0x80),Read,ACK
2.496584930,7060,~(0x7E),EOT(0x04),Write,ACK
2.496677510,7060,~(0x7E),NUL(0x00),Write,ACK
2.496922200,7062,~(0x7E),ENQ(0x05),Write,ACK
2.497014780,7062,~(0x7E),NUL(0x00),Write,ACK
2.497257960,7064,~(0x7E),ACK(0x06),Write,ACK
2.497350530,7064,~(0x7E),NUL(0x00),Write,ACK
2.497594500,7066,~(0x7E),BEL(0x07),Write,NAK
2.497676800,7066,~(0x7E),NUL(0x00),Write,ACK
2.497931090,7068,~(0x7E),EOT(0x04),Write,ACK
2.498013390,7068,~(0x7E),NUL(0x00),Write,ACK
2.498267030,7070,~(0x7E),HT (0x09),Write,ACK
2.498359690,7070,~(0x7E),NUL(0x00),Write,ACK
2.498603600,7072,~(0x7E),LF (0x0A),Write,ACK
2.498696230,7072,~(0x7E),NUL(0x00),Write,ACK
2.498938680,7074,~(0x7E),VT (0x0B),Write,ACK
2.499031270,7074,~(0x7E),NUL(0x00),Write,ACK
2.499274690,7076,~(0x7E),FF (0x0C),Write,ACK
2.499367260,7076,~(0x7E),NUL(0x00),Write,ACK
2.499610420,7078,~(0x7E),CR (0x0D),Write,ACK
2.499703000,7078,~(0x7E),NUL(0x00),Write,ACK
2.499946240,7080,~(0x7E),SO (0x0E),Write,ACK
2.500038810,7080,~(0x7E),NUL(0x00),Write,ACK
2.500282100,7082,~(0x7E),SI (0x0F),Write,ACK
2.500374780,7082,~(0x7E),NUL(0x00),Write,ACK
2.500617690,7084,~(0x7E),DLE(0x10),Write,ACK
2.500710270,7084,~(0x7E),(198)(0xC6),Write,ACK
2.500953350,7086,~(0x7E),DC1(0x11),Write,ACK
2.501045920,7086,~(0x7E),a(0x61),Write,ACK
2.501288940,7088,~(0x7E),DC2(0x12),Write,ACK
2.501381520,7088,~(0x7E),NUL(0x00),Write,ACK
2.501642550,7090,~(0x7E),DC3(0x13),Write,ACK
2.501735130,7090,~(0x7E),(227)(0xE3),Write,ACK
2.501979370,7092,~(0x7E),DC4(0x14),Write,ACK
2.502071950,7092,~(0x7E),a(0x61),Write,ACK
2.516145670,7094,~(0x7E),NAK(0x15),Write,ACK
2.516238250,7094,~(0x7E),NUL(0x00),Write,ACK
2.516504470,7096,~(0x7E),SYN(0x16),Write,ACK
2.516597050,7096,~(0x7E),(198)(0xC6),Write,ACK
2.516832880,7098,DEL(0x7F),VT (0x0B),Read,NAK
2.516925470,7098,DEL(0x7F),0(0x30),Read,NAK
2.517192200,7100,~(0x7E),CAN(0x18),Write,ACK
2.517284780,7100,~(0x7E),NUL(0x00),Write,ACK
2.517531000,7102,~(0x7E),EM (0x19),Write,ACK
2.517623670,7102,~(0x7E),NUL(0x00),Write,ACK
2.517869440,7104,~(0x7E),SUB(0x1A),Write,ACK
2.517962020,7104,~(0x7E),NUL(0x00),Write,ACK
2.518208030,7106,~(0x7E),ESC(0x1B),Write,ACK
2.518300640,7106,~(0x7E),NUL(0x00),Write,ACK
2.518551670,7108,~(0x7E),FS (0x1C),Write,ACK
2.518644260,7108,~(0x7E),NUL(0x00),Write,ACK
2.518890130,7110,~(0x7E),GS (0x1D),Write,ACK
2.518982710,7110,~(0x7E),NUL(0x00),Write,ACK
2.519228700,7112,~(0x7E),RS (0x1E),Write,ACK
2.519321290,7112,~(0x7E),NUL(0x00),Write,ACK
2.519566800,7114,~(0x7E),SI (0x0F),Write,NAK
2.519649180,7114,~(0x7E),NUL(0x00),Write,ACK
2.519905600,7116,~(0x7E),(SP)(0x20),Write,ACK
2.519998180,7116,~(0x7E),NUL(0x00),Write,ACK
2.520244090,7118,~(0x7E),!(0x21),Write,ACK
2.520336680,7118,~(0x7E),NUL(0x00),Write,ACK
2.520582230,7120,~(0x7E),"(0x22),Write,ACK
2.520674810,7120,~(0x7E),NUL(0x00),Write,ACK
2.520916830,7122,~(0x7E),BS (0x08),Write,NAK
2.520988900,7122,~(0x7E),(128)(0x80),Write,ACK
2.521260020,7124,~(0x7E),$(0x24),Write,ACK
2.521352600,7124,~(0x7E),NUL(0x00),Write,ACK
2.521598300,7126,~(0x7E),SOH(0x01),Write,ACK
2.521690880,7126,~(0x7E),NUL(0x00),Write,ACK
2.521936390,7128,~(0x7E),STX(0x02),Write,ACK
2.522028960,7128,~(0x7E),NUL(0x00),Write,ACK
2.522264370,7130,~(0x7E),SOH(0x01),Write,NAK
2.522356940,7130,~(0x7E),NUL(0x00),Write,ACK
2.522602370,7132,?(0x3F),DC2(0x12),Read,NAK
2.522694950,7132,?(0x3F),NUL(0x00),Read,ACK
2.547106300,7134,~(0x7E),&(0x26),Write,ACK
2.547198880,7134,~(0x7E),SOH(0x01),Write,ACK
2.549655640,7136,~(0x7E),'(0x27),Write,ACK
2.549748220,7136,~(0x7E),SOH(0x01),Write,ACK
2.550362230,7138,~(0x7E),((0x28),Write,ACK
2.550454810,7138,~(0x7E),SOH(0x01),Write,ACK
2.550692550,7140,DEL(0x7F),DC4(0x14),Read,NAK
2.550785130,7140,DEL(0x7F),NUL(0x00),Read,NAK
2.551046870,7142,~(0x7E),*(0x2A),Write,ACK
2.551139450,7142,~(0x7E),SOH(0x01),Write,ACK
2.551292440,,DEL(0x7F),,Read,NAK
2.551364440,7144,DEL(0x7F),LF (0x0A),Read,NAK
2.551457020,7144,DEL(0x7F),(128)(0x80),Read,ACK
2.551723480,7146,~(0x7E),,(0x2C),Write,ACK
2.551816070,7146,~(0x7E),SOH(0x01),Write,ACK
2.552119940,7148,~(0x7E),-(0x2D),Write,ACK
2.552212510,7148,~(0x7E),SOH(0x01),Write,ACK
2.552458370,7150,~(0x7E),.(0x2E),Write,ACK
2.552550980,7150,~(0x7E),SOH(0x01),Write,ACK
2.552797170,7152,~(0x7E),/(0x2F),Write,ACK
2.552889830,7152,~(0x7E),SOH(0x01),Write,ACK
2.553177860,7154,~(0x7E),0(0x30),Write,ACK
2.553270440,7154,~(0x7E),SOH(0x01),Write,ACK
2.553512430,7156,~(0x7E),1(0x31),Write,ACK
2.553605020,7156,~(0x7E),SOH(0x01),Write,ACK
2.553848250,7158,DEL(0x7F),EM (0x19),Read,NAK
2.553930540,7158,DEL(0x7F),NUL(0x00),Read,ACK
2.554196470,7160,~(0x7E),3(0x33),Write,ACK
2.554289060,7160,~(0x7E),SOH(0x01),Write,ACK
2.554534560,7162,~(0x7E),4(0x34),Write,ACK
2.554627150,7162,~(0x7E),NUL(0x00),Write,NAK
2.554872810,7164,~(0x7E),5(0x35),Write,ACK
2.554965390,7164,~(0x7E),SOH(0x01),Write,ACK
2.555210740,7166,~(0x7E),6(0x36),Write,ACK
2.555303320,7166,~(0x7E),SOH(0x01),Write,ACK
2.555548840,7168,~(0x7E),7(0x37),Write,ACK
2.555641420,7168,~(0x7E),NUL(0x00),Write,NAK
2.555894490,7170,~(0x7E),<(0x3C),Write,ACK
2.555976780,7170,~(0x7E),NUL(0x00),Write,NAK
2.556253200,7172,~(0x7E),<(0x3C),Write,NAK
2.556335500,7172,~(0x7E),NUL(0x00),Write,NAK
2.556599720,7174,~(0x7E),:(0x3A),Write,ACK
2.556692300,7174,~(0x7E),SOH(0x01),Write,ACK
2.556938140,7176,~(0x7E),;(0x3B),Write,ACK
2.557030720,7176,~(0x7E),SOH(0x01),Write,ACK
2.557266090,7178,?(0x3F),RS (0x1E),Read,ACK
2.557358660,7178,?(0x3F),NUL(0x00),Read,NAK
2.557615260,7180,~(0x7E),=(0x3D),Write,ACK
2.557707850,7180,~(0x7E),SOH(0x01),Write,ACK
2.557953720,7182,~(0x7E),>(0x3E),Write,ACK
2.558046380,7182,~(0x7E),SOH(0x01),Write,ACK
2.558291450,7184,~(0x7E),?(0x3F),Write,ACK
2.558384040,7184,~(0x7E),SOH(0x01),Write,ACK
2.558630420,7186,~(0x7E),@(0x40),Write,ACK
2.558723000,7186,~(0x7E),SOH(0x01),Write,ACK
2.558990700,7188,~(0x7E),A(0x41),Write,ACK
2.559083290,7188,~(0x7E),NUL(0x00),Write,NAK
2.559328780,7190,~(0x7E),B(0x42),Write,ACK
2.559421460,7190,~(0x7E),SOH(0x01),Write,ACK
2.559667600,7192,~(0x7E),C(0x43),Write,ACK
2.559760180,7192,~(0x7E),SOH(0x01),Write,ACK
2.560005760,7194,~(0x7E),D(0x44),Write,ACK
2.560098350,7194,~(0x7E),NUL(0x00),Write,NAK
2.560343780,7196,~(0x7E),E(0x45),Write,ACK
2.560436370,7196,~(0x7E),SOH(0x01),Write,ACK
2.560681720,7198,~(0x7E),F(0x46),Write,ACK
2.560774300,7198,~(0x7E),NUL(0x00),Write,NAK
2.561023370,7200,~(0x7E),G(0x47),Write,ACK
2.561115950,7200,~(0x7E),NUL(0x00),Write,NAK
2.561384760,7202,~(0x7E),H(0x48),Write,ACK
2.561477380,7202,~(0x7E),NUL(0x00),Write,NAK
2.561728720,7204,~(0x7E),I(0x49),Write,ACK
2.561821300,7204,~(0x7E),SOH(0x01),Write,ACK
2.562064710,7206,~(0x7E),%(0x25),Write,ACK
2.562157290,7206,~(0x7E),NUL(0x00),Write,ACK
2.562648880,7208,~(0x7E),STX(0x02),Write,ACK
2.562741460,7208,~(0x7E),NUL(0x00),Write,ACK
2.562997060,7210,~(0x7E),STX(0x02),Write,NAK
2.563079480,7210,~(0x7E),NUL(0x00),Write,ACK
2.563334150,7212,~(0x7E),ACK(0x06),Write,ACK
2.563426730,7212,~(0x7E),NUL(0x00),Write,ACK
2.563669800,7214,~(0x7E),BEL(0x07),Write,NAK
2.563752090,7214,~(0x7E),NUL(0x00),Write,ACK
2.563995170,7216,DEL(0x7F),EOT(0x04),Read,ACK
2.564087750,7216,DEL(0x7F),NUL(0x00),Read,ACK
2.564347190,7218,~(0x7E),HT (0x09),Write,ACK
2.564439770,7218,~(0x7E),NUL(0x00),Write,ACK
2.564707370,7220,~(0x7E),LF (0x0A),Write,ACK
2.564799950,7220,~(0x7E),NUL(0x00),Write,ACK
2.565041130,7222,DEL(0x7F),ENQ(0x05),Read,NAK
2.565133790,7222,DEL(0x7F),NUL(0x00),Read,ACK
2.565378180,7224,~(0x7E),ACK(0x06),Write,ACK
2.565470760,7224,~(0x7E),NUL(0x00),Write,ACK
2.565764080,7226,DEL(0x7F),ACK(0x06),Read,NAK
2.565856670,7226,DEL(0x7F),NUL(0x00),Read,ACK
2.566111120,7228,~(0x7E),SO (0x0E),Write,ACK
2.566203710,7228,~(0x7E),NUL(0x00),Write,ACK
2.579950590,7230,~(0x7E),SI (0x0F),Write,NAK
2.580032880,7230,~(0x7E),NUL(0x00),Write,ACK
2.580304470,7232,~(0x7E),DLE(0x10),Write,ACK
2.580397060,7232,~(0x7E),NUL(0x00),Write,ACK
2.580640980,7234,~(0x7E),BS (0x08),Write,NAK
2.580723280,7234,~(0x7E),NUL(0x00),Write,ACK
2.580976920,7236,~(0x7E),HT (0x09),Write,ACK
2.581059220,7236,~(0x7E),NUL(0x00),Write,ACK
2.581303280,7238,DEL(0x7F),HT (0x09),Read,NAK
2.581395950,7238,DEL(0x7F),c(0x63),Read,ACK
2.581651350,7240,~(0x7E),DC4(0x14),Write,ACK
2.581743930,7240,~(0x7E),a(0x61),Write,ACK
2.581988440,7242,~(0x7E),NAK(0x15),Write,ACK
2.582081010,7242,~(0x7E),NUL(0x00),Write,ACK
2.582370470,7244,~(0x7E),SYN(0x16),Write,ACK
2.582463050,7244,~(0x7E),(227)(0xE3),Write,ACK
2.582706610,7246,~(0x7E),ETB(0x17),Write,ACK
2.582799190,7246,~(0x7E),a(0x61),Write,ACK
2.583042300,7248,~(0x7E),CAN(0x18),Write,ACK
2.583134870,7248,~(0x7E),NUL(0x00),Write,ACK
2.583378250,7250,~(0x7E),EM (0x19),Write,ACK
2.583470910,7250,~(0x7E),(198)(0xC6),Write,ACK
2.583703770,7252,DEL(0x7F),CR (0x0D),Read,NAK
2.583786070,7252,DEL(0x7F),FS (0x1C),Read,ACK
2.584055780,7254,~(0x7E),ESC(0x1B),Write,ACK
2.584148360,7254,~(0x7E),NUL(0x00),Write,ACK
2.584416480,7256,~(0x7E),FS (0x1C),Write,ACK
2.584509050,7256,~(0x7E),NUL(0x00),Write,ACK
2.584760500,7258,~(0x7E),GS (0x1D),Write,ACK
2.584853080,7258,~(0x7E),NUL(0x00),Write,ACK
2.585096700,7260,~(0x7E),RS (0x1E),Write,ACK
2.585189270,7260,~(0x7E),NUL(0x00),Write,ACK
2.585437020,7262,~(0x7E),US (0x1F),Write,ACK
2.585519330,7262,~(0x7E),NUL(0x00),Write,ACK
2.585775480,7264,~(0x7E),(SP)(0x20),Write,ACK
2.585868050,7264,~(0x7E),NUL(0x00),Write,ACK
2.586113500,7266,~(0x7E),!(0x21),Write,ACK
2.586206090,7266,~(0x7E),NUL(0x00),Write,ACK
2.586468820,7268,~(0x7E),"(0x22),Write,ACK
2.586561400,7268,~(0x7E),NUL(0x00),Write,ACK
2.586804570,7270,~(0x7E),DC1(0x11),Write,NAK
2.586897160,7270,~(0x7E),NUL(0x00),Write,ACK
2.587153950,7272,~(0x7E),$(0x24),Write,ACK
2.587246530,7272,~(0x7E),NUL(0x00),Write,ACK
2.587482050,7276,DEL(0x7F),NUL(0x00),Read,NAK
2.587574620,7276,DEL(0x7F),NUL(0x00),Read,ACK
2.587830560,7278,~(0x7E),STX(0x02),Write,ACK
2.587923140,7278,~(0x7E),NUL(0x00),Write,ACK
2.588169170,7280,~(0x7E),ETX(0x03),Write,ACK
2.588261750,7280,~(0x7E),NUL(0x00),Write,ACK
2.588507550,7282,~(0x7E),%(0x25),Write,ACK
2.588600130,7282,~(0x7E),NUL(0x00),Write,ACK
2.588977360,7284,~(0x7E),&(0x26),Write,ACK
2.589069950,7284,~(0x7E),SOH(0x01),Write,ACK
2.589325750,7286,~(0x7E),'(0x27),Write,NAK
2.589408040,7286,~(0x7E),NUL(0x00),Write,NAK
2.589661880,7288,~(0x7E),((0x28),Write,ACK
2.589754450,7288,~(0x7E),SOH(0x01),Write,ACK
2.590007750,7290,~(0x7E),)(0x29),Write,ACK
2.590100340,7290,~(0x7E),SOH(0x01),Write,ACK
2.590366200,7292,~(0x7E),*(0x2A),Write,ACK
2.590458780,7292,~(0x7E),SOH(0x01),Write,ACK
2.590703020,7294,~(0x7E),+(0x2B),Write,ACK
2.590795600,7294,~(0x7E),SOH(0x01),Write,ACK
2.591038800,7296,~(0x7E),,(0x2C),Write,ACK
2.591131390,7296,~(0x7E),SOH(0x01),Write,ACK
2.591374560,7298,~(0x7E),-(0x2D),Write,ACK
2.591467150,7298,~(0x7E),SOH(0x01),Write,ACK
2.591710400,7300,~(0x7E),.(0x2E),Write,ACK
2.591802970,7300,~(0x7E),SOH(0x01),Write,ACK
2.592046240,7302,~(0x7E),/(0x2F),Write,NAK
2.592128540,7302,~(0x7E),NUL(0x00),Write,NAK
2.592384260,7304,~(0x7E),0(0x30),Write,ACK
2.592476840,7304,~(0x7E),SOH(0x01),Write,ACK
2.592743670,7306,~(0x7E),1(0x31),Write,ACK
2.592836260,7306,~(0x7E),SOH(0x01),Write,ACK
2.593087500,7308,~(0x7E),9(0x39),Write,ACK
2.593169830,7308,~(0x7E),NUL(0x00),Write,NAK
2.593425720,7310,~(0x7E),3(0x33),Write,ACK
2.593518300,7310,~(0x7E),SOH(0x01),Write,ACK
2.593764340,7312,~(0x7E),4(0x34),Write,ACK
2.593856920,7312,~(0x7E),SOH(0x01),Write,ACK
2.594091800,7314,~(0x7E),SUB(0x1A),Write,NAK
2.594184380,7314,~(0x7E),NUL(0x00),Write,NAK
2.594440350,7316,~(0x7E),6(0x36),Write,ACK
2.594532930,7316,~(0x7E),SOH(0x01),Write,ACK
2.594778570,7318,~(0x7E),;(0x3B),Write,NAK
2.594860860,7318,~(0x7E),NUL(0x00),Write,NAK
2.595106300,7320,DEL(0x7F),FS (0x1C),Read,ACK
2.595198880,7320,DEL(0x7F),NUL(0x00),Read,NAK
2.595477220,7322,~(0x7E),9(0x39),Write,ACK
2.595569800,7322,~(0x7E),SOH(0x01),Write,ACK
2.595824040,7324,~(0x7E),:(0x3A),Write,ACK
2.595916620,7324,~(0x7E),SOH(0x01),Write,ACK
2.596162350,7326,~(0x7E),;(0x3B),Write,ACK
2.596254930,7326,~(0x7E),SOH(0x01),Write,ACK
2.596500180,7328,~(0x7E),<(0x3C),Write,ACK
2.596592760,7328,~(0x7E),SOH(0x01),Write,ACK
2.596838620,7330,~(0x7E),=(0x3D),Write,ACK
2.596931200,7330,~(0x7E),NUL(0x00),Write,NAK
2.597179730,7332,~(0x7E),>(0x3E),Write,ACK
2.597272390,7332,~(0x7E),SOH(0x01),Write,ACK
2.597517840,7334,~(0x7E),?(0x3F),Write,ACK
2.597610420,7334,~(0x7E),SOH(0x01),Write,ACK
2.597857260,7336,~(0x7E),@(0x40),Write,ACK
2.597949850,7336,~(0x7E),SOH(0x01),Write,ACK
2.598205670,7338,DEL(0x7F),DLE(0x10),Read,ACK
2.598287940,7338,DEL(0x7F),(128)(0x80),Read,ACK
2.612092010,7340,~(0x7E),B(0x42),Write,ACK
2.612184600,7340,~(0x7E),SOH(0x01),Write,ACK
2.612449500,7342,~(0x7E),C(0x43),Write,ACK
2.612542080,7342,~(0x7E),SOH(0x01),Write,ACK
2.612788630,7344,~(0x7E),D(0x44),Write,ACK
2.612881200,7344,~(0x7E),SOH(0x01),Write,ACK
2.613133110,7346,~(0x7E),E(0x45),Write,ACK
2.613225600,7346,~(0x7E),SOH(0x01),Write,ACK
2.613469570,7348,~(0x7E),F(0x46),Write,ACK
2.613562170,7348,~(0x7E),SOH(0x01),Write,NAK
2.613805900,7350,~(0x7E),#(0x23),Write,NAK
2.613888220,7350,~(0x7E),NUL(0x00),Write,NAK
2.614141880,7352,~(0x7E),H(0x48),Write,ACK
2.614234460,7352,~(0x7E),SOH(0x01),Write,ACK
2.614501900,7354,~(0x7E),d(0x64),Write,NAK
2.614584190,7354,~(0x7E),NUL(0x00),Write,NAK
2.614846320,7356,~(0x7E),&(0x26),Write,NAK
2.614928610,7356,~(0x7E),NUL(0x00),Write,ACK
2.615435200,7358,DEL(0x7F),STX(0x02),Read,ACK
2.615527780,7358,DEL(0x7F),NUL(0x00),Read,ACK
2.615782820,7360,~(0x7E),ENQ(0x05),Write,ACK
2.615875400,7360,~(0x7E),NUL(0x00),Write,ACK
2.616118580,7362,~(0x7E),ACK(0x06),Write,ACK
2.616211160,7362,~(0x7E),NUL(0x00),Write,ACK
2.616444070,7364,DEL(0x7F),ETX(0x03),Read,NAK
2.616536660,7364,DEL(0x7F),NUL(0x00),Read,ACK
2.616790710,7366,~(0x7E),BS (0x08),Write,ACK
2.616883290,7366,~(0x7E),NUL(0x00),Write,ACK
2.617115940,7368,~(0x7E),EOT(0x04),Write,NAK
2.617208490,7368,~(0x7E),NUL(0x00),Write,ACK
2.617466160,7370,~(0x7E),VT (0x0B),Write,ACK
2.617548450,7370,~(0x7E),NUL(0x00),Write,ACK
2.617827920,7372,~(0x7E),VT (0x0B),Write,ACK
2.617920520,7372,~(0x7E),NUL(0x00),Write,ACK
2.618171800,7374,~(0x7E),FF (0x0C),Write,ACK
2.618264380,7374,~(0x7E),NUL(0x00),Write,ACK
2.618507920,7376,~(0x7E),CR (0x0D),Write,ACK
2.618600630,7376,~(0x7E),NUL(0x00),Write,ACK
2.618844050,7378,~(0x7E),SO (0x0E),Write,ACK
2.618936630,7378,~(0x7E),NUL(0x00),Write,ACK
2.619179790,7380,~(0x7E),SI (0x0F),Write,ACK
2.619272380,7380,~(0x7E),NUL(0x00),Write,ACK
2.619515250,7382,~(0x7E),DLE(0x10),Write,ACK
2.619607840,7382,~(0x7E),NUL(0x00),Write,ACK
2.619850840,7384,~(0x7E),DC1(0x11),Write,ACK
2.619943400,7384,~(0x7E),NUL(0x00),Write,ACK
2.620190120,7386,~(0x7E),DC2(0x12),Write,ACK
2.620282680,7386,~(0x7E),NUL(0x00),Write,ACK
2.620549660,7388,~(0x7E),DC3(0x13),Write,ACK
2.620642250,7388,~(0x7E),(198)(0xC6),Write,ACK
2.620883720,7390,DEL(0x7F),LF (0x0A),Read,ACK
2.620976300,7390,DEL(0x7F),0(0x30),Read,NAK
2.621221140,7392,DEL(0x7F),LF (0x0A),Read,NAK
2.621313820,7392,DEL(0x7F),NUL(0x00),Read,ACK
2.621567270,7394,~(0x7E),SYN(0x16),Write,ACK
2.621649560,7394,~(0x7E),c(0x63),Write,ACK
2.621893350,7396,?(0x3F),VT (0x0B),Read,NAK
2.621985940,7396,?(0x3F),0(0x30),Read,NAK
2.622239920,7398,~(0x7E),CAN(0x18),Write,ACK
2.622332500,7398,~(0x7E),NUL(0x00),Write,ACK
2.622566120,7400,DEL(0x7F),FF (0x0C),Read,NAK
2.622658710,7400,DEL(0x7F),c(0x63),Read,ACK
2.622935760,7402,~(0x7E),SUB(0x1A),Write,ACK
2.623028430,7402,~(0x7E),a(0x61),Write,ACK
2.623280010,7404,~(0x7E),ESC(0x1B),Write,ACK
2.623372590,7404,~(0x7E),NUL(0x00),Write,ACK
2.623616140,7406,~(0x7E),FS (0x1C),Write,ACK
2.623708720,7406,~(0x7E),NUL(0x00),Write,ACK
2.623942080,7408,DEL(0x7F),SO (0x0E),Read,NAK
2.624034660,7408,DEL(0x7F),NUL(0x00),Read,ACK
2.624288400,7410,~(0x7E),RS (0x1E),Write,ACK
2.624380980,7410,~(0x7E),NUL(0x00),Write,ACK
2.624624070,7412,~(0x7E),US (0x1F),Write,ACK
2.624716640,7412,~(0x7E),NUL(0x00),Write,ACK
2.624949290,7414,~(0x7E),DLE(0x10),Write,ACK
2.625041870,7414,~(0x7E),NUL(0x00),Write,ACK
2.625297190,7416,~(0x7E),(SP)(0x20),Write,NAK
2.625379490,7416,~(0x7E),NUL(0x00),Write,ACK
2.625638040,7418,~(0x7E),"(0x22),Write,ACK
2.625730610,7418,~(0x7E),NUL(0x00),Write,ACK
2.625976560,7420,~(0x7E),#(0x23),Write,ACK
2.626069140,7420,~(0x7E),NUL(0x00),Write,ACK
2.626315440,7422,~(0x7E),$(0x24),Write,ACK
2.626408020,7422,~(0x7E),NUL(0x00),Write,ACK
2.626653800,7424,~(0x7E),SOH(0x01),Write,ACK
2.626746380,7424,~(0x7E),NUL(0x00),Write,ACK
2.626981690,7426,DEL(0x7F),SOH(0x01),Read,ACK
2.627074280,7426,DEL(0x7F),NUL(0x00),Read,ACK
2.627330350,7428,~(0x7E),ETX(0x03),Write,ACK
2.627422930,7428,~(0x7E),NUL(0x00),Write,ACK
2.627670560,7430,~(0x7E),%(0x25),Write,ACK
2.627763130,7430,~(0x7E),NUL(0x00),Write,ACK
2.629186520,7432,~(0x7E),&(0x26),Write,ACK
2.629279100,7432,~(0x7E),SOH(0x01),Write,ACK
2.629515320,7434,DEL(0x7F),DC3(0x13),Read,NAK
2.629607900,7434,DEL(0x7F),NUL(0x00),Read,NAK
2.629864230,7436,~(0x7E),((0x28),Write,ACK
2.629956810,7436,~(0x7E),SOH(0x01),Write,ACK
2.630202360,7438,~(0x7E),)(0x29),Write,NAK
2.630284660,7438,~(0x7E),NUL(0x00),Write,NAK
2.643935350,7440,~(0x7E),*(0x2A),Write,ACK
2.644027940,7440,~(0x7E),SOH(0x01),Write,ACK
2.644294510,7442,~(0x7E),+(0x2B),Write,ACK
2.644387090,7442,~(0x7E),SOH(0x01),Write,ACK
2.644622980,7444,DEL(0x7F),SYN(0x16),Read,ACK
2.644715570,7444,DEL(0x7F),NUL(0x00),Read,NAK
2.644878850,,DEL(0x7F),,Read,NAK
2.644950860,7446,DEL(0x7F),VT (0x0B),Read,ACK
2.645043440,7446,DEL(0x7F),(128)(0x80),Read,ACK
2.645300070,7448,DEL(0x7F),ETB(0x17),Read,ACK
2.645392650,7448,DEL(0x7F),NUL(0x00),Read,NAK
2.645643630,7450,DEL(0x7F),ETB(0x17),Read,NAK
2.645736220,7450,DEL(0x7F),NUL(0x00),Read,NAK
2.645981530,7452,~(0x7E),CAN(0x18),Write,ACK
2.646074120,7452,~(0x7E),NUL(0x00),Write,NAK
2.646377620,7454,~(0x7E),1(0x31),Write,ACK
2.646470200,7454,~(0x7E),SOH(0x01),Write,ACK
2.646705450,7456,DEL(0x7F),EM (0x19),Read,ACK
2.646798030,7456,DEL(0x7F),NUL(0x00),Read,NAK
2.647053310,7458,~(0x7E),3(0x33),Write,ACK
2.647135610,7458,~(0x7E),NUL(0x00),Write,NAK
2.647391220,7460,~(0x7E),4(0x34),Write,ACK
2.647483800,7460,~(0x7E),SOH(0x01),Write,ACK
2.647735250,7462,~(0x7E),5(0x35),Write,ACK
2.647827830,7462,~(0x7E),SOH(0x01),Write,ACK
2.648075330,7464,~(0x7E),6(0x36),Write,ACK
2.648167910,7464,~(0x7E),SOH(0x01),Write,ACK
2.648425830,7466,~(0x7E),ESC(0x1B),Write,NAK
2.648518400,7466,~(0x7E),NUL(0x00),Write,NAK
2.648781750,7468,~(0x7E),8(0x38),Write,ACK
2.648874330,7468,~(0x7E),SOH(0x01),Write,ACK
2.649120410,7470,~(0x7E),9(0x39),Write,ACK
2.649212990,7470,~(0x7E),SOH(0x01),Write,ACK
2.649458740,7472,~(0x7E),:(0x3A),Write,ACK
2.649551330,7472,~(0x7E),NUL(0x00),Write,NAK
2.649796610,7474,~(0x7E),;(0x3B),Write,ACK
2.649889190,7474,~(0x7E),SOH(0x01),Write,ACK
2.650134290,7476,~(0x7E),<(0x3C),Write,ACK
2.650226870,7476,~(0x7E),SOH(0x01),Write,ACK
2.650472140,7478,~(0x7E),=(0x3D),Write,ACK
2.650564720,7478,~(0x7E),NUL(0x00),Write,NAK
2.650805590,7480,~(0x7E),>(0x3E),Write,ACK
2.650898170,7480,~(0x7E),SOH(0x01),Write,ACK
2.651149990,7482,~(0x7E),?(0x3F),Write,ACK
2.651242560,7482,~(0x7E),SOH(0x01),Write,ACK
2.651489180,7484,~(0x7E),@(0x40),Write,ACK
2.651581760,7484,~(0x7E),SOH(0x01),Write,ACK
2.651826870,7486,~(0x7E),A(0x41),Write,ACK
2.651919460,7486,~(0x7E),SOH(0x01),Write,ACK
2.652164730,7488,~(0x7E),B(0x42),Write,ACK
2.652257400,7488,~(0x7E),SOH(0x01),Write,ACK
2.652503500,7490,~(0x7E),C(0x43),Write,ACK
2.652596080,7490,~(0x7E),SOH(0x01),Write,ACK
2.652841720,7492,~(0x7E),D(0x44),Write,ACK
2.652934310,7492,~(0x7E),SOH(0x01),Write,ACK
2.653173150,7496,DEL(0x7F),1(0x31),Read,ACK
2.653255420,7496,DEL(0x7F),(128)(0x80),Read,ACK
2.653540610,7498,~(0x7E),F(0x46),Write,ACK
2.653633190,7498,~(0x7E),SOH(0x01),Write,ACK
2.653875760,7500,~(0x7E),#(0x23),Write,NAK
2.653968340,7500,~(0x7E),NUL(0x00),Write,NAK
2.654213540,7502,DEL(0x7F),$(0x24),Read,ACK
2.654306120,7502,DEL(0x7F),NUL(0x00),Read,NAK
2.654562930,7504,~(0x7E),I(0x49),Write,ACK
2.654655520,7504,~(0x7E),SOH(0x01),Write,ACK
2.654900890,7506,~(0x7E),%(0x25),Write,ACK
2.654993480,7506,~(0x7E),NUL(0x00),Write,ACK
2.655510270,7508,~(0x7E),EOT(0x04),Write,ACK
2.655602860,7508,~(0x7E),NUL(0x00),Write,ACK
2.655837630,7510,DEL(0x7F),STX(0x02),Read,NAK
2.655930220,7510,DEL(0x7F),NUL(0x00),Read,ACK
2.656183610,7512,~(0x7E),ACK(0x06),Write,ACK
2.656276190,7512,~(0x7E),NUL(0x00),Write,ACK
2.656519610,7514,~(0x7E),ETX(0x03),Write,NAK
2.656601910,7514,~(0x7E),NUL(0x00),Write,ACK
2.656855660,7516,~(0x7E),BS (0x08),Write,ACK
2.656948240,7516,~(0x7E),NUL(0x00),Write,ACK
2.657218950,7518,~(0x7E),HT (0x09),Write,ACK
2.657311530,7518,~(0x7E),NUL(0x00),Write,ACK
2.657555160,7520,~(0x7E),LF (0x0A),Write,ACK
2.657647920,7520,~(0x7E),NUL(0x00),Write,ACK
2.657894620,7522,~(0x7E),VT (0x0B),Write,ACK
2.657987190,7522,~(0x7E),NUL(0x00),Write,ACK
2.658237490,7524,~(0x7E),ACK(0x06),Write,ACK
2.658319760,7524,~(0x7E),NUL(0x00),Write,ACK
2.658573250,7526,~(0x7E),CR (0x0D),Write,ACK
2.658665830,7526,~(0x7E),NUL(0x00),Write,ACK
2.658899980,7528,DEL(0x7F),BEL(0x07),Read,ACK
2.658992560,7528,DEL(0x7F),NUL(0x00),Read,ACK
2.659245890,7530,~(0x7E),SI (0x0F),Write,ACK
2.659338560,7530,~(0x7E),NUL(0x00),Write,ACK
2.659582440,7532,~(0x7E),DLE(0x10),Write,ACK
2.659675100,7532,~(0x7E),NUL(0x00),Write,ACK
2.659926120,7534,~(0x7E),DC1(0x11),Write,ACK
2.660018700,7534,~(0x7E),NUL(0x00),Write,ACK
2.660286190,7538,~(0x7E),HT (0x09),Write,ACK
2.660368500,7538,~(0x7E),NUL(0x00),Write,ACK
2.660629910,7540,~(0x7E),DC3(0x13),Write,ACK
2.660722500,7540,~(0x7E),(199)(0xC7),Write,ACK
2.660956380,7542,DEL(0x7F),LF (0x0A),Read,ACK
2.661048980,7542,DEL(0x7F),0(0x30),Read,NAK
2.661302030,7544,~(0x7E),NAK(0x15),Write,ACK
2.661394610,7544,~(0x7E),NUL(0x00),Write,ACK
2.661640500,7546,DEL(0x7F),VT (0x0B),Read,ACK
2.661733080,7546,DEL(0x7F),c(0x63),Read,ACK
2.661987680,7550,~(0x7E),ETB(0x17),Write,ACK
2.662080270,7550,~(0x7E),a(0x61),Write,ACK
2.676130740,7552,~(0x7E),FF (0x0C),Write,ACK
2.676223330,7552,~(0x7E),NUL(0x00),Write,ACK
2.676488700,7554,DEL(0x7F),FF (0x0C),Read,NAK
2.676571000,7554,DEL(0x7F),(177)(0xB1),Read,NAK
2.676839690,7556,~(0x7E),SUB(0x1A),Write,ACK
2.676932280,7556,~(0x7E),a(0x61),Write,ACK
2.677187950,7558,~(0x7E),ESC(0x1B),Write,ACK
2.677280500,7558,~(0x7E),NUL(0x00),Write,ACK
2.677525700,7560,~(0x7E),FS (0x1C),Write,ACK
2.677618310,7560,~(0x7E),NUL(0x00),Write,ACK
2.677864280,7562,~(0x7E),GS (0x1D),Write,ACK
2.677956870,7562,~(0x7E),NUL(0x00),Write,ACK
2.678202450,7564,~(0x7E),RS (0x1E),Write,ACK
2.678295030,7564,~(0x7E),NUL(0x00),Write,ACK
2.678559860,7566,~(0x7E),US (0x1F),Write,ACK
2.678652440,7566,~(0x7E),NUL(0x00),Write,ACK
2.678906840,7568,~(0x7E),(SP)(0x20),Write,ACK
2.678999460,7568,~(0x7E),NUL(0x00),Write,ACK
2.679244890,7570,~(0x7E),!(0x21),Write,ACK
2.679337460,7570,~(0x7E),NUL(0x00),Write,ACK
2.679582900,7572,~(0x7E),"(0x22),Write,ACK
2.679675490,7572,~(0x7E),NUL(0x00),Write,ACK
2.679912170,7574,DEL(0x7F),BS (0x08),Read,NAK
2.679994470,7574,DEL(0x7F),(128)(0x80),Read,ACK
2.680260670,7576,~(0x7E),$(0x24),Write,ACK
2.680343050,7576,~(0x7E),NUL(0x00),Write,ACK
2.680598800,7578,~(0x7E),SOH(0x01),Write,ACK
2.680691380,7578,~(0x7E),NUL(0x00),Write,ACK
2.680940720,7580,~(0x7E),STX(0x02),Write,ACK
2.681033300,7580,~(0x7E),NUL(0x00),Write,ACK
2.681302380,7582,~(0x7E),ETX(0x03),Write,ACK
2.681394970,7582,~(0x7E),NUL(0x00),Write,ACK
2.681638250,7584,DEL(0x7F),DC2(0x12),Read,NAK
2.681730830,7584,DEL(0x7F),NUL(0x00),Read,ACK
2.683117770,7586,DEL(0x7F),DC3(0x13),Read,ACK
2.683210350,7586,DEL(0x7F),NUL(0x00),Read,NAK
2.683461750,7588,DEL(0x7F),DC3(0x13),Read,NAK
2.683554320,7588,DEL(0x7F),NUL(0x00),Read,NAK
2.683810210,7590,~(0x7E),4(0x34),Write,ACK
2.683892500,7590,~(0x7E),NUL(0x00),Write,NAK
2.684148140,7592,~(0x7E),)(0x29),Write,ACK
2.684240720,7592,~(0x7E),SOH(0x01),Write,ACK
2.684485870,7594,~(0x7E),*(0x2A),Write,ACK
2.684578450,7594,~(0x7E),SOH(0x01),Write,ACK
2.684823310,7596,~(0x7E),+(0x2B),Write,ACK
2.684915890,7596,~(0x7E),SOH(0x01),Write,ACK
2.685239950,7598,~(0x7E),SYN(0x16),Write,ACK
2.685322260,7598,~(0x7E),NUL(0x00),Write,NAK
2.685578410,7600,~(0x7E),-(0x2D),Write,ACK
2.685670990,7600,~(0x7E),SOH(0x01),Write,ACK
2.685906170,7602,~(0x7E),ETB(0x17),Write,ACK
2.685998750,7602,~(0x7E),NUL(0x00),Write,NAK
2.686255600,7604,~(0x7E),/(0x2F),Write,ACK
2.686348190,7604,~(0x7E),SOH(0x01),Write,ACK
2.686583750,7606,~(0x7E),FF (0x0C),Write,ACK
2.686666050,7606,~(0x7E),NUL(0x00),Write,ACK
2.686943370,7608,~(0x7E),1(0x31),Write,ACK
2.687035950,7608,~(0x7E),NUL(0x00),Write,NAK
2.687277250,7610,~(0x7E),8(0x38),Write,NAK
2.687349280,7610,~(0x7E),NUL(0x00),Write,ACK
2.687615450,7612,~(0x7E),3(0x33),Write,ACK
2.687708020,7612,~(0x7E),SOH(0x01),Write,ACK
2.687942900,7614,DEL(0x7F),SUB(0x1A),Read,ACK
2.688035480,7614,DEL(0x7F),NUL(0x00),Read,NAK
2.688281620,7616,~(0x7E),SUB(0x1A),Write,NAK
2.688374190,7616,~(0x7E),NUL(0x00),Write,NAK
2.688629830,7618,~(0x7E),6(0x36),Write,ACK
2.688722410,7618,~(0x7E),NUL(0x00),Write,NAK
2.688968140,7620,~(0x7E),7(0x37),Write,ACK
2.689060730,7620,~(0x7E),SOH(0x01),Write,ACK
2.689309330,7622,DEL(0x7F),FS (0x1C),Read,ACK
2.689401910,7622,DEL(0x7F),NUL(0x00),Read,NAK
2.689642640,7624,DEL(0x7F),FS (0x1C),Read,NAK
2.689735220,7624,DEL(0x7F),NUL(0x00),Read,NAK
2.689988770,7626,~(0x7E),:(0x3A),Write,ACK
2.690081350,7626,~(0x7E),SOH(0x01),Write,ACK
2.690314530,7628,~(0x7E),GS (0x1D),Write,NAK
2.690407110,7628,~(0x7E),NUL(0x00),Write,NAK
2.690660430,7630,~(0x7E),<(0x3C),Write,ACK
2.690753010,7630,~(0x7E),SOH(0x01),Write,ACK
2.690996040,7632,~(0x7E),=(0x3D),Write,ACK
2.691088630,7632,~(0x7E),SOH(0x01),Write,ACK
2.691321870,7634,?(0x3F),US (0x1F),Read,ACK
2.691414450,7634,?(0x3F),NUL(0x00),Read,NAK
2.691656880,7636,?(0x3F),US (0x1F),Read,NAK
2.691749450,7636,?(0x3F),NUL(0x00),Read,NAK
2.692000180,7638,~(0x7E),@(0x40),Write,ACK
2.692082570,7638,~(0x7E),NUL(0x00),Write,NAK
2.692335830,7640,~(0x7E),A(0x41),Write,ACK
2.692428410,7640,~(0x7E),SOH(0x01),Write,ACK
2.692672190,7642,~(0x7E),a(0x61),Write,ACK
2.692754480,7642,~(0x7E),NUL(0x00),Write,NAK
2.692997650,7644,DEL(0x7F),!(0x21),Read,NAK
2.693090230,7644,DEL(0x7F),NUL(0x00),Read,NAK
2.693346880,7646,~(0x7E),"(0x22),Write,ACK
2.693429190,7646,~(0x7E),NUL(0x00),Write,NAK
2.693702260,7648,~(0x7E),E(0x45),Write,ACK
2.693794840,7648,~(0x7E),NUL(0x00),Write,NAK
2.694036380,7650,~(0x7E),F(0x46),Write,ACK
2.694128950,7650,~(0x7E),SOH(0x01),Write,ACK
2.709232370,7652,~(0x7E),G(0x47),Write,ACK
2.709324960,7652,~(0x7E),NUL(0x00),Write,NAK
2.709653160,7654,~(0x7E),H(0x48),Write,ACK
2.709745740,7654,~(0x7E),SOH(0x01),Write,ACK
2.709992470,7656,~(0x7E),I(0x49),Write,ACK
2.710085040,7656,~(0x7E),SOH(0x01),Write,ACK
2.710292600,,DEL(0x7F),,Read,NAK
2.710364610,7658,DEL(0x7F),HT (0x09),Read,ACK
2.710457190,7658,DEL(0x7F),(128)(0x80),Read,ACK
2.710984020,7660,~(0x7E),EOT(0x04),Write,ACK
2.711076600,7660,~(0x7E),NUL(0x00),Write,ACK
2.711321820,7662,~(0x7E),ENQ(0x05),Write,ACK
2.711414400,7662,~(0x7E),NUL(0x00),Write,ACK
2.711657990,7664,~(0x7E),ACK(0x06),Write,ACK
2.711750570,7664,~(0x7E),NUL(0x00),Write,ACK
2.711993850,7666,~(0x7E),BEL(0x07),Write,ACK
2.712086430,7666,~(0x7E),NUL(0x00),Write,ACK
2.712329810,7668,~(0x7E),BS (0x08),Write,ACK
2.712422480,7668,~(0x7E),NUL(0x00),Write,ACK
2.712665810,7670,~(0x7E),HT (0x09),Write,ACK
2.712758390,7670,~(0x7E),NUL(0x00),Write,ACK
2.713004510,7672,~(0x7E),LF (0x0A),Write,ACK
2.713097120,7672,~(0x7E),NUL(0x00),Write,ACK
2.713366590,7674,~(0x7E),VT (0x0B),Write,ACK
2.713459160,7674,~(0x7E),NUL(0x00),Write,ACK
2.713701430,7676,DEL(0x7F),ACK(0x06),Read,ACK
2.713794010,7676,DEL(0x7F),NUL(0x00),Read,ACK
2.714047690,7678,~(0x7E),FF (0x0C),Write,NAK
2.714129980,7678,~(0x7E),NUL(0x00),Write,ACK
2.714383450,7680,~(0x7E),SO (0x0E),Write,ACK
2.714476030,7680,~(0x7E),NUL(0x00),Write,ACK
2.714719650,7682,~(0x7E),SI (0x0F),Write,ACK
2.714812240,7682,~(0x7E),NUL(0x00),Write,ACK
2.715055440,7684,~(0x7E),DLE(0x10),Write,ACK
2.715137740,7684,~(0x7E),NUL(0x00),Write,ACK
2.715396460,7686,~(0x7E),BS (0x08),Write,NAK
2.715478760,7686,~(0x7E),NUL(0x00),Write,ACK
2.715722160,7688,~(0x7E),HT (0x09),Write,ACK
2.715814730,7688,~(0x7E),NUL(0x00),Write,ACK
2.716067350,7690,~(0x7E),DC3(0x13),Write,ACK
2.716159920,7690,~(0x7E),NUL(0x00),Write,ACK
2.716392620,7692,DEL(0x7F),LF (0x0A),Read,ACK
2.716485210,7692,DEL(0x7F),NUL(0x00),Read,ACK
2.716739850,7696,~(0x7E),NAK(0x15),Write,ACK
2.716832430,7696,~(0x7E),NUL(0x00),Write,ACK
2.717065330,7698,DEL(0x7F),VT (0x0B),Read,ACK
2.717157910,7698,DEL(0x7F),c(0x63),Read,ACK
2.717411770,7700,~(0x7E),ETB(0x17),Write,ACK
2.717504350,7700,~(0x7E),a(0x61),Write,ACK
2.717747830,7702,~(0x7E),CAN(0x18),Write,ACK
2.717840410,7702,~(0x7E),NUL(0x00),Write,ACK
2.718073310,7704,?(0x3F),FF (0x0C),Read,NAK
2.718165990,7704,?(0x3F),c(0x63),Read,ACK
2.718444650,7706,~(0x7E),SUB(0x1A),Write,ACK
2.718537220,7706,~(0x7E),a(0x61),Write,ACK
2.718781340,7708,~(0x7E),ESC(0x1B),Write,ACK
2.718874030,7708,~(0x7E),NUL(0x00),Write,ACK
2.719117170,7710,~(0x7E),FS (0x1C),Write,ACK
2.719209750,7710,~(0x7E),(198)(0xC6),Write,ACK
2.719442660,7712,DEL(0x7F),SO (0x0E),Read,NAK
2.719535240,7712,DEL(0x7F),0(0x30),Read,NAK
2.719789140,7714,~(0x7E),RS (0x1E),Write,ACK
2.719881720,7714,~(0x7E),NUL(0x00),Write,ACK
2.720114670,7716,DEL(0x7F),SI (0x0F),Read,NAK
2.720196920,7716,DEL(0x7F),(128)(0x80),Read,ACK
2.720462970,7718,~(0x7E),(SP)(0x20),Write,ACK
2.720555550,7718,~(0x7E),NUL(0x00),Write,ACK
2.720785640,7720,DEL(0x7F),DLE(0x10),Read,NAK
2.720878230,7720,DEL(0x7F),NUL(0x00),Read,ACK
2.721121890,7722,DEL(0x7F),DC1(0x11),Read,ACK
2.721214480,7722,DEL(0x7F),NUL(0x00),Read,ACK
2.721467940,7724,~(0x7E),#(0x23),Write,ACK
2.721560520,7724,~(0x7E),NUL(0x00),Write,ACK
2.721804490,7726,~(0x7E),$(0x24),Write,ACK
2.721897070,7726,~(0x7E),NUL(0x00),Write,ACK
2.722140090,7728,~(0x7E),NUL(0x00),Write,ACK
2.722212100,7728,~(0x7E),(128)(0x80),Write,ACK
2.722465940,7730,DEL(0x7F),SOH(0x01),Read,ACK
2.722558530,7730,DEL(0x7F),NUL(0x00),Read,ACK
2.722824930,7732,~(0x7E),ETX(0x03),Write,NAK
2.722907220,7732,~(0x7E),NUL(0x00),Write,ACK
2.723147800,7734,?(0x3F),HT (0x09),Read,ACK
2.723230080,7734,?(0x3F),(128)(0x80),Read,ACK
2.724517880,,DEL(0x7F),,Read,NAK
2.724579600,7736,DEL(0x7F),(132)(0x84),Read,NAK
2.724672180,7736,DEL(0x7F),(128)(0x80),Read,ACK
2.724947070,7738,~(0x7E),'(0x27),Write,ACK
2.725039650,7738,~(0x7E),SOH(0x01),Write,ACK
2.725291080,7740,~(0x7E),4(0x34),Write,ACK
2.725373370,7740,~(0x7E),NUL(0x00),Write,NAK
2.725625370,7742,DEL(0x7F),DC4(0x14),Read,NAK
2.725717950,7742,DEL(0x7F),NUL(0x00),Read,NAK
2.725974150,7744,~(0x7E),*(0x2A),Write,ACK
2.726066730,7744,~(0x7E),SOH(0x01),Write,ACK
2.739996810,7746,~(0x7E),+(0x2B),Write,ACK
2.740089400,7746,~(0x7E),SOH(0x01),Write,ACK
2.740348190,7748,~(0x7E),,(0x2C),Write,ACK
2.740440770,7748,~(0x7E),NUL(0x00),Write,NAK
2.740687660,7750,~(0x7E),-(0x2D),Write,ACK
2.740780240,7750,~(0x7E),SOH(0x01),Write,ACK
2.741017310,7752,?(0x3F),ETB(0x17),Read,ACK
2.741109890,7752,?(0x3F),NUL(0x00),Read,NAK
2.741365420,7754,~(0x7E),/(0x2F),Write,NAK
2.741447720,7754,~(0x7E),NUL(0x00),Write,NAK
2.741702890,7756,~(0x7E),0(0x30),Write,ACK
2.741795470,7756,~(0x7E),SOH(0x01),Write,ACK
2.742049890,7758,~(0x7E),8(0x38),Write,NAK
2.742132180,7758,~(0x7E),NUL(0x00),Write,NAK
2.742389010,7760,~(0x7E),2(0x32),Write,ACK
2.742481600,7760,~(0x7E),NUL(0x00),Write,ACK
2.742727430,7762,~(0x7E),3(0x33),Write,ACK
2.742820010,7762,~(0x7E),NUL(0x00),Write,NAK
2.743066080,7764,~(0x7E),4(0x34),Write,ACK
2.743158670,7764,~(0x7E),SOH(0x01),Write,ACK
2.743393410,7766,DEL(0x7F),SUB(0x1A),Read,NAK
2.743485980,7766,DEL(0x7F),NUL(0x00),Read,NAK
2.743742000,7768,~(0x7E),7(0x37),Write,ACK
2.743824290,7768,~(0x7E),NUL(0x00),Write,ACK
2.744082710,7770,~(0x7E),7(0x37),Write,ACK
2.744175290,7770,~(0x7E),SOH(0x01),Write,ACK
2.744416630,7772,~(0x7E),8(0x38),Write,ACK
2.744509210,7772,~(0x7E),NUL(0x00),Write,NAK
2.744754600,7774,~(0x7E),9(0x39),Write,ACK
2.744847180,7774,~(0x7E),SOH(0x01),Write,ACK
2.745093440,7776,~(0x7E),:(0x3A),Write,ACK
2.745186030,7776,~(0x7E),SOH(0x01),Write,ACK
2.745431180,7778,~(0x7E),;(0x3B),Write,NAK
2.745503210,7778,~(0x7E),(128)(0x80),Write,ACK
2.745758310,7780,~(0x7E),RS (0x1E),Write,ACK
2.745850890,7780,~(0x7E),NUL(0x00),Write,NAK
2.746106680,7782,~(0x7E),=(0x3D),Write,ACK
2.746199260,7782,~(0x7E),SOH(0x01),Write,ACK
2.746449600,7784,~(0x7E),?(0x3F),Write,ACK
2.746531900,7784,~(0x7E),NUL(0x00),Write,NAK
2.746782940,7786,~(0x7E),?(0x3F),Write,ACK
2.746875520,7786,~(0x7E),SOH(0x01),Write,ACK
2.747121250,7788,~(0x7E),@(0x40),Write,ACK
2.747213840,7788,~(0x7E),SOH(0x01),Write,ACK
2.747459500,7790,~(0x7E),A(0x41),Write,ACK
2.747552070,7790,~(0x7E),SOH(0x01),Write,ACK
2.747797110,7792,~(0x7E),B(0x42),Write,ACK
2.747889700,7792,~(0x7E),NUL(0x00),Write,NAK
2.748135260,7794,~(0x7E),C(0x43),Write,ACK
2.748227830,7794,~(0x7E),SOH(0x01),Write,ACK
2.748473130,7796,~(0x7E),D(0x44),Write,ACK
2.748565700,7796,~(0x7E),SOH(0x01),Write,ACK
2.748812750,7798,~(0x7E),E(0x45),Write,ACK
2.748905330,7798,~(0x7E),SOH(0x01),Write,ACK
2.749146610,7800,~(0x7E),F(0x46),Write,ACK
2.749239180,7800,~(0x7E),SOH(0x01),Write,ACK
2.749486170,7802,~(0x7E),G(0x47),Write,ACK
2.749578750,7802,~(0x7E),SOH(0x01),Write,ACK
2.749824120,7804,~(0x7E),H(0x48),Write,ACK
2.749916710,7804,~(0x7E),SOH(0x01),Write,ACK
2.750151900,7806,DEL(0x7F),$(0x24),Read,NAK
2.750244480,7806,DEL(0x7F),NUL(0x00),Read,NAK
2.750505430,7808,~(0x7E),%(0x25),Write,ACK
2.750598000,7808,~(0x7E),NUL(0x00),Write,ACK
2.751088250,7810,~(0x7E),EOT(0x04),Write,ACK
2.751170550,7810,~(0x7E),NUL(0x00),Write,ACK
2.751425970,7812,~(0x7E),ENQ(0x05),Write,ACK
2.751518540,7812,~(0x7E),NUL(0x00),Write,ACK
2.751761720,7814,~(0x7E),ACK(0x06),Write,ACK
2.751854300,7814,~(0x7E),NUL(0x00),Write,ACK
2.752097360,7816,~(0x7E),BEL(0x07),Write,ACK
2.752189940,7816,~(0x7E),NUL(0x00),Write,ACK
2.752433410,7818,~(0x7E),BS (0x08),Write,ACK
2.752525990,7818,~(0x7E),NUL(0x00),Write,ACK
2.752768970,7820,~(0x7E),HT (0x09),Write,ACK
2.752861550,7820,~(0x7E),NUL(0x00),Write,ACK
2.753105000,7822,~(0x7E),LF (0x0A),Write,ACK
2.753197570,7822,~(0x7E),NUL(0x00),Write,ACK
2.753440450,7824,~(0x7E),ENQ(0x05),Write,NAK
2.753522760,7824,~(0x7E),NUL(0x00),Write,ACK
2.753776580,7826,~(0x7E),ACK(0x06),Write,ACK
2.753858880,7826,~(0x7E),NUL(0x00),Write,ACK
2.754112340,7828,~(0x7E),CR (0x0D),Write,ACK
2.754204920,7828,~(0x7E),NUL(0x00),Write,ACK
2.754448000,7830,~(0x7E),SO (0x0E),Write,ACK
2.754540590,7830,~(0x7E),NUL(0x00),Write,ACK
2.754784180,7832,~(0x7E),SI (0x0F),Write,ACK
2.754876770,7832,~(0x7E),NUL(0x00),Write,ACK
2.755119650,7834,~(0x7E),DLE(0x10),Write,ACK
2.755201940,7834,~(0x7E),NUL(0x00),Write,ACK
2.755464170,7836,~(0x7E),BS (0x08),Write,NAK
2.755546470,7836,~(0x7E),NUL(0x00),Write,ACK
2.755799080,7838,~(0x7E),DC2(0x12),Write,ACK
2.755891660,7838,~(0x7E),NUL(0x00),Write,ACK
2.756143170,7840,~(0x7E),DC3(0x13),Write,ACK
2.756235750,7840,~(0x7E),NUL(0x00),Write,ACK
2.756479420,7842,~(0x7E),DC4(0x14),Write,ACK
2.756571990,7842,~(0x7E),NUL(0x00),Write,ACK
2.756815820,7844,~(0x7E),NAK(0x15),Write,ACK
2.756908410,7844,~(0x7E),NUL(0x00),Write,ACK
2.757151410,7846,~(0x7E),SYN(0x16),Write,ACK
2.757243990,7846,~(0x7E),(198)(0xC6),Write,ACK
2.757488210,7848,~(0x7E),ETB(0x17),Write,ACK
2.757580920,7848,~(0x7E),a(0x61),Write,ACK
2.757824600,7850,~(0x7E),CAN(0x18),Write,ACK
2.757917220,7850,~(0x7E),NUL(0x00),Write,ACK
2.758160810,7852,~(0x7E),EM (0x19),Write,ACK
2.758253400,7852,~(0x7E),(198)(0xC6),Write,ACK
2.772173120,7854,~(0x7E),ESC(0x1B),Write,ACK
2.772255410,7854,~(0x7E),0(0x30),Write,NAK
2.772530970,7856,~(0x7E),ESC(0x1B),Write,NAK
2.772613280,7856,~(0x7E),NUL(0x00),Write,ACK
2.772869570,7858,~(0x7E),FS (0x1C),Write,ACK
2.772962150,7858,~(0x7E),(198)(0xC6),Write,ACK
2.773218330,7860,~(0x7E),GS (0x1D),Write,ACK
2.773310910,7860,~(0x7E),a(0x61),Write,ACK
2.773554230,7862,~(0x7E),US (0x1F),Write,ACK
2.773636530,7862,~(0x7E),NUL(0x00),Write,ACK
2.773890450,7864,~(0x7E),US (0x1F),Write,NAK
2.773972750,7864,~(0x7E),NUL(0x00),Write,ACK
2.774225880,7866,~(0x7E),DLE(0x10),Write,ACK
2.774308190,7866,~(0x7E),NUL(0x00),Write,ACK
2.774563050,7868,~(0x7E),!(0x21),Write,ACK
2.774655640,7868,~(0x7E),NUL(0x00),Write,ACK
2.774890250,7870,DEL(0x7F),DLE(0x10),Read,NAK
2.774972540,7870,DEL(0x7F),NUL(0x00),Read,ACK
2.775236430,7872,~(0x7E),#(0x23),Write,ACK
2.775329010,7872,~(0x7E),NUL(0x00),Write,ACK
2.775572740,7874,~(0x7E),$(0x24),Write,ACK
2.775655040,7874,~(0x7E),NUL(0x00),Write,ACK
2.775898690,7876,DEL(0x7F),NUL(0x00),Read,NAK
2.775991280,7876,DEL(0x7F),NUL(0x00),Read,ACK
2.776245020,7878,~(0x7E),STX(0x02),Write,ACK
2.776337590,7878,~(0x7E),NUL(0x00),Write,ACK
2.776581160,7880,~(0x7E),ETX(0x03),Write,ACK
2.776673730,7880,~(0x7E),NUL(0x00),Write,ACK
2.776915780,7882,~(0x7E),%(0x25),Write,ACK
2.777008380,7882,~(0x7E),NUL(0x00),Write,ACK
2.778392390,7884,~(0x7E),'(0x27),Write,ACK
2.778474770,7884,~(0x7E),NUL(0x00),Write,NAK
2.778731670,7886,~(0x7E),'(0x27),Write,NAK
2.778813960,7886,~(0x7E),NUL(0x00),Write,ACK
2.779070070,7888,~(0x7E),((0x28),Write,ACK
2.779162660,7888,~(0x7E),SOH(0x01),Write,ACK
2.779408220,7890,~(0x7E),)(0x29),Write,ACK
2.779500800,7890,~(0x7E),SOH(0x01),Write,ACK
2.779746860,7892,~(0x7E),*(0x2A),Write,ACK
2.779839470,7892,~(0x7E),NUL(0x00),Write,NAK
2.780081870,7894,~(0x7E),+(0x2B),Write,ACK
2.780174430,7894,~(0x7E),SOH(0x01),Write,ACK
2.780428360,7896,~(0x7E),,(0x2C),Write,ACK
2.780520930,7896,~(0x7E),SOH(0x01),Write,ACK
2.780774130,7898,DEL(0x7F),SYN(0x16),Read,NAK
2.780866750,7898,DEL(0x7F),NUL(0x00),Read,NAK
2.781124090,7900,~(0x7E),.(0x2E),Write,ACK
2.781216680,7900,~(0x7E),SOH(0x01),Write,ACK
2.781462520,7902,~(0x7E),/(0x2F),Write,ACK
2.781555090,7902,~(0x7E),SOH(0x01),Write,ACK
2.781800620,7904,~(0x7E),0(0x30),Write,ACK
2.781893200,7904,~(0x7E),SOH(0x01),Write,ACK
2.782129460,7906,DEL(0x7F),CAN(0x18),Read,NAK
2.782222030,7906,DEL(0x7F),NUL(0x00),Read,NAK
2.782538260,7908,~(0x7E),2(0x32),Write,ACK
2.782630840,7908,~(0x7E),SOH(0x01),Write,ACK
2.782876890,7910,~(0x7E),3(0x33),Write,ACK
2.782969560,7910,~(0x7E),SOH(0x01),Write,ACK
2.783211940,7912,~(0x7E),6(0x36),Write,ACK
2.783294320,7912,~(0x7E),NUL(0x00),Write,NAK
2.783557680,7914,~(0x7E),5(0x35),Write,ACK
2.783650280,7914,~(0x7E),SOH(0x01),Write,ACK
2.783896080,7916,~(0x7E),6(0x36),Write,ACK
2.783988670,7916,~(0x7E),NUL(0x00),Write,NAK
2.784234500,7918,~(0x7E),7(0x37),Write,NAK
2.784316790,7918,~(0x7E),NUL(0x00),Write,NAK
2.784572200,7920,~(0x7E),8(0x38),Write,ACK
2.784664780,7920,~(0x7E),SOH(0x01),Write,ACK
2.784910560,7922,~(0x7E),9(0x39),Write,ACK
2.785003150,7922,~(0x7E),SOH(0x01),Write,ACK
2.785242310,7924,DEL(0x7F),GS (0x1D),Read,ACK
2.785334890,7924,DEL(0x7F),NUL(0x00),Read,NAK
2.785590450,7926,~(0x7E),;(0x3B),Write,ACK
2.785683020,7926,~(0x7E),SOH(0x01),Write,ACK
2.785929760,7928,~(0x7E),<(0x3C),Write,ACK
2.786012070,7928,~(0x7E),NUL(0x00),Write,NAK
2.786267810,7930,~(0x7E),>(0x3E),Write,NAK
2.786350100,7930,~(0x7E),NUL(0x00),Write,NAK
2.786605420,7932,~(0x7E),>(0x3E),Write,ACK
2.786698000,7932,~(0x7E),NUL(0x00),Write,NAK
2.786943630,7934,~(0x7E),?(0x3F),Write,ACK
2.787036210,7934,~(0x7E),SOH(0x01),Write,ACK
2.787281290,7936,~(0x7E),@(0x40),Write,ACK
2.787373870,7936,~(0x7E),SOH(0x01),Write,ACK
2.787619080,7938,~(0x7E),A(0x41),Write,ACK
2.787711670,7938,~(0x7E),SOH(0x01),Write,ACK
2.787951320,7940,DEL(0x7F),!(0x21),Read,ACK
2.788043910,7940,DEL(0x7F),NUL(0x00),Read,NAK
2.788295110,7942,~(0x7E),C(0x43),Write,ACK
2.788387700,7942,~(0x7E),SOH(0x01),Write,ACK
2.788623400,7944,DEL(0x7F),"(0x22),Read,ACK
2.788715970,7944,DEL(0x7F),NUL(0x00),Read,NAK
2.788971770,7946,~(0x7E),E(0x45),Write,ACK
2.789064340,7946,~(0x7E),SOH(0x01),Write,ACK
2.789325640,7948,~(0x7E),F(0x46),Write,ACK
2.789418220,7948,~(0x7E),SOH(0x01),Write,ACK
2.789662930,7950,~(0x7E),G(0x47),Write,ACK
2.789755520,7950,~(0x7E),SOH(0x01),Write,ACK
2.789998820,7952,~(0x7E),H(0x48),Write,ACK
2.790091400,7952,~(0x7E),SOH(0x01),Write,ACK
2.804012530,7954,~(0x7E),I(0x49),Write,ACK
2.804105110,7954,~(0x7E),SOH(0x01),Write,ACK
2.804371460,7956,~(0x7E),%(0x25),Write,ACK
2.804464050,7956,~(0x7E),NUL(0x00),Write,ACK
2.804975990,7958,~(0x7E),EOT(0x04),Write,ACK
2.805068580,7958,~(0x7E),NUL(0x00),Write,ACK
2.805311940,7960,~(0x7E),ENQ(0x05),Write,ACK
2.805394270,7960,~(0x7E),NUL(0x00),Write,ACK
2.805666920,7962,~(0x7E),ACK(0x06),Write,ACK
2.805759510,7962,~(0x7E),NUL(0x00),Write,ACK
2.806003300,7964,~(0x7E),BEL(0x07),Write,ACK
2.806095880,7964,~(0x7E),NUL(0x00),Write,ACK
2.806393170,7966,~(0x7E),BS (0x08),Write,ACK
2.806485760,7966,~(0x7E),NUL(0x00),Write,ACK
2.806729190,7968,~(0x7E),HT (0x09),Write,ACK
2.806821770,7968,~(0x7E),NUL(0x00),Write,ACK
2.807065100,7970,~(0x7E),CR (0x0D),Write,ACK
2.807147390,7970,~(0x7E),NUL(0x00),Write,ACK
2.807400800,7972,~(0x7E),VT (0x0B),Write,ACK
2.807483100,7972,~(0x7E),NUL(0x00),Write,ACK
2.807738420,7974,~(0x7E),FF (0x0C),Write,ACK
2.807831000,7974,~(0x7E),NUL(0x00),Write,ACK
2.808082660,7976,~(0x7E),CR (0x0D),Write,ACK
2.808175230,7976,~(0x7E),NUL(0x00),Write,ACK
2.808419070,7978,~(0x7E),SO (0x0E),Write,ACK
2.808511650,7978,~(0x7E),NUL(0x00),Write,ACK
2.808744370,7980,DEL(0x7F),BEL(0x07),Read,NAK
2.808836950,7980,DEL(0x7F),NUL(0x00),Read,ACK
2.809080060,7982,DEL(0x7F),BS (0x08),Read,ACK
2.809172640,7982,DEL(0x7F),NUL(0x00),Read,ACK
2.809416140,7984,DEL(0x7F),BS (0x08),Read,ACK
2.809498430,7984,DEL(0x7F),(128)(0x80),Read,ACK
2.809761980,7986,~(0x7E),DC2(0x12),Write,ACK
2.809854560,7986,~(0x7E),NUL(0x00),Write,ACK
2.810103970,7988,~(0x7E),DC1(0x11),Write,NAK
2.810186270,7988,~(0x7E),NUL(0x00),Write,ACK
2.810437100,7990,~(0x7E),DC4(0x14),Write,ACK
2.810529680,7990,~(0x7E),NUL(0x00),Write,ACK
2.810773380,7992,~(0x7E),NAK(0x15),Write,ACK
2.810865960,7992,~(0x7E),NUL(0x00),Write,ACK
2.811109390,7994,~(0x7E),VT (0x0B),Write,ACK
2.811191700,7994,~(0x7E),NUL(0x00),Write,ACK
2.811352630,,DEL(0x7F),,Read,NAK
2.811424640,7996,DEL(0x7F),ENQ(0x05),Read,NAK
2.811517210,7996,DEL(0x7F),(128)(0x80),Read,ACK
2.811780930,7998,~(0x7E),FF (0x0C),Write,ACK
2.811863230,7998,~(0x7E),NUL(0x00),Write,ACK
2.812117060,8000,~(0x7E),EM (0x19),Write,ACK
2.812209640,8000,~(0x7E),(198)(0xC6),Write,ACK
2.812441450,8002,DEL(0x7F),CR (0x0D),Read,ACK
2.812534030,8002,DEL(0x7F),0(0x30),Read,NAK
2.812785310,8004,~(0x7E),ESC(0x1B),Write,ACK
2.812877880,8004,~(0x7E),NUL(0x00),Write,ACK
2.813121160,8006,~(0x7E),FS (0x1C),Write,ACK
2.813213840,8006,~(0x7E),(198)(0xC6),Write,ACK
2.813460970,8008,~(0x7E),GS (0x1D),Write,ACK
2.813553550,8008,~(0x7E),a(0x61),Write,ACK
2.813799780,8010,~(0x7E),SI (0x0F),Write,ACK
2.813882070,8010,~(0x7E),NUL(0x00),Write,ACK
2.814137730,8012,~(0x7E),US (0x1F),Write,NAK
2.814209760,8012,~(0x7E),(177)(0xB1),Write,NAK
2.814473850,8014,~(0x7E),(SP)(0x20),Write,ACK
2.814556150,8014,~(0x7E),0(0x30),Write,NAK
2.814820160,8016,~(0x7E),!(0x21),Write,ACK
2.814912740,8016,~(0x7E),NUL(0x00),Write,ACK
2.815157920,8018,~(0x7E),"(0x22),Write,ACK
2.815250500,8018,~(0x7E),NUL(0x00),Write,ACK
2.815496480,8020,~(0x7E),#(0x23),Write,ACK
2.815589050,8020,~(0x7E),NUL(0x00),Write,ACK
2.815835300,8022,~(0x7E),$(0x24),Write,ACK
2.815927880,8022,~(0x7E),NUL(0x00),Write,ACK
2.816173310,8024,~(0x7E),SOH(0x01),Write,ACK
2.816265900,8024,~(0x7E),NUL(0x00),Write,ACK
2.816511710,8026,~(0x7E),STX(0x02),Write,ACK
2.816604290,8026,~(0x7E),NUL(0x00),Write,ACK
2.816851650,8028,~(0x7E),ETX(0x03),Write,ACK
2.816944320,8028,~(0x7E),NUL(0x00),Write,ACK
2.817194650,8030,DEL(0x7F),DC2(0x12),Read,NAK
2.817287230,8030,DEL(0x7F),NUL(0x00),Read,ACK
2.818663970,8032,~(0x7E),&(0x26),Write,ACK
2.818756540,8032,~(0x7E),SOH(0x01),Write,ACK
2.819003210,8034,~(0x7E),'(0x27),Write,ACK
2.819095840,8034,~(0x7E),SOH(0x01),Write,ACK
2.819341480,8036,~(0x7E),((0x28),Write,ACK
2.819434080,8036,~(0x7E),SOH(0x01),Write,ACK
2.819679800,8038,~(0x7E),)(0x29),Write,ACK
2.819772380,8038,~(0x7E),SOH(0x01),Write,ACK
2.820017650,8040,~(0x7E),*(0x2A),Write,ACK
2.820110240,8040,~(0x7E),SOH(0x01),Write,ACK
2.820352070,8042,~(0x7E),+(0x2B),Write,ACK
2.820444660,8042,~(0x7E),SOH(0x01),Write,ACK
2.820690490,8044,~(0x7E),,(0x2C),Write,ACK
2.820783070,8044,~(0x7E),SOH(0x01),Write,ACK
2.821028330,8046,~(0x7E),-(0x2D),Write,ACK
2.821120900,8046,~(0x7E),SOH(0x01),Write,NAK
2.821361570,8048,DEL(0x7F),ETB(0x17),Read,ACK
2.821454150,8048,DEL(0x7F),NUL(0x00),Read,NAK
2.821710480,8050,~(0x7E),/(0x2F),Write,ACK
2.821792780,8050,~(0x7E),NUL(0x00),Write,NAK
2.822048900,8052,~(0x7E),0(0x30),Write,ACK
2.822141500,8052,~(0x7E),NUL(0x00),Write,NAK
2.836206560,8054,~(0x7E),1(0x31),Write,ACK
2.836299140,8054,~(0x7E),NUL(0x00),Write,NAK
2.836563290,8056,~(0x7E),2(0x32),Write,ACK
2.836655960,8056,~(0x7E),SOH(0x01),Write,ACK
2.836903110,8058,~(0x7E),3(0x33),Write,ACK
2.836995690,8058,~(0x7E),SOH(0x01),Write,ACK
2.837251500,8060,~(0x7E),4(0x34),Write,ACK
2.837333780,8060,~(0x7E),NUL(0x00),Write,NAK
2.837657950,8062,~(0x7E),5(0x35),Write,ACK
2.837750530,8062,~(0x7E),SOH(0x01),Write,ACK
2.837996760,8064,~(0x7E),6(0x36),Write,ACK
2.838089340,8064,~(0x7E),NUL(0x00),Write,NAK
2.838377920,8066,DEL(0x7F),ESC(0x1B),Read,NAK
2.838470500,8066,DEL(0x7F),NUL(0x00),Read,NAK
2.838726320,8068,~(0x7E),8(0x38),Write,ACK
2.838818900,8068,~(0x7E),SOH(0x01),Write,ACK
2.839064270,8070,~(0x7E),9(0x39),Write,ACK
2.839156850,8070,~(0x7E),SOH(0x01),Write,ACK
2.839400590,8072,~(0x7E),:(0x3A),Write,ACK
2.839493330,8072,~(0x7E),SOH(0x01),Write,ACK
2.839740000,8074,~(0x7E),9(0x39),Write,NAK
2.839822300,8074,~(0x7E),NUL(0x00),Write,NAK
2.840078850,8076,~(0x7E),<(0x3C),Write,ACK
2.840171430,8076,~(0x7E),SOH(0x01),Write,ACK
2.840417040,8078,~(0x7E),=(0x3D),Write,ACK
2.840509610,8078,~(0x7E),SOH(0x01),Write,ACK
2.840745130,8080,DEL(0x7F),US (0x1F),Read,ACK
2.840837750,8080,DEL(0x7F),NUL(0x00),Read,NAK
2.841094300,8082,~(0x7E),?(0x3F),Write,ACK
2.841186880,8082,~(0x7E),SOH(0x01),Write,ACK
2.841432150,8084,~(0x7E),@(0x40),Write,ACK
2.841524730,8084,~(0x7E),NUL(0x00),Write,NAK
2.841755790,8086,DEL(0x7F),DLE(0x10),Read,ACK
2.841848360,8086,DEL(0x7F),(128)(0x80),Read,ACK
2.842112410,8088,~(0x7E),B(0x42),Write,ACK
2.842204980,8088,~(0x7E),NUL(0x00),Write,NAK
2.842440010,8090,~(0x7E),!(0x21),Write,NAK
2.842532590,8090,~(0x7E),NUL(0x00),Write,NAK
2.842797390,8092,~(0x7E),D(0x44),Write,ACK
2.842889980,8092,~(0x7E),SOH(0x01),Write,ACK
2.843135710,8094,~(0x7E),E(0x45),Write,ACK
2.843228300,8094,~(0x7E),SOH(0x01),Write,ACK
2.843463650,8096,~(0x7E),#(0x23),Write,ACK
2.843556240,8096,~(0x7E),NUL(0x00),Write,NAK
2.843812090,8098,~(0x7E),G(0x47),Write,ACK
2.843904670,8098,~(0x7E),SOH(0x01),Write,ACK
2.844150160,8100,~(0x7E),H(0x48),Write,ACK
2.844242740,8100,~(0x7E),NUL(0x00),Write,NAK
2.844474420,8102,DEL(0x7F),$(0x24),Read,NAK
2.844567000,8102,DEL(0x7F),NUL(0x00),Read,NAK
2.844834190,8104,~(0x7E),%(0x25),Write,ACK
2.844926770,8104,~(0x7E),NUL(0x00),Write,ACK
2.845462840,8106,~(0x7E),EOT(0x04),Write,ACK
2.845555420,8106,~(0x7E),NUL(0x00),Write,ACK
2.845800490,8108,~(0x7E),ENQ(0x05),Write,ACK
2.845893070,8108,~(0x7E),NUL(0x00),Write,ACK
2.846136540,8110,~(0x7E),ACK(0x06),Write,ACK
2.846229120,8110,~(0x7E),NUL(0x00),Write,ACK
2.846473130,8112,~(0x7E),BEL(0x07),Write,ACK
2.846565710,8112,~(0x7E),NUL(0x00),Write,ACK
2.846809750,8114,~(0x7E),BS (0x08),Write,ACK
2.846902330,8114,~(0x7E),NUL(0x00),Write,ACK
2.847145660,8116,~(0x7E),HT (0x09),Write,ACK
2.847238250,8116,~(0x7E),NUL(0x00),Write,ACK
2.847483550,8118,~(0x7E),LF (0x0A),Write,ACK
2.847576130,8118,~(0x7E),NUL(0x00),Write,ACK
2.847817100,8120,~(0x7E),CR (0x0D),Write,NAK
2.847899390,8120,~(0x7E),NUL(0x00),Write,ACK
2.848152920,8122,~(0x7E),FF (0x0C),Write,ACK
2.848245510,8122,~(0x7E),NUL(0x00),Write,ACK
2.848478740,8124,DEL(0x7F),ACK(0x06),Read,NAK
2.848571310,8124,DEL(0x7F),NUL(0x00),Read,ACK
2.848814240,8126,DEL(0x7F),BEL(0x07),Read,ACK
2.848906810,8126,DEL(0x7F),NUL(0x00),Read,ACK
2.849160420,8128,~(0x7E),SI (0x0F),Write,ACK
2.849253000,8128,~(0x7E),NUL(0x00),Write,ACK
2.849486290,8130,?(0x3F),BS (0x08),Read,ACK
2.849578860,8130,?(0x3F),NUL(0x00),Read,ACK
2.849832280,8132,~(0x7E),DC1(0x11),Write,ACK
2.849924860,8132,~(0x7E),NUL(0x00),Write,ACK
2.850166440,8134,~(0x7E),HT (0x09),Write,ACK
2.850248730,8134,~(0x7E),NUL(0x00),Write,ACK
2.850502590,8136,~(0x7E),DC3(0x13),Write,ACK
2.850595170,8136,~(0x7E),NUL(0x00),Write,ACK
2.850837990,8138,~(0x7E),DC4(0x14),Write,ACK
2.850930560,8138,~(0x7E),NUL(0x00),Write,ACK
2.851174160,8140,~(0x7E),LF (0x0A),Write,NAK
2.851256520,8140,~(0x7E),NUL(0x00),Write,ACK
2.851499770,8142,DEL(0x7F),VT (0x0B),Read,ACK
2.851592340,8142,DEL(0x7F),NUL(0x00),Read,ACK
2.851845890,8144,~(0x7E),ETB(0x17),Write,ACK
2.851938570,8144,~(0x7E),NUL(0x00),Write,ACK
2.852182210,8146,~(0x7E),CAN(0x18),Write,ACK
2.852274790,8146,~(0x7E),NUL(0x00),Write,ACK
2.852505100,8148,DEL(0x7F),FF (0x0C),Read,NAK
2.852597770,8148,DEL(0x7F),c(0x63),Read,ACK
2.852852030,8150,~(0x7E),SUB(0x1A),Write,ACK
2.852944600,8150,~(0x7E),a(0x61),Write,ACK
2.853248280,8152,DEL(0x7F),FF (0x0C),Read,NAK
2.853330580,8152,DEL(0x7F),(128)(0x80),Read,ACK
2.853635230,8154,~(0x7E),FS (0x1C),Write,ACK
2.853727800,8154,~(0x7E),(198)(0xC6),Write,ACK
2.853971990,8156,~(0x7E),RS (0x1E),Write,NAK
2.854054280,8156,~(0x7E),0(0x30),Write,NAK
2.854307950,8158,~(0x7E),RS (0x1E),Write,ACK
2.854400540,8158,~(0x7E),NUL(0x00),Write,ACK
2.868405460,8160,~(0x7E),US (0x1F),Write,ACK
2.868498050,8160,~(0x7E),(198)(0xC6),Write,ACK
2.868762840,8162,~(0x7E),(SP)(0x20),Write,ACK
2.868855410,8162,~(0x7E),a(0x61),Write,ACK
2.869108560,8164,~(0x7E),!(0x21),Write,ACK
2.869201140,8164,~(0x7E),NUL(0x00),Write,ACK
2.869446640,8166,~(0x7E),"(0x22),Write,ACK
2.869539220,8166,~(0x7E),NUL(0x00),Write,ACK
2.869785000,8168,~(0x7E),#(0x23),Write,ACK
2.869877590,8168,~(0x7E),NUL(0x00),Write,ACK
2.870138710,8170,~(0x7E),$(0x24),Write,ACK
2.870231300,8170,~(0x7E),NUL(0x00),Write,ACK
2.870465160,8172,DEL(0x7F),NUL(0x00),Read,NAK
2.870557750,8172,DEL(0x7F),NUL(0x00),Read,ACK
2.870803530,8174,DEL(0x7F),SOH(0x01),Read,ACK
2.870896120,8174,DEL(0x7F),NUL(0x00),Read,ACK
2.871152080,8176,~(0x7E),ETX(0x03),Write,ACK
2.871244680,8176,~(0x7E),NUL(0x00),Write,ACK
2.871489730,8180,~(0x7E),%(0x25),Write,ACK
2.871572100,8180,~(0x7E),NUL(0x00),Write,ACK
2.872968850,8182,~(0x7E),#(0x23),Write,ACK
2.873051160,8182,~(0x7E),NUL(0x00),Write,NAK
2.873297510,8184,DEL(0x7F),DC3(0x13),Read,NAK
2.873390090,8184,DEL(0x7F),NUL(0x00),Read,NAK
2.873640280,8186,~(0x7E),((0x28),Write,ACK
2.873732870,8186,~(0x7E),NUL(0x00),Write,NAK
2.873986270,8188,~(0x7E),)(0x29),Write,ACK
2.874078850,8188,~(0x7E),SOH(0x01),Write,ACK
2.874314610,8190,DEL(0x7F),NAK(0x15),Read,ACK
2.874407190,8190,DEL(0x7F),NUL(0x00),Read,NAK
2.874652280,8192,DEL(0x7F),NAK(0x15),Read,NAK
2.874744870,8192,DEL(0x7F),NUL(0x00),Read,NAK
2.875000290,8194,~(0x7E),,(0x2C),Write,ACK
2.875092890,8194,~(0x7E),SOH(0x01),Write,ACK
2.875338480,8196,~(0x7E),-(0x2D),Write,ACK
2.875431060,8196,~(0x7E),SOH(0x01),Write,ACK
2.875676320,8198,~(0x7E),.(0x2E),Write,ACK
2.875768900,8198,~(0x7E),SOH(0x01),Write,ACK
2.876015140,8200,~(0x7E),/(0x2F),Write,ACK
2.876107720,8200,~(0x7E),SOH(0x01),Write,ACK
2.876349310,8202,~(0x7E),8(0x38),Write,ACK
2.876431610,8202,~(0x7E),NUL(0x00),Write,NAK
2.876720360,8204,~(0x7E),8(0x38),Write,NAK
2.876802640,8204,~(0x7E),NUL(0x00),Write,ACK
2.877048760,8206,DEL(0x7F),EM (0x19),Read,ACK
2.877141400,8206,DEL(0x7F),NUL(0x00),Read,NAK
2.877401150,8208,~(0x7E),3(0x33),Write,ACK
2.877493740,8208,~(0x7E),SOH(0x01),Write,ACK
2.877728730,8210,DEL(0x7F),SUB(0x1A),Read,ACK
2.877821390,8210,DEL(0x7F),NUL(0x00),Read,ACK
2.878077590,8212,~(0x7E),:(0x3A),Write,NAK
2.878159880,8212,~(0x7E),NUL(0x00),Write,NAK
2.878415820,8214,~(0x7E),6(0x36),Write,ACK
2.878508400,8214,~(0x7E),SOH(0x01),Write,ACK
2.878764060,8216,~(0x7E),7(0x37),Write,ACK
2.878856720,8216,~(0x7E),SOH(0x01),Write,ACK
2.879098000,8218,~(0x7E),8(0x38),Write,ACK
2.879190580,8218,~(0x7E),SOH(0x01),Write,ACK
2.879436530,8220,~(0x7E),9(0x39),Write,ACK
2.879529120,8220,~(0x7E),SOH(0x01),Write,ACK
2.879774660,8222,~(0x7E),:(0x3A),Write,ACK
2.879867370,8222,~(0x7E),SOH(0x01),Write,ACK
2.880113330,8224,~(0x7E),;(0x3B),Write,ACK
2.880205900,8224,~(0x7E),NUL(0x00),Write,NAK
2.880451650,8226,~(0x7E),<(0x3C),Write,ACK
2.880544240,8226,~(0x7E),SOH(0x01),Write,ACK
2.880789510,8228,~(0x7E),RS (0x1E),Write,NAK
2.880871810,8228,~(0x7E),NUL(0x00),Write,NAK
2.881128300,8230,~(0x7E),>(0x3E),Write,ACK
2.881220980,8230,~(0x7E),SOH(0x01),Write,ACK
2.881462740,8232,~(0x7E),?(0x3F),Write,ACK
2.881555320,8232,~(0x7E),SOH(0x01),Write,ACK
2.881813730,8234,~(0x7E),@(0x40),Write,ACK
2.881906320,8234,~(0x7E),SOH(0x01),Write,ACK
2.882149810,8236,~(0x7E),A(0x41),Write,ACK
2.882242390,8236,~(0x7E),SOH(0x01),Write,ACK
2.882486040,8238,~(0x7E),B(0x42),Write,ACK
2.882578710,8238,~(0x7E),NUL(0x00),Write,NAK
2.882821820,8240,~(0x7E),C(0x43),Write,ACK
2.882914390,8240,~(0x7E),SOH(0x01),Write,ACK
2.883147250,8242,?(0x3F),"(0x22),Read,ACK
2.883239800,8242,?(0x3F),NUL(0x00),Read,NAK
2.883400610,,DEL(0x7F),,Read,NAK
2.883472620,8244,DEL(0x7F),DC1(0x11),Read,ACK
2.883565190,8244,DEL(0x7F),(128)(0x80),Read,ACK
2.883817640,8246,DEL(0x7F),#(0x23),Read,ACK
2.883910220,8246,DEL(0x7F),NUL(0x00),Read,NAK
2.884153350,8248,DEL(0x7F),#(0x23),Read,NAK
2.884245940,8248,DEL(0x7F),NUL(0x00),Read,NAK
2.884489140,8250,DEL(0x7F),$(0x24),Read,ACK
2.884581720,8250,DEL(0x7F),NUL(0x00),Read,NAK
2.884835260,8252,~(0x7E),I(0x49),Write,ACK
2.884927840,8252,~(0x7E),SOH(0x01),Write,ACK
2.885269630,8254,~(0x7E),%(0x25),Write,ACK
2.885362210,8254,~(0x7E),NUL(0x00),Write,ACK
2.885888020,8256,~(0x7E),EOT(0x04),Write,ACK
2.885980600,8256,~(0x7E),NUL(0x00),Write,ACK
2.886225260,8258,~(0x7E),ENQ(0x05),Write,ACK
2.886317840,8258,~(0x7E),NUL(0x00),Write,ACK
2.899950800,8260,~(0x7E),ETX(0x03),Write,ACK
2.900043410,8260,~(0x7E),NUL(0x00),Write,ACK
2.900315270,8262,~(0x7E),BEL(0x07),Write,ACK
2.900407850,8262,~(0x7E),NUL(0x00),Write,ACK
2.900651280,8264,~(0x7E),BS (0x08),Write,ACK
2.900743860,8264,~(0x7E),NUL(0x00),Write,ACK
2.900894330,,DEL(0x7F),,Read,NAK
2.900966350,8268,DEL(0x7F),STX(0x02),Read,ACK
2.901058920,8268,DEL(0x7F),(128)(0x80),Read,ACK
2.901322010,8270,DEL(0x7F),ENQ(0x05),Read,ACK
2.901414600,8270,DEL(0x7F),NUL(0x00),Read,ACK
2.901685590,8272,~(0x7E),VT (0x0B),Write,ACK
2.901778250,8272,~(0x7E),NUL(0x00),Write,ACK
2.902021840,8274,~(0x7E),FF (0x0C),Write,ACK
2.902114420,8274,~(0x7E),NUL(0x00),Write,ACK
2.902401660,8276,~(0x7E),CR (0x0D),Write,ACK
2.902494240,8276,~(0x7E),NUL(0x00),Write,ACK
2.902738100,8278,~(0x7E),SI (0x0F),Write,ACK
2.902820400,8278,~(0x7E),NUL(0x00),Write,ACK
2.903073590,8280,~(0x7E),SI (0x0F),Write,ACK
2.903166160,8280,~(0x7E),NUL(0x00),Write,ACK
2.903409610,8282,~(0x7E),DLE(0x10),Write,ACK
2.903491910,8282,~(0x7E),NUL(0x00),Write,ACK
2.903751310,8284,~(0x7E),DC1(0x11),Write,ACK
2.903843880,8284,~(0x7E),NUL(0x00),Write,ACK
2.904087140,8286,~(0x7E),DC2(0x12),Write,ACK
2.904179720,8286,~(0x7E),NUL(0x00),Write,ACK
2.904422910,8288,~(0x7E),DC3(0x13),Write,ACK
2.904515490,8288,~(0x7E),NUL(0x00),Write,ACK
2.904757910,8290,~(0x7E),DC4(0x14),Write,ACK
2.904850480,8290,~(0x7E),NUL(0x00),Write,ACK
2.905093410,8292,~(0x7E),SYN(0x16),Write,NAK
2.905175710,8292,~(0x7E),NUL(0x00),Write,ACK
2.905433330,8294,~(0x7E),SYN(0x16),Write,ACK
2.905525910,8294,~(0x7E),NUL(0x00),Write,ACK
2.905771730,8296,~(0x7E),ETB(0x17),Write,ACK
2.905864310,8296,~(0x7E),NUL(0x00),Write,ACK
2.906109880,8298,~(0x7E),CAN(0x18),Write,ACK
2.906192180,8298,~(0x7E),NUL(0x00),Write,ACK
2.906437830,8300,?(0x3F),FF (0x0C),Read,NAK
2.906530410,8300,?(0x3F),NUL(0x00),Read,ACK
2.906776180,8302,DEL(0x7F),CR (0x0D),Read,ACK
2.906868760,8302,DEL(0x7F),NUL(0x00),Read,ACK
2.907121210,8304,~(0x7E),ESC(0x1B),Write,ACK
2.907213790,8304,~(0x7E),NUL(0x00),Write,ACK
2.907459430,8306,~(0x7E),SO (0x0E),Write,ACK
2.907541730,8306,~(0x7E),c(0x63),Write,ACK
2.907798070,8308,~(0x7E),GS (0x1D),Write,ACK
2.907890650,8308,~(0x7E),a(0x61),Write,ACK
2.908135980,8310,~(0x7E),RS (0x1E),Write,ACK
2.908228570,8310,~(0x7E),NUL(0x00),Write,ACK
2.908474100,8312,~(0x7E),US (0x1F),Write,ACK
2.908566680,8312,~(0x7E),(198)(0xC6),Write,ACK
2.908802620,8314,DEL(0x7F),DLE(0x10),Read,ACK
2.908895190,8314,DEL(0x7F),0(0x30),Read,NAK
2.909140950,8316,~(0x7E),DLE(0x10),Write,NAK
2.909233540,8316,~(0x7E),NUL(0x00),Write,ACK
2.909486420,8318,~(0x7E),"(0x22),Write,ACK
2.909579000,8318,~(0x7E),(198)(0xC6),Write,ACK
2.909825740,8320,~(0x7E),#(0x23),Write,ACK
2.909918330,8320,~(0x7E),a(0x61),Write,ACK
2.910163540,8322,~(0x7E),$(0x24),Write,ACK
2.910256110,8322,~(0x7E),NUL(0x00),Write,ACK
2.910502490,8324,~(0x7E),NUL(0x00),Write,NAK
2.910584790,8324,~(0x7E),NUL(0x00),Write,ACK
2.910840730,8326,~(0x7E),STX(0x02),Write,ACK
2.910933310,8326,~(0x7E),NUL(0x00),Write,ACK
2.911178870,8328,~(0x7E),ETX(0x03),Write,ACK
2.911271460,8328,~(0x7E),NUL(0x00),Write,ACK
2.911518340,8330,~(0x7E),%(0x25),Write,ACK
2.911610940,8330,~(0x7E),NUL(0x00),Write,ACK
2.932168540,8332,~(0x7E),&(0x26),Write,ACK
2.932261210,8332,~(0x7E),SOH(0x01),Write,ACK
2.932528520,8334,~(0x7E),'(0x27),Write,ACK
2.932621110,8334,~(0x7E),SOH(0x01),Write,ACK
2.932857700,8336,DEL(0x7F),DC4(0x14),Read,ACK
2.932929700,8336,DEL(0x7F),NUL(0x00),Read,ACK
2.933216640,8338,~(0x7E),)(0x29),Write,ACK
2.933309210,8338,~(0x7E),SOH(0x01),Write,ACK
2.933552480,8340,~(0x7E),*(0x2A),Write,ACK
2.933645060,8340,~(0x7E),SOH(0x01),Write,ACK
2.933888360,8342,~(0x7E),+(0x2B),Write,ACK
2.933980950,8342,~(0x7E),SOH(0x01),Write,ACK
2.934224840,8344,~(0x7E),,(0x2C),Write,ACK
2.934317430,8344,~(0x7E),SOH(0x01),Write,ACK
2.934562280,8346,~(0x7E),-(0x2D),Write,ACK
2.934654870,8346,~(0x7E),NUL(0x00),Write,NAK
2.934898930,8348,~(0x7E),ETB(0x17),Write,ACK
2.934981230,8348,~(0x7E),NUL(0x00),Write,NAK
2.935224450,8350,DEL(0x7F),ETB(0x17),Read,NAK
2.935317030,8350,DEL(0x7F),NUL(0x00),Read,NAK
2.935570460,8352,~(0x7E),0(0x30),Write,ACK
2.935652760,8352,~(0x7E),NUL(0x00),Write,NAK
2.935906690,8354,~(0x7E),1(0x31),Write,ACK
2.935999270,8354,~(0x7E),SOH(0x01),Write,ACK
2.936242800,8356,~(0x7E),2(0x32),Write,ACK
2.936335380,8356,~(0x7E),SOH(0x01),Write,ACK
2.936578290,8358,~(0x7E),3(0x33),Write,ACK
2.936670870,8358,~(0x7E),SOH(0x01),Write,ACK
2.936912360,8360,~(0x7E),:(0x3A),Write,ACK
2.936994650,8360,~(0x7E),NUL(0x00),Write,NAK
2.937260570,8362,~(0x7E),5(0x35),Write,ACK
2.937353130,8362,~(0x7E),SOH(0x01),Write,ACK
2.937596320,8364,~(0x7E),6(0x36),Write,ACK
2.937688940,8364,~(0x7E),SOH(0x01),Write,ACK
2.937932250,8366,~(0x7E),7(0x37),Write,ACK
2.938024910,8366,~(0x7E),SOH(0x01),Write,ACK
2.938268570,8368,~(0x7E),<(0x3C),Write,ACK
2.938350870,8368,~(0x7E),NUL(0x00),Write,ACK
2.938604150,8370,~(0x7E),9(0x39),Write,ACK
2.938696740,8370,~(0x7E),SOH(0x01),Write,ACK
2.938939800,8372,~(0x7E),=(0x3D),Write,ACK
2.939022090,8372,~(0x7E),NUL(0x00),Write,NAK
2.939265860,8374,DEL(0x7F),GS (0x1D),Read,NAK
2.939358410,8374,DEL(0x7F),NUL(0x00),Read,NAK
2.939612050,8376,~(0x7E),<(0x3C),Write,ACK
2.939704640,8376,~(0x7E),SOH(0x01),Write,ACK
2.939947800,8378,~(0x7E),=(0x3D),Write,ACK
2.940040380,8378,~(0x7E),SOH(0x01),Write,ACK
2.940284320,8380,~(0x7E),>(0x3E),Write,ACK
2.940376900,8380,~(0x7E),SOH(0x01),Write,ACK
2.940620030,8382,~(0x7E),?(0x3F),Write,ACK
2.940712590,8382,~(0x7E),SOH(0x01),Write,ACK
2.940955820,8384,~(0x7E),@(0x40),Write,ACK
2.941048410,8384,~(0x7E),SOH(0x01),Write,ACK
2.941296720,8386,~(0x7E),@(0x40),Write,NAK
2.941379010,8386,~(0x7E),NUL(0x00),Write,NAK
2.941635440,8388,~(0x7E),B(0x42),Write,ACK
2.941728030,8388,~(0x7E),NUL(0x00),Write,NAK
2.941973490,8390,~(0x7E),C(0x43),Write,ACK
2.942066070,8390,~(0x7E),SOH(0x01),Write,ACK
2.942311970,8392,~(0x7E),b(0x62),Write,ACK
2.942394260,8392,~(0x7E),NUL(0x00),Write,NAK
2.942650730,8394,~(0x7E),b(0x62),Write,NAK
2.942733030,8394,~(0x7E),NUL(0x00),Write,NAK
2.942978580,8396,DEL(0x7F),#(0x23),Read,ACK
2.943071150,8396,DEL(0x7F),NUL(0x00),Read,NAK
2.943322900,8398,~(0x7E),G(0x47),Write,ACK
2.943415490,8398,~(0x7E),SOH(0x01),Write,ACK
2.943650890,8400,~(0x7E),$(0x24),Write,ACK
2.943743460,8400,~(0x7E),NUL(0x00),Write,NAK
2.943999130,8402,~(0x7E),H(0x48),Write,NAK
2.944081430,8402,~(0x7E),NUL(0x00),Write,NAK
2.944331630,8404,DEL(0x7F),DC2(0x12),Read,NAK
2.944424200,8404,DEL(0x7F),NUL(0x00),Read,ACK
2.944921230,8406,~(0x7E),STX(0x02),Write,ACK
2.945013810,8406,~(0x7E),NUL(0x00),Write,ACK
2.945283740,8408,~(0x7E),ENQ(0x05),Write,ACK
2.945376320,8408,~(0x7E),NUL(0x00),Write,ACK
2.945620760,8410,~(0x7E),ACK(0x06),Write,ACK
2.945713350,8410,~(0x7E),NUL(0x00),Write,ACK
2.945946710,8412,DEL(0x7F),ETX(0x03),Read,NAK
2.946029000,8412,DEL(0x7F),(128)(0x80),Read,ACK
2.946292410,8414,~(0x7E),BS (0x08),Write,ACK
2.946385000,8414,~(0x7E),NUL(0x00),Write,ACK
2.946618200,8416,DEL(0x7F),EOT(0x04),Read,NAK
2.946710770,8416,DEL(0x7F),NUL(0x00),Read,ACK
2.946953820,8418,?(0x3F),ENQ(0x05),Read,ACK
2.947046400,8418,?(0x3F),NUL(0x00),Read,ACK
2.947299050,8420,~(0x7E),VT (0x0B),Write,ACK
2.947391640,8420,~(0x7E),NUL(0x00),Write,ACK
2.947625270,8422,~(0x7E),ACK(0x06),Write,ACK
2.947717840,8422,~(0x7E),NUL(0x00),Write,ACK
2.947971420,8424,~(0x7E),CR (0x0D),Write,ACK
2.948064000,8424,~(0x7E),NUL(0x00),Write,ACK
2.948306800,8426,~(0x7E),SO (0x0E),Write,ACK
2.948399380,8426,~(0x7E),NUL(0x00),Write,ACK
2.948642820,8428,~(0x7E),SI (0x0F),Write,ACK
2.948735420,8428,~(0x7E),NUL(0x00),Write,ACK
2.948978430,8430,~(0x7E),DLE(0x10),Write,ACK
2.949071010,8430,~(0x7E),NUL(0x00),Write,ACK
2.949315780,8432,~(0x7E),DC1(0x11),Write,NAK
2.949398070,8432,~(0x7E),NUL(0x00),Write,ACK
2.949653440,8434,DEL(0x7F),BS (0x08),Read,NAK
2.949735730,8434,DEL(0x7F),NUL(0x00),Read,ACK
2.949999890,8436,~(0x7E),DC3(0x13),Write,NAK
2.950082190,8436,~(0x7E),NUL(0x00),Write,ACK
2.964199160,8438,~(0x7E),DC4(0x14),Write,ACK
2.964291740,8438,~(0x7E),NUL(0x00),Write,ACK
2.964559010,8440,~(0x7E),NAK(0x15),Write,ACK
2.964651590,8440,~(0x7E),NUL(0x00),Write,ACK
2.964887440,8442,?(0x3F),VT (0x0B),Read,ACK
2.964980020,8442,?(0x3F),NUL(0x00),Read,ACK
2.965246900,8444,~(0x7E),ETB(0x17),Write,ACK
2.965339490,8444,~(0x7E),NUL(0x00),Write,ACK
2.965574890,8446,DEL(0x7F),FF (0x0C),Read,ACK
2.965667480,8446,DEL(0x7F),NUL(0x00),Read,ACK
2.965923680,8448,~(0x7E),EM (0x19),Write,ACK
2.966016260,8448,~(0x7E),NUL(0x00),Write,ACK
2.966255930,8450,DEL(0x7F),CR (0x0D),Read,ACK
2.966348510,8450,DEL(0x7F),NUL(0x00),Read,ACK
2.966601540,8452,~(0x7E),ESC(0x1B),Write,ACK
2.966694120,8452,~(0x7E),NUL(0x00),Write,ACK
2.966939820,8454,~(0x7E),FS (0x1C),Write,ACK
2.967032390,8454,~(0x7E),(198)(0xC6),Write,ACK
2.967277680,8456,~(0x7E),GS (0x1D),Write,ACK
2.967370260,8456,~(0x7E),a(0x61),Write,ACK
2.967646530,8458,~(0x7E),RS (0x1E),Write,ACK
2.967728830,8458,~(0x7E),NUL(0x00),Write,ACK
2.967985070,8460,~(0x7E),US (0x1F),Write,ACK
2.968077650,8460,~(0x7E),(198)(0xC6),Write,ACK
2.968322940,8462,~(0x7E),(SP)(0x20),Write,ACK
2.968394980,8462,~(0x7E),CAN(0x18),Write,ACK
2.968662230,8464,~(0x7E),!(0x21),Write,ACK
2.968754800,8464,~(0x7E),NUL(0x00),Write,ACK
2.968990340,8466,DEL(0x7F),DC1(0x11),Read,ACK
2.969082930,8466,DEL(0x7F),c(0x63),Read,ACK
2.969349310,8468,~(0x7E),DC1(0x11),Write,NAK
2.969441890,8468,~(0x7E),0(0x30),Write,NAK
2.969698560,8470,~(0x7E),$(0x24),Write,ACK
2.969791150,8470,~(0x7E),NUL(0x00),Write,ACK
2.970036780,8472,~(0x7E),SOH(0x01),Write,ACK
2.970129370,8472,~(0x7E),NUL(0x00),Write,ACK
2.970374420,8474,~(0x7E),STX(0x02),Write,ACK
2.970467000,8474,~(0x7E),NUL(0x00),Write,ACK
2.970712590,8476,~(0x7E),ETX(0x03),Write,ACK
2.970805140,8476,~(0x7E),NUL(0x00),Write,ACK
2.971040440,8478,DEL(0x7F),DC2(0x12),Read,NAK
2.971133020,8478,DEL(0x7F),NUL(0x00),Read,ACK
2.972525400,8480,~(0x7E),&(0x26),Write,ACK
2.972617990,8480,~(0x7E),SOH(0x01),Write,ACK
2.972865050,8482,~(0x7E),'(0x27),Write,NAK
2.972947350,8482,~(0x7E),NUL(0x00),Write,NAK
2.973206590,8484,~(0x7E),((0x28),Write,ACK
2.973299180,8484,~(0x7E),SOH(0x01),Write,ACK
2.973544380,8486,~(0x7E),)(0x29),Write,ACK
2.973636960,8486,~(0x7E),SOH(0x01),Write,ACK
2.973882630,8488,~(0x7E),*(0x2A),Write,ACK
2.973975220,8488,~(0x7E),NUL(0x00),Write,NAK
2.974220410,8490,~(0x7E),NAK(0x15),Write,NAK
2.974302710,8490,~(0x7E),NUL(0x00),Write,NAK
2.974548550,8492,DEL(0x7F),SYN(0x16),Read,ACK
2.974641130,8492,DEL(0x7F),NUL(0x00),Read,NAK
2.974893710,8494,~(0x7E),-(0x2D),Write,ACK
2.974986300,8494,~(0x7E),SOH(0x01),Write,ACK
2.975232210,8496,~(0x7E),.(0x2E),Write,ACK
2.975314510,8496,~(0x7E),NUL(0x00),Write,NAK
2.975570300,8498,~(0x7E),/(0x2F),Write,ACK
2.975662880,8498,~(0x7E),SOH(0x01),Write,ACK
2.975898050,8500,~(0x7E),FF (0x0C),Write,ACK
2.975980340,8500,~(0x7E),NUL(0x00),Write,ACK
2.976236590,8502,DEL(0x7F),CAN(0x18),Read,NAK
2.976329170,8502,DEL(0x7F),NUL(0x00),Read,NAK
2.976585080,8504,~(0x7E),1(0x31),Write,ACK
2.976667380,8504,~(0x7E),NUL(0x00),Write,NAK
2.976913300,8506,~(0x7E),EM (0x19),Write,NAK
2.977005970,8506,~(0x7E),NUL(0x00),Write,NAK
2.977257460,8508,~(0x7E),4(0x34),Write,ACK
2.977350060,8508,~(0x7E),SOH(0x01),Write,ACK
2.977595640,8510,~(0x7E),5(0x35),Write,ACK
2.977688300,8510,~(0x7E),SOH(0x01),Write,ACK
2.977933900,8512,~(0x7E),6(0x36),Write,ACK
2.978026480,8512,~(0x7E),SOH(0x01),Write,ACK
2.978262800,8514,DEL(0x7F),ESC(0x1B),Read,NAK
2.978355390,8514,DEL(0x7F),NUL(0x00),Read,NAK
2.978611230,8516,~(0x7E),8(0x38),Write,ACK
2.978703810,8516,~(0x7E),SOH(0x01),Write,NAK
2.978949010,8518,~(0x7E),9(0x39),Write,ACK
2.979041590,8518,~(0x7E),SOH(0x01),Write,ACK
2.979288760,8520,~(0x7E),:(0x3A),Write,ACK
2.979381350,8520,~(0x7E),SOH(0x01),Write,ACK
2.979622010,8522,~(0x7E),;(0x3B),Write,ACK
2.979714610,8522,~(0x7E),SOH(0x01),Write,ACK
2.979965160,8524,~(0x7E),<(0x3C),Write,ACK
2.980057740,8524,~(0x7E),SOH(0x01),Write,ACK
2.980304090,8526,~(0x7E),=(0x3D),Write,ACK
2.980396670,8526,~(0x7E),NUL(0x00),Write,NAK
2.980641860,8528,~(0x7E),?(0x3F),Write,ACK
2.980724150,8528,~(0x7E),NUL(0x00),Write,NAK
2.980979900,8530,~(0x7E),?(0x3F),Write,ACK
2.981072480,8530,~(0x7E),SOH(0x01),Write,ACK
2.981317690,8532,~(0x7E),@(0x40),Write,ACK
2.981410310,8532,~(0x7E),SOH(0x01),Write,ACK
2.981667720,8534,~(0x7E),A(0x41),Write,ACK
2.981760290,8534,~(0x7E),SOH(0x01),Write,ACK
2.982006060,8536,~(0x7E),A(0x41),Write,ACK
2.982088440,8536,~(0x7E),NUL(0x00),Write,NAK
2.995977310,8538,~(0x7E),@(0x40),Write,NAK
2.996049320,8538,~(0x7E),(128)(0x80),Write,ACK
2.996335300,8540,~(0x7E),D(0x44),Write,ACK
2.996427880,8540,~(0x7E),SOH(0x01),Write,ACK
2.996674320,8542,~(0x7E),"(0x22),Write,NAK
2.996756640,8542,~(0x7E),NUL(0x00),Write,NAK
2.997013140,8544,~(0x7E),F(0x46),Write,ACK
2.997105730,8544,~(0x7E),SOH(0x01),Write,ACK
2.997349360,8546,~(0x7E),G(0x47),Write,NAK
2.997431840,8546,~(0x7E),NUL(0x00),Write,NAK
2.997693690,8548,~(0x7E),H(0x48),Write,ACK
2.997786360,8548,~(0x7E),SOH(0x01),Write,ACK
2.998029790,8550,~(0x7E),I(0x49),Write,ACK
2.998122370,8550,~(0x7E),SOH(0x01),Write,ACK
2.998411810,8552,~(0x7E),%(0x25),Write,ACK
2.998504480,8552,~(0x7E),NUL(0x00),Write,ACK
2.999012670,8554,~(0x7E),EOT(0x04),Write,ACK
2.999105250,8554,~(0x7E),NUL(0x00),Write,ACK
2.999351630,8556,~(0x7E),ENQ(0x05),Write,ACK
2.999444210,8556,~(0x7E),NUL(0x00),Write,ACK
2.999687850,8558,~(0x7E),ACK(0x06),Write,ACK
2.999780510,8558,~(0x7E),NUL(0x00),Write,ACK
3.000023790,8560,~(0x7E),ETX(0x03),Write,NAK
3.000106090,8560,~(0x7E),NUL(0x00),Write,ACK
3.000359800,8562,~(0x7E),BS (0x08),Write,ACK
3.000452380,8562,~(0x7E),NUL(0x00),Write,ACK
3.000695480,8564,~(0x7E),HT (0x09),Write,ACK
3.000788080,8564,~(0x7E),NUL(0x00),Write,ACK
3.001032870,8566,~(0x7E),LF (0x0A),Write,ACK
3.001125430,8566,~(0x7E),NUL(0x00),Write,ACK
3.001368240,8568,~(0x7E),VT (0x0B),Write,ACK
3.001460820,8568,~(0x7E),NUL(0x00),Write,ACK
3.001704670,8570,~(0x7E),FF (0x0C),Write,ACK
3.001797250,8570,~(0x7E),NUL(0x00),Write,ACK
3.002040330,8572,~(0x7E),CR (0x0D),Write,ACK
3.002132900,8572,~(0x7E),NUL(0x00),Write,ACK
3.002376800,8576,~(0x7E),BEL(0x07),Write,ACK
3.002459120,8576,~(0x7E),NUL(0x00),Write,ACK
3.002712540,8578,~(0x7E),SI (0x0F),Write,ACK
3.002805210,8578,~(0x7E),NUL(0x00),Write,ACK
3.003048250,8580,~(0x7E),DLE(0x10),Write,ACK
3.003140830,8580,~(0x7E),NUL(0x00),Write,ACK
3.003383420,8582,~(0x7E),DC1(0x11),Write,ACK
3.003476000,8582,~(0x7E),NUL(0x00),Write,ACK
3.003706250,8584,DEL(0x7F),HT (0x09),Read,ACK
3.003798840,8584,DEL(0x7F),NUL(0x00),Read,ACK
3.004052530,8586,~(0x7E),DC3(0x13),Write,ACK
3.004145110,8586,~(0x7E),NUL(0x00),Write,ACK
3.004378020,8588,DEL(0x7F),LF (0x0A),Read,ACK
3.004470600,8588,DEL(0x7F),NUL(0x00),Read,ACK
3.004724160,8590,~(0x7E),NAK(0x15),Write,ACK
3.004816740,8590,~(0x7E),NUL(0x00),Write,ACK
3.005059940,8592,~(0x7E),SYN(0x16),Write,ACK
3.005152520,8592,~(0x7E),NUL(0x00),Write,ACK
3.005396220,8594,~(0x7E),DC3(0x13),Write,NAK
3.005478510,8594,~(0x7E),NUL(0x00),Write,ACK
3.005733030,8596,~(0x7E),CAN(0x18),Write,ACK
3.005825590,8596,~(0x7E),NUL(0x00),Write,ACK
3.006065910,8598,~(0x7E),EM (0x19),Write,ACK
3.006158500,8598,~(0x7E),NUL(0x00),Write,ACK
3.006410960,8600,~(0x7E),SUB(0x1A),Write,ACK
3.006503550,8600,~(0x7E),NUL(0x00),Write,ACK
3.006747340,8602,~(0x7E),ESC(0x1B),Write,ACK
3.006839910,8602,~(0x7E),NUL(0x00),Write,ACK
3.007072730,8604,?(0x3F),SO (0x0E),Read,ACK
3.007165320,8604,?(0x3F),NUL(0x00),Read,ACK
3.007408380,8606,DEL(0x7F),SO (0x0E),Read,NAK
3.007500960,8606,DEL(0x7F),NUL(0x00),Read,ACK
3.007754720,8608,~(0x7E),RS (0x1E),Write,ACK
3.007847300,8608,~(0x7E),NUL(0x00),Write,ACK
3.008090120,8610,~(0x7E),US (0x1F),Write,ACK
3.008182700,8610,~(0x7E),(198)(0xC6),Write,ACK
3.008424330,8612,~(0x7E),(SP)(0x20),Write,ACK
3.008516890,8612,~(0x7E),0(0x30),Write,NAK
3.008760770,8614,~(0x7E),!(0x21),Write,ACK
3.008853350,8614,~(0x7E),NUL(0x00),Write,ACK
3.009096190,8616,~(0x7E),"(0x22),Write,ACK
3.009188770,8616,~(0x7E),(198)(0xC6),Write,ACK
3.009434880,8618,~(0x7E),#(0x23),Write,ACK
3.009527460,8618,~(0x7E),a(0x61),Write,ACK
3.009764950,8620,?(0x3F),DC2(0x12),Read,ACK
3.009857530,8620,?(0x3F),NUL(0x00),Read,ACK
3.010127070,8622,~(0x7E),SOH(0x01),Write,ACK
3.010219650,8622,~(0x7E),(198)(0xC6),Write,ACK
3.010460570,8624,~(0x7E),STX(0x02),Write,ACK
3.010553150,8624,~(0x7E),`(0x60),Write,NAK
3.010799420,8626,~(0x7E),ETX(0x03),Write,ACK
3.010892000,8626,~(0x7E),NUL(0x00),Write,ACK
3.011137500,8628,~(0x7E),%(0x25),Write,ACK
3.011230090,8628,~(0x7E),NUL(0x00),Write,ACK
3.013631700,8630,?(0x3F),DC3(0x13),Read,ACK
3.013724280,8630,?(0x3F),NUL(0x00),Read,NAK
3.013981500,8632,~(0x7E),'(0x27),Write,ACK
3.014074080,8632,~(0x7E),SOH(0x01),Write,ACK
3.014319570,8634,~(0x7E),((0x28),Write,ACK
3.014412150,8634,~(0x7E),SOH(0x01),Write,ACK
3.028324530,8636,~(0x7E),)(0x29),Write,ACK
3.028417100,8636,~(0x7E),SOH(0x01),Write,ACK
3.028679850,8638,~(0x7E),*(0x2A),Write,ACK
3.028772430,8638,~(0x7E),SOH(0x01),Write,ACK
3.029016540,8640,~(0x7E),+(0x2B),Write,ACK
3.029109120,8640,~(0x7E),SOH(0x01),Write,ACK
3.029411310,8642,~(0x7E),&(0x26),Write,ACK
3.029493610,8642,~(0x7E),NUL(0x00),Write,NAK
3.029751460,8644,~(0x7E),-(0x2D),Write,ACK
3.029844040,8644,~(0x7E),SOH(0x01),Write,ACK
3.030089120,8646,~(0x7E),.(0x2E),Write,ACK
3.030181700,8646,~(0x7E),SOH(0x01),Write,ACK
3.030422960,8648,?(0x3F),ETB(0x17),Read,NAK
3.030515540,8648,?(0x3F),NUL(0x00),Read,NAK
3.030771740,8650,~(0x7E),0(0x30),Write,ACK
3.030864330,8650,~(0x7E),SOH(0x01),Write,ACK
3.031109360,8652,~(0x7E),1(0x31),Write,ACK
3.031202030,8652,~(0x7E),SOH(0x01),Write,ACK
3.031447170,8654,~(0x7E),2(0x32),Write,ACK
3.031539750,8654,~(0x7E),SOH(0x01),Write,ACK
3.031785650,8656,~(0x7E),3(0x33),Write,ACK
3.031878230,8656,~(0x7E),SOH(0x01),Write,ACK
3.032123900,8658,~(0x7E),4(0x34),Write,ACK
3.032216480,8658,~(0x7E),SOH(0x01),Write,ACK
3.032451300,8660,DEL(0x7F),SUB(0x1A),Read,NAK
3.032543880,8660,DEL(0x7F),NUL(0x00),Read,NAK
3.032799920,8662,~(0x7E),6(0x36),Write,ACK
3.032892590,8662,~(0x7E),SOH(0x01),Write,ACK
3.033138550,8664,~(0x7E),7(0x37),Write,ACK
3.033231220,8664,~(0x7E),SOH(0x01),Write,ACK
3.033474120,8666,~(0x7E),8(0x38),Write,ACK
3.033566700,8666,~(0x7E),SOH(0x01),Write,ACK
3.033812420,8668,~(0x7E),FS (0x1C),Write,NAK
3.033894730,8668,~(0x7E),NUL(0x00),Write,NAK
3.034140330,8670,DEL(0x7F),GS (0x1D),Read,ACK
3.034232910,8670,DEL(0x7F),NUL(0x00),Read,NAK
3.034488400,8672,~(0x7E),=(0x3D),Write,NAK
3.034570690,8672,~(0x7E),NUL(0x00),Write,NAK
3.034826440,8674,~(0x7E),<(0x3C),Write,ACK
3.034919020,8674,~(0x7E),SOH(0x01),Write,ACK
3.035164270,8676,~(0x7E),=(0x3D),Write,ACK
3.035256850,8676,~(0x7E),SOH(0x01),Write,ACK
3.035503920,8678,~(0x7E),>(0x3E),Write,ACK
3.035596500,8678,~(0x7E),SOH(0x01),Write,ACK
3.035837650,8680,~(0x7E),?(0x3F),Write,ACK
3.035930230,8680,~(0x7E),SOH(0x01),Write,ACK
3.036175930,8682,~(0x7E),@(0x40),Write,ACK
3.036268510,8682,~(0x7E),NUL(0x00),Write,NAK
3.036513810,8684,~(0x7E),A(0x41),Write,ACK
3.036606390,8684,~(0x7E),SOH(0x01),Write,ACK
3.036851640,8686,~(0x7E),B(0x42),Write,ACK
3.036944230,8686,~(0x7E),SOH(0x01),Write,ACK
3.037212620,8688,~(0x7E),C(0x43),Write,ACK
3.037305200,8688,~(0x7E),SOH(0x01),Write,ACK
3.037550680,8690,~(0x7E),D(0x44),Write,ACK
3.037643340,8690,~(0x7E),SOH(0x01),Write,ACK
3.037888710,8692,~(0x7E),E(0x45),Write,ACK
3.037981300,8692,~(0x7E),SOH(0x01),Write,ACK
3.038228660,8694,~(0x7E),G(0x47),Write,ACK
3.038310960,8694,~(0x7E),NUL(0x00),Write,NAK
3.038575180,8696,~(0x7E),G(0x47),Write,ACK
3.038667760,8696,~(0x7E),SOH(0x01),Write,ACK
3.038902790,8698,DEL(0x7F),$(0x24),Read,ACK
3.038995370,8698,DEL(0x7F),NUL(0x00),Read,NAK
3.039251470,8700,~(0x7E),I(0x49),Write,ACK
3.039344050,8700,~(0x7E),SOH(0x01),Write,ACK
3.039589330,8702,~(0x7E),%(0x25),Write,ACK
3.039681920,8702,~(0x7E),NUL(0x00),Write,ACK
3.040181510,8704,DEL(0x7F),STX(0x02),Read,ACK
3.040274100,8704,DEL(0x7F),NUL(0x00),Read,ACK
3.040529210,8706,~(0x7E),ENQ(0x05),Write,ACK
3.040621790,8706,~(0x7E),NUL(0x00),Write,ACK
3.040865330,8708,~(0x7E),ACK(0x06),Write,ACK
3.040957900,8708,~(0x7E),NUL(0x00),Write,ACK
3.041275960,8710,?(0x3F),ETX(0x03),Read,NAK
3.041368540,8710,?(0x3F),NUL(0x00),Read,ACK
3.041622480,8712,~(0x7E),BS (0x08),Write,ACK
3.041715070,8712,~(0x7E),NUL(0x00),Write,ACK
3.041948830,8714,DEL(0x7F),EOT(0x04),Read,NAK
3.042031140,8714,DEL(0x7F),(128)(0x80),Read,ACK
3.042295330,8716,~(0x7E),LF (0x0A),Write,ACK
3.042388000,8716,~(0x7E),NUL(0x00),Write,ACK
3.042620880,8718,DEL(0x7F),ENQ(0x05),Read,NAK
3.042713460,8718,DEL(0x7F),NUL(0x00),Read,ACK
3.042954610,8720,DEL(0x7F),ETX(0x03),Read,ACK
3.043036900,8720,DEL(0x7F),NUL(0x00),Read,ACK
3.043300790,8722,~(0x7E),SO (0x0E),Write,NAK
3.043383080,8722,~(0x7E),NUL(0x00),Write,ACK
3.043636750,8724,~(0x7E),SI (0x0F),Write,ACK
3.043719050,8724,~(0x7E),NUL(0x00),Write,ACK
3.043879610,,DEL(0x7F),,Read,NAK
3.043951620,8726,DEL(0x7F),ETX(0x03),Read,NAK
3.044044200,8726,DEL(0x7F),(128)(0x80),Read,ACK
3.044308090,8728,~(0x7E),DLE(0x10),Write,ACK
3.044400660,8728,~(0x7E),NUL(0x00),Write,ACK
3.044643680,8730,~(0x7E),BS (0x08),Write,NAK
3.044725970,8730,~(0x7E),NUL(0x00),Write,ACK
3.044979180,8732,~(0x7E),DC2(0x12),Write,ACK
3.045071770,8732,~(0x7E),NUL(0x00),Write,ACK
3.045313210,8734,~(0x7E),DC3(0x13),Write,ACK
3.045405780,8734,~(0x7E),NUL(0x00),Write,ACK
3.045665720,8736,~(0x7E),DC4(0x14),Write,ACK
3.045758300,8736,~(0x7E),NUL(0x00),Write,ACK
3.046001670,8738,~(0x7E),NAK(0x15),Write,ACK
3.046094250,8738,~(0x7E),NUL(0x00),Write,ACK
3.062321750,8740,DEL(0x7F),VT (0x0B),Read,ACK
3.062414330,8740,DEL(0x7F),NUL(0x00),Read,ACK
3.062685080,8742,~(0x7E),ETB(0x17),Write,ACK
3.062777590,8742,~(0x7E),NUL(0x00),Write,ACK
3.063031170,8744,~(0x7E),CAN(0x18),Write,ACK
3.063123750,8744,~(0x7E),NUL(0x00),Write,ACK
3.063369980,8746,~(0x7E),EM (0x19),Write,ACK
3.063462560,8746,~(0x7E),NUL(0x00),Write,ACK
3.063707900,8748,~(0x7E),SUB(0x1A),Write,ACK
3.063800470,8748,~(0x7E),NUL(0x00),Write,ACK
3.064035210,8750,DEL(0x7F),CR (0x0D),Read,NAK
3.064127790,8750,DEL(0x7F),NUL(0x00),Read,ACK
3.064393200,8752,~(0x7E),FS (0x1C),Write,ACK
3.064485780,8752,~(0x7E),NUL(0x00),Write,ACK
3.064742840,8754,~(0x7E),GS (0x1D),Write,ACK
3.064835420,8754,~(0x7E),NUL(0x00),Write,ACK
3.065088930,8756,~(0x7E),RS (0x1E),Write,ACK
3.065181500,8756,~(0x7E),NUL(0x00),Write,ACK
3.065440180,8758,~(0x7E),US (0x1F),Write,ACK
3.065532760,8758,~(0x7E),(195)(0xC3),Write,ACK
3.065778960,8760,~(0x7E),(SP)(0x20),Write,ACK
3.065871530,8760,~(0x7E),p(0x70),Write,NAK
3.066116700,8762,~(0x7E),DLE(0x10),Write,NAK
3.066199010,8762,~(0x7E),NUL(0x00),Write,ACK
3.066454950,8764,~(0x7E),"(0x22),Write,ACK
3.066547540,8764,~(0x7E),(198)(0xC6),Write,ACK
3.066783290,8766,DEL(0x7F),DC1(0x11),Read,NAK
3.066875870,8766,DEL(0x7F),0(0x30),Read,NAK
3.067152200,8768,~(0x7E),$(0x24),Write,ACK
3.067244790,8768,~(0x7E),NUL(0x00),Write,ACK
3.067498420,8770,~(0x7E),SOH(0x01),Write,ACK
3.067590990,8770,~(0x7E),(198)(0xC6),Write,ACK
3.067826850,8772,DEL(0x7F),SOH(0x01),Read,ACK
3.067919430,8772,DEL(0x7F),0(0x30),Read,NAK
3.068164810,8774,~(0x7E),SOH(0x01),Write,NAK
3.068257370,8774,~(0x7E),NUL(0x00),Write,ACK
3.068513520,8776,~(0x7E),%(0x25),Write,ACK
3.068606110,8776,~(0x7E),NUL(0x00),Write,ACK
3.068979140,8778,~(0x7E),&(0x26),Write,ACK
3.069061430,8778,~(0x7E),NUL(0x00),Write,NAK
3.069312640,8780,~(0x7E),'(0x27),Write,ACK
3.069405210,8780,~(0x7E),SOH(0x01),Write,ACK
3.069651520,8782,~(0x7E),((0x28),Write,ACK
3.069744100,8782,~(0x7E),NUL(0x00),Write,NAK
3.069979530,8784,~(0x7E),DC4(0x14),Write,NAK
3.070072120,8784,~(0x7E),NUL(0x00),Write,NAK
3.070327620,8786,~(0x7E),*(0x2A),Write,ACK
3.070420200,8786,~(0x7E),SOH(0x01),Write,ACK
3.070654790,8788,DEL(0x7F),NAK(0x15),Read,NAK
3.070747370,8788,DEL(0x7F),NUL(0x00),Read,NAK
3.071062400,8790,~(0x7E),,(0x2C),Write,ACK
3.071154970,8790,~(0x7E),SOH(0x01),Write,ACK
3.071400870,8792,~(0x7E),-(0x2D),Write,ACK
3.071493450,8792,~(0x7E),SOH(0x01),Write,ACK
3.071739400,8794,~(0x7E),ETB(0x17),Write,ACK
3.071821700,8794,~(0x7E),NUL(0x00),Write,ACK
3.072078110,8796,~(0x7E),/(0x2F),Write,ACK
3.072170740,8796,~(0x7E),SOH(0x01),Write,ACK
3.072416220,8798,~(0x7E),0(0x30),Write,ACK
3.072508800,8798,~(0x7E),SOH(0x01),Write,ACK
3.072744490,8800,DEL(0x7F),CAN(0x18),Read,NAK
3.072837080,8800,DEL(0x7F),NUL(0x00),Read,NAK
3.073095290,8802,~(0x7E),2(0x32),Write,ACK
3.073187880,8802,~(0x7E),SOH(0x01),Write,ACK
3.073457220,8804,~(0x7E),3(0x33),Write,ACK
3.073549800,8804,~(0x7E),SOH(0x01),Write,ACK
3.073803600,8806,~(0x7E),4(0x34),Write,ACK
3.073896180,8806,~(0x7E),SOH(0x01),Write,ACK
3.074131860,8808,DEL(0x7F),SUB(0x1A),Read,NAK
3.074224430,8808,DEL(0x7F),NUL(0x00),Read,NAK
3.074480370,8810,~(0x7E),6(0x36),Write,ACK
3.074572950,8810,~(0x7E),SOH(0x01),Write,ACK
3.074819020,8812,~(0x7E),7(0x37),Write,ACK
3.074911600,8812,~(0x7E),SOH(0x01),Write,ACK
3.075147390,8814,DEL(0x7F),FS (0x1C),Read,ACK
3.075239970,8814,DEL(0x7F),NUL(0x00),Read,NAK
3.075495640,8816,~(0x7E),9(0x39),Write,ACK
3.075588220,8816,~(0x7E),SOH(0x01),Write,ACK
3.075834960,8818,~(0x7E),:(0x3A),Write,ACK
3.075927540,8818,~(0x7E),SOH(0x01),Write,ACK
3.076195130,8820,~(0x7E),;(0x3B),Write,ACK
3.076287710,8820,~(0x7E),SOH(0x01),Write,ACK
3.076540400,8822,~(0x7E),<(0x3C),Write,ACK
3.076632980,8822,~(0x7E),SOH(0x01),Write,ACK
3.076878570,8824,~(0x7E),=(0x3D),Write,ACK
3.076971150,8824,~(0x7E),NUL(0x00),Write,NAK
3.077209580,8826,DEL(0x7F),US (0x1F),Read,ACK
3.077302170,8826,DEL(0x7F),NUL(0x00),Read,NAK
3.077557600,8828,~(0x7E),?(0x3F),Write,NAK
3.077639990,8828,~(0x7E),NUL(0x00),Write,NAK
3.077896470,8830,~(0x7E),@(0x40),Write,ACK
3.077989130,8830,~(0x7E),SOH(0x01),Write,ACK
3.078234480,8832,~(0x7E),A(0x41),Write,ACK
3.078327060,8832,~(0x7E),SOH(0x01),Write,ACK
3.092186960,8834,r(0x72),(137)(0x89),Write,NAK
3.092466360,8836,~(0x7E),B(0x42),Write,ACK
3.092558950,8836,~(0x7E),NUL(0x00),Write,NAK
3.092821670,8838,s(0x73),SOH(0x01),Read,NAK
3.093099510,8840,~(0x7E),!(0x21),Write,NAK
3.093181820,8840,~(0x7E),NUL(0x00),Write,NAK
3.093452150,8842,r(0x72),(148)(0x94),Write,ACK
3.093717010,8844,~(0x7E),D(0x44),Write,ACK
3.093809600,8844,~(0x7E),SOH(0x01),Write,ACK
3.094069940,8846,s(0x73),(180)(0xB4),Read,NAK
3.094330080,8848,~(0x7E),E(0x45),Write,ACK
3.094422660,8848,~(0x7E),NUL(0x00),Write,NAK
3.094684900,8850,r(0x72),(150)(0x96),Write,NAK
3.094933170,8852,~(0x7E),#(0x23),Write,ACK
3.095025750,8852,~(0x7E),NUL(0x00),Write,NAK
3.095295790,8854,s(0x73),DC4(0x14),Read,NAK
3.095555520,8856,~(0x7E),G(0x47),Write,ACK
3.095648100,8856,~(0x7E),SOH(0x01),Write,ACK
3.095907460,8858,r(0x72),(150)(0x96),Write,ACK
3.096174630,8860,~(0x7E),H(0x48),Write,ACK
3.096267210,8860,~(0x7E),SOH(0x01),Write,ACK
3.096526210,8862,s(0x73),(154)(0x9A),Read,NAK
3.096776090,8864,?(0x3F),$(0x24),Read,NAK
3.096868700,8864,?(0x3F),NUL(0x00),Read,NAK
3.097138360,8866,r(0x72),(151)(0x97),Write,ACK
3.097397340,8868,~(0x7E),%(0x25),Write,ACK
3.097489920,8868,~(0x7E),NUL(0x00),Write,ACK
3.097918400,,y(0x79),,Read,NAK
3.098000790,8870,y(0x79),STX(0x02),Read,NAK
3.098263280,8872,DEL(0x7F),STX(0x02),Read,ACK
3.098355890,8872,DEL(0x7F),c(0x63),Read,ACK
3.098625350,8874,r(0x72),(230)(0xE6),Write,ACK
3.098890030,8876,~(0x7E),ACK(0x06),Write,NAK
3.098972320,8876,~(0x7E),0(0x30),Write,NAK
3.099258130,8878,r(0x72),(147)(0x93),Write,ACK
3.099506270,8880,~(0x7E),ETX(0x03),Write,ACK
3.099598850,8880,~(0x7E),NUL(0x00),Write,ACK
3.099868470,8882,s(0x73),SOH(0x01),Read,NAK
3.100118430,8884,DEL(0x7F),ETX(0x03),Read,NAK
3.100211010,8884,DEL(0x7F),NUL(0x00),Read,ACK
3.100481350,8886,r(0x72),(148)(0x94),Write,ACK
3.100746420,8888,~(0x7E),BS (0x08),Write,ACK
3.100838990,8888,~(0x7E),NUL(0x00),Write,ACK
3.101098820,8890,s(0x73),(180)(0xB4),Read,NAK
3.101372790,8894,~(0x7E),EOT(0x04),Write,NAK
3.101455080,8894,~(0x7E),NUL(0x00),Write,ACK
3.101724550,8896,r(0x72),(149)(0x95),Write,ACK
3.101984060,8898,~(0x7E),ENQ(0x05),Write,ACK
3.102066360,8898,~(0x7E),NUL(0x00),Write,ACK
3.102369730,8900,s(0x73),DC4(0x14),Read,NAK
3.102631740,8902,~(0x7E),VT (0x0B),Write,ACK
3.102724330,8902,~(0x7E),NUL(0x00),Write,ACK
3.102984020,8904,r(0x72),(139)(0x8B),Write,ACK
3.103237750,8906,DEL(0x7F),ACK(0x06),Read,ACK
3.103330330,8906,DEL(0x7F),NUL(0x00),Read,ACK
3.103599150,8908,s(0x73),(154)(0x9A),Read,NAK
3.103859040,8910,~(0x7E),CR (0x0D),Write,ACK
3.103951620,8910,~(0x7E),NUL(0x00),Write,ACK
3.104211100,8912,r(0x72),(155)(0x9B),Write,NAK
3.104470670,8914,~(0x7E),SO (0x0E),Write,ACK
3.104552970,8914,~(0x7E),NUL(0x00),Write,ACK
3.104822410,8916,s(0x73),ACK(0x06),Read,NAK
3.105088460,8918,~(0x7E),SI (0x0F),Write,ACK
3.105181040,8918,~(0x7E),NUL(0x00),Write,ACK
3.105430090,8920,q(0x71),s(0x73),Read,ACK
3.105699860,8922,~(0x7E),DLE(0x10),Write,ACK
3.105792440,8922,~(0x7E),NUL(0x00),Write,ACK
3.106041510,8924,r(0x72),I(0x49),Write,NAK
3.106310810,8926,~(0x7E),DC1(0x11),Write,ACK
3.106403390,8926,~(0x7E),NUL(0x00),Write,ACK
3.106570260,,y(0x79),,Read,NAK
3.106652560,8928,y(0x79),NUL(0x00),Read,NAK
3.106923400,8930,~(0x7E),DC2(0x12),Write,ACK
3.107015980,8930,~(0x7E),NUL(0x00),Write,ACK
3.107275050,8932,r(0x72),(148)(0x94),Write,ACK
3.107533930,8934,~(0x7E),DC3(0x13),Write,ACK
3.107626510,8934,~(0x7E),NUL(0x00),Write,ACK
3.107886590,8936,s(0x73),(180)(0xB4),Read,NAK
3.108136150,8938,DEL(0x7F),LF (0x0A),Read,ACK
3.108228730,8938,DEL(0x7F),NUL(0x00),Read,ACK
3.108498740,8940,r(0x72),(149)(0x95),Write,ACK
3.108756680,8942,~(0x7E),NAK(0x15),Write,ACK
3.108849260,8942,~(0x7E),NUL(0x00),Write,ACK
3.109108170,8944,s(0x73),DC4(0x14),Read,NAK
3.109370420,8946,~(0x7E),SYN(0x16),Write,ACK
3.109463000,8946,~(0x7E),NUL(0x00),Write,ACK
3.109725920,8948,r(0x72),(150)(0x96),Write,ACK
3.109984560,8950,~(0x7E),ETB(0x17),Write,ACK
3.110077140,8950,~(0x7E),NUL(0x00),Write,ACK
3.110245750,,y(0x79),,Read,NAK
3.110317780,8952,y(0x79),(166)(0xA6),Read,NAK
3.124079840,8954,~(0x7E),CAN(0x18),Write,ACK
3.124172420,8954,~(0x7E),NUL(0x00),Write,ACK
3.124454050,8956,r(0x72),(151)(0x97),Write,ACK
3.124718300,8958,~(0x7E),FS (0x1C),Write,NAK
3.124800590,8958,~(0x7E),NUL(0x00),Write,ACK
3.125073250,8960,s(0x73),ENQ(0x05),Read,NAK
3.125330580,8962,~(0x7E),SUB(0x1A),Write,ACK
3.125423160,8962,~(0x7E),NUL(0x00),Write,ACK
3.125719620,8964,y(0x79),s(0x73),Read,ACK
3.126040780,8966,~(0x7E),CR (0x0D),Write,NAK
3.126123080,8966,~(0x7E),NUL(0x00),Write,ACK
3.126420970,8968,DEL(0x7F),SO (0x0E),Read,ACK
3.126513540,8968,DEL(0x7F),NUL(0x00),Read,ACK
3.126769900,8970,~(0x7E),GS (0x1D),Write,ACK
3.126862480,8970,~(0x7E),NUL(0x00),Write,ACK
3.127108010,8972,~(0x7E),RS (0x1E),Write,ACK
3.127200580,8972,~(0x7E),NUL(0x00),Write,ACK
3.127446540,8974,~(0x7E),US (0x1F),Write,ACK
3.127539120,8974,~(0x7E),NUL(0x00),Write,ACK
3.127776080,8976,DEL(0x7F),DLE(0x10),Read,ACK
3.127868660,8976,DEL(0x7F),NUL(0x00),Read,ACK
3.128121940,8978,~(0x7E),DLE(0x10),Write,NAK
3.128204240,8978,~(0x7E),NUL(0x00),Write,ACK
3.128460700,8980,~(0x7E),"(0x22),Write,ACK
3.128553280,8980,~(0x7E),(198)(0xC6),Write,ACK
3.128798940,8982,~(0x7E),#(0x23),Write,ACK
3.128891530,8982,~(0x7E),a(0x61),Write,ACK
3.129137420,8984,~(0x7E),$(0x24),Write,ACK
3.129230000,8984,~(0x7E),NUL(0x00),Write,ACK
3.129476020,8986,~(0x7E),SOH(0x01),Write,ACK
3.129568580,8986,~(0x7E),(227)(0xE3),Write,NAK
3.129814360,8988,~(0x7E),STX(0x02),Write,ACK
3.129906940,8988,~(0x7E),a(0x61),Write,ACK
3.130158300,8990,DEL(0x7F),SOH(0x01),Read,NAK
3.130250880,8990,DEL(0x7F),NUL(0x00),Read,ACK
3.130502020,8992,~(0x7E),"(0x22),Write,NAK
3.130584310,8992,~(0x7E),NUL(0x00),Write,ACK
3.131974910,8994,~(0x7E),&(0x26),Write,ACK
3.132067480,8994,~(0x7E),SOH(0x01),Write,ACK
3.132312980,8996,~(0x7E),'(0x27),Write,ACK
3.132405650,8996,~(0x7E),SOH(0x01),Write,ACK
3.132651710,8998,~(0x7E),((0x28),Write,ACK
3.132744290,8998,~(0x7E),SOH(0x01),Write,ACK
3.132995950,9000,~(0x7E),)(0x29),Write,ACK
3.133088540,9000,~(0x7E),SOH(0x01),Write,ACK
3.133334070,9002,~(0x7E),*(0x2A),Write,ACK
3.133426650,9002,~(0x7E),SOH(0x01),Write,ACK
3.133658930,9004,DEL(0x7F),NAK(0x15),Read,NAK
3.133751500,9004,DEL(0x7F),NUL(0x00),Read,ACK
3.134004750,9006,DEL(0x7F),SYN(0x16),Read,ACK
3.134097330,9006,DEL(0x7F),NUL(0x00),Read,NAK
3.134353560,9008,~(0x7E),-(0x2D),Write,ACK
3.134446130,9008,~(0x7E),NUL(0x00),Write,NAK
3.134692620,9010,~(0x7E),ETB(0x17),Write,ACK
3.134774930,9010,~(0x7E),NUL(0x00),Write,NAK
3.135030480,9012,~(0x7E),/(0x2F),Write,ACK
3.135123070,9012,~(0x7E),SOH(0x01),Write,ACK
3.135368140,9014,~(0x7E),0(0x30),Write,ACK
3.135460720,9014,~(0x7E),SOH(0x01),Write,ACK
3.135708970,9016,~(0x7E),1(0x31),Write,ACK
3.135801550,9016,~(0x7E),SOH(0x01),Write,ACK
3.136042700,9018,~(0x7E),2(0x32),Write,ACK
3.136135290,9018,~(0x7E),SOH(0x01),Write,ACK
3.136381270,9020,~(0x7E),3(0x33),Write,ACK
3.136473850,9020,~(0x7E),SOH(0x01),Write,ACK
3.136719150,9022,~(0x7E),4(0x34),Write,ACK
3.136811770,9022,~(0x7E),SOH(0x01),Write,ACK
3.137056780,9024,~(0x7E),5(0x35),Write,ACK
3.137149360,9024,~(0x7E),SOH(0x01),Write,ACK
3.137394970,9026,~(0x7E),6(0x36),Write,ACK
3.137487650,9026,~(0x7E),NUL(0x00),Write,NAK
3.137732760,9028,~(0x7E),7(0x37),Write,ACK
3.137825340,9028,~(0x7E),SOH(0x01),Write,ACK
3.138074880,9030,~(0x7E),8(0x38),Write,ACK
3.138167460,9030,~(0x7E),SOH(0x01),Write,ACK
3.138409020,9032,~(0x7E),9(0x39),Write,ACK
3.138501650,9032,~(0x7E),SOH(0x01),Write,ACK
3.138747090,9034,~(0x7E),:(0x3A),Write,ACK
3.138839670,9034,~(0x7E),SOH(0x01),Write,ACK
3.139085230,9036,~(0x7E),;(0x3B),Write,ACK
3.139177810,9036,~(0x7E),SOH(0x01),Write,ACK
3.139423320,9038,~(0x7E),>(0x3E),Write,ACK
3.139505620,9038,~(0x7E),NUL(0x00),Write,NAK
3.139761030,9040,~(0x7E),=(0x3D),Write,NAK
3.139843320,9040,~(0x7E),NUL(0x00),Write,NAK
3.140099020,9042,~(0x7E),>(0x3E),Write,ACK
3.140191600,9042,~(0x7E),SOH(0x01),Write,ACK
3.140437200,9044,~(0x7E),?(0x3F),Write,ACK
3.140529800,9044,~(0x7E),SOH(0x01),Write,ACK
3.140770430,9046,~(0x7E),@(0x40),Write,ACK
3.140863020,9046,~(0x7E),SOH(0x01),Write,ACK
3.141109070,9048,~(0x7E),A(0x41),Write,ACK
3.141201650,9048,~(0x7E),SOH(0x01),Write,ACK
3.141447540,9050,~(0x7E),B(0x42),Write,ACK
3.141540130,9050,~(0x7E),SOH(0x01),Write,ACK
3.141775360,9052,DEL(0x7F),!(0x21),Read,NAK
3.141857650,9052,DEL(0x7F),(128)(0x80),Read,ACK
3.142123840,9054,~(0x7E),D(0x44),Write,ACK
3.142216400,9054,~(0x7E),SOH(0x01),Write,ACK
3.156104850,9056,~(0x7E),b(0x62),Write,NAK
3.156187150,9056,~(0x7E),NUL(0x00),Write,NAK
3.156460410,9058,~(0x7E),F(0x46),Write,ACK
3.156552990,9058,~(0x7E),SOH(0x01),Write,ACK
3.156789860,9060,?(0x3F),#(0x23),Read,NAK
3.156882440,9060,?(0x3F),NUL(0x00),Read,ACK
3.157138710,9062,~(0x7E),H(0x48),Write,ACK
3.157231290,9062,~(0x7E),SOH(0x01),Write,ACK
3.157476730,9064,~(0x7E),I(0x49),Write,ACK
3.157569360,9064,~(0x7E),SOH(0x01),Write,ACK
3.157805340,9066,~(0x7E),DC2(0x12),Write,NAK
3.157897920,9066,~(0x7E),NUL(0x00),Write,ACK
3.158502410,9068,~(0x7E),EOT(0x04),Write,ACK
3.158594980,9068,~(0x7E),(198)(0xC6),Write,ACK
3.158839470,9070,~(0x7E),STX(0x02),Write,NAK
3.158921770,9070,~(0x7E),0(0x30),Write,NAK
3.159175430,9072,~(0x7E),ACK(0x06),Write,ACK
3.159268010,9072,~(0x7E),NUL(0x00),Write,ACK
3.159512150,9074,~(0x7E),ETX(0x03),Write,NAK
3.159584160,9074,~(0x7E),(128)(0x80),Write,ACK
3.159848590,9076,~(0x7E),BS (0x08),Write,ACK
3.159941170,9076,~(0x7E),NUL(0x00),Write,ACK
3.160184350,9078,~(0x7E),HT (0x09),Write,ACK
3.160276940,9078,~(0x7E),NUL(0x00),Write,ACK
3.160521930,9080,~(0x7E),LF (0x0A),Write,ACK
3.160614520,9080,~(0x7E),NUL(0x00),Write,ACK
3.160855570,9082,~(0x7E),VT (0x0B),Write,ACK
3.160948220,9082,~(0x7E),NUL(0x00),Write,ACK
3.161191550,9084,~(0x7E),FF (0x0C),Write,ACK
3.161284140,9084,~(0x7E),NUL(0x00),Write,ACK
3.161528120,9086,~(0x7E),CR (0x0D),Write,ACK
3.161620780,9086,~(0x7E),NUL(0x00),Write,ACK
3.161864120,9088,~(0x7E),SO (0x0E),Write,ACK
3.161956710,9088,~(0x7E),NUL(0x00),Write,ACK
3.162200120,9090,~(0x7E),SI (0x0F),Write,ACK
3.162292710,9090,~(0x7E),NUL(0x00),Write,ACK
3.162534810,9092,~(0x7E),BS (0x08),Write,ACK
3.162617110,9092,~(0x7E),NUL(0x00),Write,ACK
3.162868210,9094,~(0x7E),DC1(0x11),Write,ACK
3.162960800,9094,~(0x7E),NUL(0x00),Write,ACK
3.163204420,9096,~(0x7E),DC2(0x12),Write,ACK
3.163297000,9096,~(0x7E),NUL(0x00),Write,ACK
3.163540100,9098,~(0x7E),DC3(0x13),Write,ACK
3.163632680,9098,~(0x7E),NUL(0x00),Write,ACK
3.163875510,9100,~(0x7E),DC4(0x14),Write,ACK
3.163968090,9100,~(0x7E),NUL(0x00),Write,ACK
3.164211610,9102,~(0x7E),NAK(0x15),Write,ACK
3.164304180,9102,~(0x7E),NUL(0x00),Write,ACK
3.164547540,9104,~(0x7E),SYN(0x16),Write,ACK
3.164640110,9104,~(0x7E),NUL(0x00),Write,ACK
3.164884520,9106,~(0x7E),ETB(0x17),Write,ACK
3.164977100,9106,~(0x7E),NUL(0x00),Write,ACK
3.165259520,9108,~(0x7E),CAN(0x18),Write,ACK
3.165352100,9108,~(0x7E),NUL(0x00),Write,ACK
3.165595870,9110,~(0x7E),SO (0x0E),Write,ACK
3.165667890,9110,~(0x7E),(128)(0x80),Write,ACK
3.165932350,9112,~(0x7E),SUB(0x1A),Write,ACK
3.166024940,9112,~(0x7E),NUL(0x00),Write,ACK
3.166268360,9114,~(0x7E),ESC(0x1B),Write,ACK
3.166360940,9114,~(0x7E),NUL(0x00),Write,ACK
3.166594650,9116,DEL(0x7F),SO (0x0E),Read,ACK
3.166687220,9116,DEL(0x7F),NUL(0x00),Read,ACK
3.166929620,9118,DEL(0x7F),SO (0x0E),Read,NAK
3.167022200,9118,DEL(0x7F),NUL(0x00),Read,ACK
3.167278270,9120,~(0x7E),RS (0x1E),Write,ACK
3.167370850,9120,~(0x7E),NUL(0x00),Write,ACK
3.167614120,9122,~(0x7E),US (0x1F),Write,ACK
3.167706710,9122,~(0x7E),NUL(0x00),Write,ACK
3.167950450,9124,~(0x7E),(SP)(0x20),Write,ACK
3.168043050,9124,~(0x7E),NUL(0x00),Write,ACK
3.168276140,9126,DEL(0x7F),DLE(0x10),Read,NAK
3.168368730,9126,DEL(0x7F),NUL(0x00),Read,ACK
3.168621950,9128,~(0x7E),"(0x22),Write,ACK
3.168714530,9128,~(0x7E),(198)(0xC6),Write,ACK
3.168947130,9130,~(0x7E),DC1(0x11),Write,NAK
3.169039710,9130,~(0x7E),0(0x30),Write,NAK
3.169293060,9132,~(0x7E),$(0x24),Write,ACK
3.169385650,9132,~(0x7E),NUL(0x00),Write,ACK
3.169631420,9134,~(0x7E),SOH(0x01),Write,ACK
3.169724000,9134,~(0x7E),(198)(0xC6),Write,ACK
3.169959500,9136,DEL(0x7F),SOH(0x01),Read,ACK
3.170052080,9136,DEL(0x7F),0(0x30),Read,NAK
3.170308060,9138,~(0x7E),ETX(0x03),Write,ACK
3.170400660,9138,~(0x7E),NUL(0x00),Write,ACK
3.170646120,9140,~(0x7E),%(0x25),Write,ACK
3.170738700,9140,~(0x7E),NUL(0x00),Write,ACK
3.172313660,9142,DEL(0x7F),HT (0x09),Read,NAK
3.172406240,9142,DEL(0x7F),NUL(0x00),Read,ACK
3.172672870,9144,~(0x7E),'(0x27),Write,ACK
3.172765450,9144,~(0x7E),SOH(0x01),Write,ACK
3.173000580,9146,DEL(0x7F),DC4(0x14),Read,ACK
3.173093250,9146,DEL(0x7F),NUL(0x00),Read,NAK
3.173349010,9148,~(0x7E),)(0x29),Write,ACK
3.173441590,9148,~(0x7E),SOH(0x01),Write,ACK
3.173685630,9150,~(0x7E),-(0x2D),Write,ACK
3.173767920,9150,~(0x7E),NUL(0x00),Write,NAK
3.174028370,9152,~(0x7E),+(0x2B),Write,ACK
3.174120940,9152,~(0x7E),SOH(0x01),Write,ACK
3.188332480,9154,~(0x7E),SYN(0x16),Write,ACK
3.188414770,9154,~(0x7E),NUL(0x00),Write,NAK
3.188689920,9156,~(0x7E),-(0x2D),Write,ACK
3.188782510,9156,~(0x7E),SOH(0x01),Write,ACK
3.189029620,9158,~(0x7E),.(0x2E),Write,ACK
3.189122200,9158,~(0x7E),SOH(0x01),Write,ACK
3.189391670,9160,~(0x7E),/(0x2F),Write,ACK
3.189484240,9160,~(0x7E),SOH(0x01),Write,ACK
3.189737970,9