Time [s],Packet ID,Address,Data,Read/Write,ACK/NAK
0.001342500,0,0x40,0x0C,Write,ACK
0.001397500,0,0x40,0x0C,Write,NAK
0.001727500,2,0x41,0x17,Read,ACK
0.001782500,2,0x41,0x17,Read,NAK
0.002037500,4,0x49,0x04,Read,ACK
0.002092500,4,0x49,0x04,Read,NAK
0.007222500,6,0x49,0x75,Read,ACK
0.007277500,6,0x49,0x75,Read,NAK
0.008907500,8,0x40,0x10,Write,ACK
0.008962500,8,0x40,0x10,Write,NAK
0.009292500,10,0x41,0xDB,Read,ACK
0.009347500,10,0x41,0xDB,Read,NAK
0.009602500,12,0x49,0x2B,Read,ACK
0.009657500,12,0x49,0x2B,Read,NAK
0.014787500,14,0x49,0x5D,Read,ACK
0.014842500,14,0x49,0x5D,Read,NAK
0.016472500,16,0x40,0x14,Write,ACK
0.016527500,16,0x40,0x14,Write,NAK
0.016857500,18,0x41,0xFF,Read,ACK
0.016912500,18,0x41,0xFF,Read,NAK
0.017167500,20,0x49,0x13,Read,ACK
0.017222500,20,0x49,0x13,Read,NAK
0.022352500,22,0x49,0x63,Read,ACK
0.022407500,22,0x49,0x63,Read,NAK
0.024037500,24,0x40,0x18,Write,ACK
0.024092500,24,0x40,0x18,Write,NAK
0.024422500,26,0x41,0x1B,Read,ACK
0.024477500,26,0x41,0x1B,Read,NAK
0.024732500,28,0x49,0x2E,Read,ACK
0.024787500,28,0x49,0x2E,Read,NAK
0.029917500,30,0x49,0x78,Read,ACK
0.029972500,30,0x49,0x78,Read,NAK
0.031602500,32,0x40,0x1C,Write,ACK
0.031657500,32,0x40,0x1C,Write,NAK
0.031987500,34,0x41,0x2F,Read,ACK
0.032042500,34,0x41,0x2F,Read,NAK
0.032297500,36,0x49,0x3B,Read,ACK
0.032352500,36,0x49,0x3B,Read,NAK
0.037482500,38,0x49,0x75,Read,ACK
0.037537500,38,0x49,0x75,Read,NAK
0.039167500,40,0x40,0x20,Write,ACK
0.039222500,40,0x40,0x20,Write,NAK
0.039552500,42,0x41,0x27,Read,ACK
0.039607500,42,0x41,0x27,Read,NAK
0.039862500,44,0x49,0x27,Read,ACK
0.039917500,44,0x49,0x27,Read,NAK
0.045047500,46,0x49,0x61,Read,ACK
0.045102500,46,0x49,0x61,Read,NAK
0.046732500,48,0x40,0x24,Write,ACK
0.046787500,48,0x40,0x24,Write,NAK
0.047117500,50,0x41,0x0D,Read,ACK
0.047172500,50,0x41,0x0D,Read,NAK
0.047427500,52,0x49,0x25,Read,ACK
0.047482500,52,0x49,0x25,Read,NAK
0.052612500,54,0x49,0x4C,Read,ACK
0.052667500,54,0x49,0x4C,Read,NAK
0.054297500,56,0x40,0x28,Write,ACK
0.054352500,56,0x40,0x28,Write,NAK
0.054682500,58,0x41,0x3C,Read,ACK
0.054737500,58,0x41,0x3C,Read,NAK
0.054992500,60,0x49,0x58,Read,ACK
0.055047500,60,0x49,0x58,Read,NAK
0.060177500,62,0x49,0x3E,Read,ACK
0.060232500,62,0x49,0x3E,Read,NAK
0.061862500,64,0x40,0x2C,Write,ACK
0.061917500,64,0x40,0x2C,Write,NAK
0.062247500,66,0x41,0x03,Read,ACK
0.062302500,66,0x41,0x03,Read,NAK
0.062557500,68,0x49,0x63,Read,ACK
0.062612500,68,0x49,0x63,Read,NAK
0.067742500,70,0x49,0x7D,Read,ACK
0.067797500,70,0x49,0x7D,Read,NAK
0.069427500,72,0x40,0x30,Write,ACK
0.069482500,72,0x40,0x30,Write,NAK
0.069812500,74,0x41,0xFD,Read,ACK
0.069867500,74,0x41,0xFD,Read,NAK
0.070122500,76,0x49,0x86,Read,ACK
0.070177500,76,0x49,0x86,Read,NAK
0.075307500,78,0x49,0x61,Read,ACK
0.075362500,78,0x49,0x61,Read,NAK
0.076992500,80,0x40,0x34,Write,ACK
0.077047500,80,0x40,0x34,Write,NAK
0.077377500,82,0x41,0x38,Read,ACK
0.077432500,82,0x41,0x38,Read,NAK
0.077687500,84,0x49,0x6C,Read,ACK
0.077742500,84,0x49,0x6C,Read,NAK
0.082872500,86,0x49,0x98,Read,ACK
0.082927500,86,0x49,0x98,Read,NAK
0.084557500,88,0x40,0x38,Write,ACK
0.084612500,88,0x40,0x38,Write,NAK
0.084942500,90,0x41,0x34,Read,ACK
0.084997500,90,0x41,0x34,Read,NAK
0.085252500,92,0x49,0x50,Read,ACK
0.085307500,92,0x49,0x50,Read,NAK
0.090437500,94,0x49,0x7A,Read,ACK
0.090492500,94,0x49,0x7A,Read,NAK
0.092122500,96,0x40,0x3C,Write,ACK
0.092177500,96,0x40,0x3C,Write,NAK
0.092507500,98,0x41,0x51,Read,ACK
0.092562500,98,0x41,0x51,Read,NAK
0.092817500,100,0x49,0x8F,Read,ACK
0.092872500,100,0x49,0x8F,Read,NAK
0.098002500,102,0x49,0x6F,Read,ACK
0.098057500,102,0x49,0x6F,Read,NAK
0.099687500,104,0x40,0x40,Write,ACK
0.099742500,104,0x40,0x40,Write,NAK
0.100072500,106,0x41,0x48,Read,ACK
0.100127500,106,0x41,0x48,Read,NAK
0.100382500,108,0x49,0x38,Read,ACK
0.100437500,108,0x49,0x38,Read,NAK
0.105567500,110,0x49,0x87,Read,ACK
0.105622500,110,0x49,0x87,Read,NAK
0.107252500,112,0x40,0x44,Write,ACK
0.107307500,112,0x40,0x44,Write,NAK
0.107637500,114,0x41,0x1B,Read,ACK
0.107692500,114,0x41,0x1B,Read,NAK
0.107947500,116,0x49,0x6B,Read,ACK
0.108002500,116,0x49,0x6B,Read,NAK
0.113132500,118,0x49,0x5D,Read,ACK
0.113187500,118,0x49,0x5D,Read,NAK
0.114817500,120,0x40,0x48,Write,ACK
0.114872500,120,0x40,0x48,Write,NAK
0.115202500,122,0x41,0x19,Read,ACK
0.115257500,122,0x41,0x19,Read,NAK
0.115512500,124,0x49,0x5F,Read,ACK
0.115567500,124,0x49,0x5F,Read,NAK
0.120697500,126,0x49,0x9E,Read,ACK
0.120752500,126,0x49,0x9E,Read,NAK
0.122382500,128,0x40,0x4C,Write,ACK
0.122437500,128,0x40,0x4C,Write,NAK
0.122767500,130,0x41,0x79,Read,ACK
0.122822500,130,0x41,0x79,Read,NAK
0.123077500,132,0x49,0x77,Read,ACK
0.123132500,132,0x49,0x77,Read,NAK
0.128262500,134,0x49,0x7A,Read,ACK
0.128317500,134,0x49,0x7A,Read,NAK
0.129947500,136,0x40,0x50,Write,ACK
0.130002500,136,0x40,0x50,Write,NAK
0.130332500,138,0x41,0x1C,Read,ACK
0.130387500,138,0x41,0x1C,Read,NAK
0.130642500,140,0x49,0x97,Read,ACK
0.130697500,140,0x49,0x97,Read,NAK
0.135827500,142,0x49,0xB5,Read,ACK
0.135882500,142,0x49,0xB5,Read,NAK
0.137457500,,0x24,,Write,NAK
0.137787500,146,0x40,0x54,Write,ACK
0.137842500,146,0x40,0x54,Write,NAK
0.138172500,148,0x41,0x81,Read,ACK
0.138227500,148,0x41,0x81,Read,NAK
0.138482500,150,0x49,0x72,Read,ACK
0.138537500,150,0x49,0x72,Read,NAK
0.143667500,152,0x49,0xA6,Read,ACK
0.143722500,152,0x49,0xA6,Read,NAK
0.145352500,154,0x40,0x58,Write,ACK
0.145407500,154,0x40,0x58,Write,NAK
0.145737500,156,0x41,0x6C,Read,ACK
0.145792500,156,0x41,0x6C,Read,NAK
0.146047500,158,0x49,0xA4,Read,ACK
0.146102500,158,0x49,0xA4,Read,NAK
0.151232500,160,0x49,0x77,Read,ACK
0.151287500,160,0x49,0x77,Read,NAK
0.152917500,162,0x40,0x5C,Write,ACK
0.152972500,162,0x40,0x5C,Write,NAK
0.153302500,164,0x41,0x75,Read,ACK
0.153357500,164,0x41,0x75,Read,NAK
0.153612500,166,0x49,0x97,Read,ACK
0.153667500,166,0x49,0x97,Read,NAK
0.158797500,168,0x49,0x8D,Read,ACK
0.158852500,168,0x49,0x8D,Read,NAK
0.160482500,170,0x40,0x60,Write,ACK
0.160537500,170,0x40,0x60,Write,NAK
0.160867500,172,0x41,0x41,Read,ACK
0.160922500,172,0x41,0x41,Read,NAK
0.161177500,174,0x49,0x5C,Read,ACK
0.161232500,174,0x49,0x5C,Read,NAK
0.166362500,176,0x49,0xBF,Read,ACK
0.166417500,176,0x49,0xBF,Read,NAK
0.168047500,178,0x40,0x64,Write,ACK
0.168102500,178,0x40,0x64,Write,NAK
0.168432500,180,0x41,0x65,Read,ACK
0.168487500,180,0x41,0x65,Read,NAK
0.168742500,182,0x49,0x94,Read,ACK
0.168797500,182,0x49,0x94,Read,NAK
0.173927500,184,0x49,0xB8,Read,ACK
0.173982500,184,0x49,0xB8,Read,NAK
0.175612500,186,0x40,0x68,Write,ACK
0.175667500,186,0x40,0x68,Write,NAK
0.175997500,188,0x41,0x8E,Read,ACK
0.176052500,188,0x41,0x8E,Read,NAK
0.176307500,190,0x49,0x96,Read,ACK
0.176362500,190,0x49,0x96,Read,NAK
0.181492500,192,0x49,0xC6,Read,ACK
0.181547500,192,0x49,0xC6,Read,NAK
0.183177500,194,0x40,0x6C,Write,ACK
0.183232500,194,0x40,0x6C,Write,NAK
0.183562500,196,0x41,0x74,Read,ACK
0.183617500,196,0x41,0x74,Read,NAK
0.183872500,198,0x49,0x7C,Read,ACK
0.183927500,198,0x49,0x7C,Read,NAK
0.189057500,200,0x49,0xA4,Read,ACK
0.189112500,200,0x49,0xA4,Read,NAK
0.190742500,202,0x40,0x70,Write,ACK
0.190797500,202,0x40,0x70,Write,NAK
0.191127500,204,0x41,0x75,Read,ACK
0.191182500,204,0x41,0x75,Read,NAK
0.191437500,206,0x49,0x91,Read,ACK
0.191492500,206,0x49,0x91,Read,NAK
0.196622500,208,0x49,0x8F,Read,ACK
0.196677500,208,0x49,0x8F,Read,NAK
0.198307500,210,0x40,0x74,Write,ACK
0.198362500,210,0x40,0x74,Write,NAK
0.198692500,212,0x41,0x91,Read,ACK
0.198747500,212,0x41,0x91,Read,NAK
0.199002500,214,0x49,0x9D,Read,ACK
0.199057500,214,0x49,0x9D,Read,NAK
0.204187500,216,0x49,0x82,Read,ACK
0.204242500,216,0x49,0x82,Read,NAK
0.205872500,218,0x40,0x78,Write,ACK
0.205927500,218,0x40,0x78,Write,NAK
0.206257500,220,0x41,0x9B,Read,ACK
0.206312500,220,0x41,0x9B,Read,NAK
0.206567500,222,0x49,0x8E,Read,ACK
0.206622500,222,0x49,0x8E,Read,NAK
0.211752500,224,0x49,0x8B,Read,ACK
0.211807500,224,0x49,0x8B,Read,NAK
0.213437500,226,0x40,0x7C,Write,ACK
0.213492500,226,0x40,0x7C,Write,NAK
0.213822500,228,0x41,0x7B,Read,ACK
0.213877500,228,0x41,0x7B,Read,NAK
0.214132500,230,0x49,0xA8,Read,ACK
0.214187500,230,0x49,0xA8,Read,NAK
0.219317500,232,0x49,0xC1,Read,ACK
0.219372500,232,0x49,0xC1,Read,NAK
0.221002500,234,0x40,0x80,Write,ACK
0.221057500,234,0x40,0x80,Write,NAK
0.221387500,236,0x41,0x87,Read,ACK
0.221442500,236,0x41,0x87,Read,NAK
0.221697500,238,0x49,0x78,Read,ACK
0.221752500,238,0x49,0x78,Read,NAK
0.226882500,240,0x49,0xC8,Read,ACK
0.226937500,240,0x49,0xC8,Read,NAK
0.228567500,242,0x40,0x84,Write,ACK
0.228622500,242,0x40,0x84,Write,NAK
0.228952500,244,0x41,0x8B,Read,ACK
0.229007500,244,0x41,0x8B,Read,NAK
0.229262500,246,0x49,0xA4,Read,ACK
0.229317500,246,0x49,0xA4,Read,NAK
0.234447500,248,0x49,0xAA,Read,ACK
0.234502500,248,0x49,0xAA,Read,NAK
0.236132500,250,0x40,0x88,Write,ACK
0.236187500,250,0x40,0x88,Write,NAK
0.236517500,252,0x41,0x85,Read,ACK
0.236572500,252,0x41,0x85,Read,NAK
0.236827500,254,0x49,0xC5,Read,ACK
0.236882500,254,0x49,0xC5,Read,NAK
0.242012500,256,0x49,0xBF,Read,ACK
0.242067500,256,0x49,0xBF,Read,NAK
0.243697500,258,0x40,0x8C,Write,ACK
0.243752500,258,0x40,0x8C,Write,NAK
0.244082500,260,0x41,0xB7,Read,ACK
0.244137500,260,0x41,0xB7,Read,NAK
0.244392500,262,0x49,0xE3,Read,ACK
0.244447500,262,0x49,0xE3,Read,NAK
0.249577500,264,0x49,0xB0,Read,ACK
0.249632500,264,0x49,0xB0,Read,NAK
0.251262500,266,0x40,0x90,Write,ACK
0.251317500,266,0x40,0x90,Write,NAK
0.251647500,268,0x41,0x82,Read,ACK
0.251702500,268,0x41,0x82,Read,NAK
0.251957500,270,0x49,0xBB,Read,ACK
0.252012500,270,0x49,0xBB,Read,NAK
0.257142500,272,0x49,0xA6,Read,ACK
0.257197500,272,0x49,0xA6,Read,NAK
0.258827500,274,0x40,0x94,Write,ACK
0.258882500,274,0x40,0x94,Write,NAK
0.259212500,276,0x41,0x96,Read,ACK
0.259267500,276,0x41,0x96,Read,NAK
0.259522500,278,0x49,0xA1,Read,ACK
0.259577500,278,0x49,0xA1,Read,NAK
0.264707500,280,0x49,0xBD,Read,ACK
0.264762500,280,0x49,0xBD,Read,NAK
0.266392500,282,0x40,0x98,Write,ACK
0.266447500,282,0x40,0x98,Write,NAK
0.266777500,284,0x41,0x69,Read,ACK
0.266832500,284,0x41,0x69,Read,NAK
0.267087500,286,0x49,0xF0,Read,ACK
0.267142500,286,0x49,0xF0,Read,NAK
0.272272500,288,0x49,0xE0,Read,ACK
0.272327500,288,0x49,0xE0,Read,NAK
0.273957500,290,0x40,0x9C,Write,ACK
0.274012500,290,0x40,0x9C,Write,NAK
0.274342500,292,0x41,0x9A,Read,ACK
0.274397500,292,0x41,0x9A,Read,NAK
0.274652500,294,0x49,0xE2,Read,ACK
0.274707500,294,0x49,0xE2,Read,NAK
0.279837500,296,0x49,0xFB,Read,ACK
0.279892500,296,0x49,0xFB,Read,NAK
0.281522500,298,0x40,0xA0,Write,ACK
0.281577500,298,0x40,0xA0,Write,NAK
0.281907500,300,0x41,0x8C,Read,ACK
0.281962500,300,0x41,0x8C,Read,NAK
0.282217500,302,0x49,0x9C,Read,ACK
0.282272500,302,0x49,0x9C,Read,NAK
0.287402500,304,0x49,0xF9,Read,ACK
0.287457500,304,0x49,0xF9,Read,NAK
0.289087500,306,0x40,0xA4,Write,ACK
0.289142500,306,0x40,0xA4,Write,NAK
0.289472500,308,0x41,0x9E,Read,ACK
0.289527500,308,0x41,0x9E,Read,NAK
0.289782500,310,0x49,0xDB,Read,ACK
0.289837500,310,0x49,0xDB,Read,NAK
0.294967500,312,0x49,0xAB,Read,ACK
0.295022500,312,0x49,0xAB,Read,NAK
0.296652500,314,0x40,0xA8,Write,ACK
0.296707500,314,0x40,0xA8,Write,NAK
0.297037500,316,0x41,0x96,Read,ACK
0.297092500,316,0x41,0x96,Read,NAK
0.297347500,318,0x49,0x9E,Read,ACK
0.297402500,318,0x49,0x9E,Read,NAK
0.302532500,320,0x49,0xEF,Read,ACK
0.302587500,320,0x49,0xEF,Read,NAK
0.304217500,322,0x40,0xAC,Write,ACK
0.304272500,322,0x40,0xAC,Write,NAK
0.304602500,324,0x41,0xD7,Read,ACK
0.304657500,324,0x41,0xD7,Read,NAK
0.304912500,326,0x49,0xFF,Read,ACK
0.304967500,326,0x49,0xFF,Read,NAK
0.310097500,328,0x49,0xDE,Read,ACK
0.310152500,328,0x49,0xDE,Read,NAK
0.311782500,330,0x40,0xB0,Write,ACK
0.311837500,330,0x40,0xB0,Write,NAK
0.312167500,332,0x41,0xDC,Read,ACK
0.312222500,332,0x41,0xDC,Read,NAK
0.312477500,334,0x49,0xB0,Read,ACK
0.312532500,334,0x49,0xB0,Read,NAK
0.317662500,336,0x49,0xF9,Read,ACK
0.317717500,336,0x49,0xF9,Read,NAK
0.319347500,338,0x40,0xB4,Write,ACK
0.319402500,338,0x40,0xB4,Write,NAK
0.319732500,340,0x41,0x9F,Read,ACK
0.319787500,340,0x41,0x9F,Read,NAK
0.320042500,342,0x49,0xDE,Read,ACK
0.320097500,342,0x49,0xDE,Read,NAK
0.325227500,344,0x49,0xEE,Read,ACK
0.325282500,344,0x49,0xEE,Read,NAK
0.326912500,346,0x40,0xB8,Write,ACK
0.326967500,346,0x40,0xB8,Write,NAK
0.327297500,348,0x41,0xB4,Read,ACK
0.327352500,348,0x41,0xB4,Read,NAK
0.327607500,350,0x49,0xF3,Read,ACK
0.327662500,350,0x49,0xF3,Read,NAK
0.332792500,352,0x49,0xF7,Read,ACK
0.332847500,352,0x49,0xF7,Read,NAK
0.334477500,354,0x40,0xBC,Write,ACK
0.334532500,354,0x40,0xBC,Write,NAK
0.334862500,356,0x41,0x87,Read,ACK
0.334917500,356,0x41,0x87,Read,NAK
0.335172500,358,0x49,0x13,Read,ACK
0.335227500,358,0x49,0x13,Read,NAK
0.340357500,360,0x49,0xD7,Read,ACK
0.340412500,360,0x49,0xD7,Read,NAK
0.342042500,362,0x40,0xC0,Write,ACK
0.342097500,362,0x40,0xC0,Write,NAK
0.342427500,364,0x41,0x8D,Read,ACK
0.342482500,364,0x41,0x8D,Read,NAK
0.342737500,366,0x49,0xEC,Read,ACK
0.342792500,366,0x49,0xEC,Read,NAK
0.347922500,368,0x49,0xE6,Read,ACK
0.347977500,368,0x49,0xE6,Read,NAK
0.349607500,370,0x40,0xC4,Write,ACK
0.349662500,370,0x40,0xC4,Write,NAK
0.349992500,372,0x41,0xD5,Read,ACK
0.350047500,372,0x41,0xD5,Read,NAK
0.350302500,374,0x49,0x0D,Read,ACK
0.350357500,374,0x49,0x0D,Read,NAK
0.355487500,376,0x49,0xCE,Read,ACK
0.355542500,376,0x49,0xCE,Read,NAK
0.357117500,,0x24,,Write,NAK
0.357447500,380,0x40,0xC8,Write,ACK
0.357502500,380,0x40,0xC8,Write,NAK
0.357832500,382,0x41,0xE6,Read,ACK
0.357887500,382,0x41,0xE6,Read,NAK
0.358142500,384,0x49,0x01,Read,ACK
0.358197500,384,0x49,0x01,Read,NAK
0.363327500,386,0x49,0xFD,Read,ACK
0.363382500,386,0x49,0xFD,Read,NAK
0.365012500,388,0x40,0xCC,Write,ACK
0.365067500,388,0x40,0xCC,Write,NAK
0.365397500,390,0x41,0xD3,Read,ACK
0.365452500,390,0x41,0xD3,Read,NAK
0.365707500,392,0x49,0x1B,Read,ACK
0.365762500,392,0x49,0x1B,Read,NAK
0.370892500,394,0x49,0xEA,Read,ACK
0.370947500,394,0x49,0xEA,Read,NAK
0.372577500,396,0x40,0xD0,Write,ACK
0.372632500,396,0x40,0xD0,Write,NAK
0.372962500,398,0x41,0xFD,Read,ACK
0.373017500,398,0x41,0xFD,Read,NAK
0.373272500,400,0x49,0xEF,Read,ACK
0.373327500,400,0x49,0xEF,Read,NAK
0.378457500,402,0x49,0x19,Read,ACK
0.378512500,402,0x49,0x19,Read,NAK
0.380142500,404,0x40,0xD4,Write,ACK
0.380197500,404,0x40,0xD4,Write,NAK
0.380527500,406,0x41,0xFB,Read,ACK
0.380582500,406,0x41,0xFB,Read,NAK
0.380837500,408,0x49,0x0F,Read,ACK
0.380892500,408,0x49,0x0F,Read,NAK
0.386022500,410,0x49,0xF8,Read,ACK
0.386077500,410,0x49,0xF8,Read,NAK
0.387707500,412,0x40,0xD8,Write,ACK
0.387762500,412,0x40,0xD8,Write,NAK
0.388092500,414,0x41,0xC8,Read,ACK
0.388147500,414,0x41,0xC8,Read,NAK
0.388402500,416,0x49,0x24,Read,ACK
0.388457500,416,0x49,0x24,Read,NAK
0.393587500,418,0x49,0x11,Read,ACK
0.393642500,418,0x49,0x11,Read,NAK
0.395272500,420,0x40,0xDC,Write,ACK
0.395327500,420,0x40,0xDC,Write,NAK
0.395657500,422,0x41,0xF9,Read,ACK
0.395712500,422,0x41,0xF9,Read,NAK
0.395967500,424,0x49,0x18,Read,ACK
0.396022500,424,0x49,0x18,Read,NAK
0.401152500,426,0x49,0x2E,Read,ACK
0.401207500,426,0x49,0x2E,Read,NAK
0.402837500,428,0x40,0xE0,Write,ACK
0.402892500,428,0x40,0xE0,Write,NAK
0.403222500,430,0x41,0xC2,Read,ACK
0.403277500,430,0x41,0xC2,Read,NAK
0.403532500,432,0x49,0x10,Read,ACK
0.403587500,432,0x49,0x10,Read,NAK
0.408717500,434,0x49,0x40,Read,ACK
0.408772500,434,0x49,0x40,Read,NAK
0.410402500,436,0x40,0xE4,Write,ACK
0.410457500,436,0x40,0xE4,Write,NAK
0.410787500,438,0x41,0xD7,Read,ACK
0.410842500,438,0x41,0xD7,Read,NAK
0.411097500,440,0x49,0x36,Read,ACK
0.411152500,440,0x49,0x36,Read,NAK
0.416282500,442,0x49,0x22,Read,ACK
0.416337500,442,0x49,0x22,Read,NAK
0.417967500,444,0x40,0xE8,Write,ACK
0.418022500,444,0x40,0xE8,Write,NAK
0.418352500,446,0x41,0xEE,Read,ACK
0.418407500,446,0x41,0xEE,Read,NAK
0.418662500,448,0x49,0x13,Read,ACK
0.418717500,448,0x49,0x13,Read,NAK
0.423847500,450,0x49,0x2A,Read,ACK
0.423902500,450,0x49,0x2A,Read,NAK
0.425532500,452,0x40,0xEC,Write,ACK
0.425587500,452,0x40,0xEC,Write,NAK
0.425917500,454,0x41,0xE0,Read,ACK
0.425972500,454,0x41,0xE0,Read,NAK
0.426227500,456,0x49,0x04,Read,ACK
0.426282500,456,0x49,0x04,Read,NAK
0.431412500,458,0x49,0x13,Read,ACK
0.431467500,458,0x49,0x13,Read,NAK
0.433097500,460,0x40,0xF0,Write,ACK
0.433152500,460,0x40,0xF0,Write,NAK
0.433482500,462,0x41,0x06,Read,ACK
0.433537500,462,0x41,0x06,Read,NAK
0.433792500,464,0x49,0x18,Read,ACK
0.433847500,464,0x49,0x18,Read,NAK
0.438977500,466,0x49,0x16,Read,ACK
0.439032500,466,0x49,0x16,Read,NAK
0.440662500,468,0x40,0xF4,Write,ACK
0.440717500,468,0x40,0xF4,Write,NAK
0.441047500,470,0x41,0xD2,Read,ACK
0.441102500,470,0x41,0xD2,Read,NAK
0.441357500,472,0x49,0xF6,Read,ACK
0.441412500,472,0x49,0xF6,Read,NAK
0.446542500,474,0x49,0x3C,Read,ACK
0.446597500,474,0x49,0x3C,Read,NAK
0.448227500,476,0x40,0xF8,Write,ACK
0.448282500,476,0x40,0xF8,Write,NAK
0.448612500,478,0x41,0xF4,Read,ACK
0.448667500,478,0x41,0xF4,Read,NAK
0.448922500,480,0x49,0x31,Read,ACK
0.448977500,480,0x49,0x31,Read,NAK
0.454107500,482,0x49,0x31,Read,ACK
0.454162500,482,0x49,0x31,Read,NAK
0.455792500,484,0x40,0xFC,Write,ACK
0.455847500,484,0x40,0xFC,Write,NAK
0.456177500,486,0x41,0xEB,Read,ACK
0.456232500,486,0x41,0xEB,Read,NAK
0.456487500,488,0x49,0x3F,Read,ACK
0.456542500,488,0x49,0x3F,Read,NAK
0.461672500,490,0x49,0x4A,Read,ACK
0.461727500,490,0x49,0x4A,Read,NAK
0.463357500,492,0x40,0x00,Write,ACK
0.463412500,492,0x40,0x00,Write,NAK
0.463742500,494,0x41,0xED,Read,ACK
0.463797500,494,0x41,0xED,Read,NAK
0.464052500,496,0x49,0x03,Read,ACK
0.464107500,496,0x49,0x03,Read,NAK
0.469237500,498,0x49,0x43,Read,ACK
0.469292500,498,0x49,0x43,Read,NAK
0.470922500,500,0x40,0x04,Write,ACK
0.470977500,500,0x40,0x04,Write,NAK
0.471307500,502,0x41,0xD3,Read,ACK
0.471362500,502,0x41,0xD3,Read,NAK
0.471617500,504,0x49,0x3E,Read,ACK
0.471672500,504,0x49,0x3E,Read,NAK
0.476802500,506,0x49,0x11,Read,ACK
0.476857500,506,0x49,0x11,Read,NAK
0.478487500,508,0x40,0x08,Write,ACK
0.478542500,508,0x40,0x08,Write,NAK
0.478872500,510,0x41,0xE7,Read,ACK
0.478927500,510,0x41,0xE7,Read,NAK
0.479182500,512,0x49,0x3F,Read,ACK
0.479237500,512,0x49,0x3F,Read,NAK
0.484367500,514,0x49,0x39,Read,ACK
0.484422500,514,0x49,0x39,Read,NAK
0.486052500,516,0x40,0x0C,Write,ACK
0.486107500,516,0x40,0x0C,Write,NAK
0.486437500,518,0x41,0x09,Read,ACK
0.486492500,518,0x41,0x09,Read,NAK
0.486747500,520,0x49,0x1D,Read,ACK
0.486802500,520,0x49,0x1D,Read,NAK
0.491932500,522,0x49,0x1D,Read,ACK
0.491987500,522,0x49,0x1D,Read,NAK
0.493617500,524,0x40,0x10,Write,ACK
0.493672500,524,0x40,0x10,Write,NAK
0.494002500,526,0x41,0x27,Read,ACK
0.494057500,526,0x41,0x27,Read,NAK
0.494312500,528,0x49,0x63,Read,ACK
0.494367500,528,0x49,0x63,Read,NAK
0.499497500,530,0x49,0x48,Read,ACK
0.499552500,530,0x49,0x48,Read,NAK
0.501182500,532,0x40,0x14,Write,ACK
0.501237500,532,0x40,0x14,Write,NAK
0.501567500,534,0x41,0xE3,Read,ACK
0.501622500,534,0x41,0xE3,Read,NAK
0.501877500,536,0x49,0x18,Read,ACK
0.501932500,536,0x49,0x18,Read,NAK
0.507062500,538,0x49,0x23,Read,ACK
0.507117500,538,0x49,0x23,Read,NAK
0.508747500,540,0x40,0x18,Write,ACK
0.508802500,540,0x40,0x18,Write,NAK
0.509132500,542,0x41,0x03,Read,ACK
0.509187500,542,0x41,0x03,Read,NAK
0.509442500,544,0x49,0x18,Read,ACK
0.509497500,544,0x49,0x18,Read,NAK
0.514627500,546,0x49,0x7C,Read,ACK
0.514682500,546,0x49,0x7C,Read,NAK
0.516312500,548,0x40,0x1C,Write,ACK
0.516367500,548,0x40,0x1C,Write,NAK
0.516697500,550,0x41,0x3D,Read,ACK
0.516752500,550,0x41,0x3D,Read,NAK
0.517007500,552,0x49,0x53,Read,ACK
0.517062500,552,0x49,0x53,Read,NAK
0.522192500,554,0x49,0x46,Read,ACK
0.522247500,554,0x49,0x46,Read,NAK
0.523877500,556,0x40,0x20,Write,ACK
0.523932500,556,0x40,0x20,Write,NAK
0.524262500,558,0x41,0x08,Read,ACK
0.524317500,558,0x41,0x08,Read,NAK
0.524572500,560,0x49,0x75,Read,ACK
0.524627500,560,0x49,0x75,Read,NAK
0.529757500,562,0x49,0x29,Read,ACK
0.529812500,562,0x49,0x29,Read,NAK
0.531442500,564,0x40,0x24,Write,ACK
0.531497500,564,0x40,0x24,Write,NAK
0.531827500,566,0x41,0x2D,Read,ACK
0.531882500,566,0x41,0x2D,Read,NAK
0.532137500,568,0x49,0x56,Read,ACK
0.532192500,568,0x49,0x56,Read,NAK
0.537322500,570,0x49,0x30,Read,ACK
0.537377500,570,0x49,0x30,Read,NAK
0.539007500,572,0x40,0x28,Write,ACK
0.539062500,572,0x40,0x28,Write,NAK
0.539392500,574,0x41,0x0B,Read,ACK
0.539447500,574,0x41,0x0B,Read,NAK
0.539702500,576,0x49,0x81,Read,ACK
0.539757500,576,0x49,0x81,Read,NAK
0.544887500,578,0x49,0x64,Read,ACK
0.544942500,578,0x49,0x64,Read,NAK
0.546572500,580,0x40,0x2C,Write,ACK
0.546627500,580,0x40,0x2C,Write,NAK
0.546957500,582,0x41,0x10,Read,ACK
0.547012500,582,0x41,0x10,Read,NAK
0.547267500,584,0x49,0x31,Read,ACK
0.547322500,584,0x49,0x31,Read,NAK
0.552452500,586,0x49,0x6B,Read,ACK
0.552507500,586,0x49,0x6B,Read,NAK
0.554137500,588,0x40,0x30,Write,ACK
0.554192500,588,0x40,0x30,Write,NAK
0.554522500,590,0x41,0x02,Read,ACK
0.554577500,590,0x41,0x02,Read,NAK
0.554832500,592,0x49,0x2B,Read,ACK
0.554887500,592,0x49,0x2B,Read,NAK
0.560017500,594,0x49,0x6C,Read,ACK
0.560072500,594,0x49,0x6C,Read,NAK
0.561702500,596,0x40,0x34,Write,ACK
0.561757500,596,0x40,0x34,Write,NAK
0.562087500,598,0x41,0x45,Read,ACK
0.562142500,598,0x41,0x45,Read,NAK
0.562397500,600,0x49,0x37,Read,ACK
0.562452500,600,0x49,0x37,Read,NAK
0.567582500,602,0x49,0x84,Read,ACK
0.567637500,602,0x49,0x84,Read,NAK
0.569267500,604,0x40,0x38,Write,ACK
0.569322500,604,0x40,0x38,Write,NAK
0.569652500,606,0x41,0x19,Read,ACK
0.569707500,606,0x41,0x19,Read,NAK
0.569962500,608,0x49,0x41,Read,ACK
0.570017500,608,0x49,0x41,Read,NAK
0.575147500,610,0x49,0x59,Read,ACK
0.575202500,610,0x49,0x59,Read,NAK
0.576832500,612,0x40,0x3C,Write,ACK
0.576887500,612,0x40,0x3C,Write,NAK
0.577217500,614,0x41,0x2A,Read,ACK
0.577272500,614,0x41,0x2A,Read,NAK
0.577527500,616,0x49,0x3F,Read,ACK
0.577582500,616,0x49,0x3F,Read,NAK
0.582712500,618,0x49,0x67,Read,ACK
0.582767500,618,0x49,0x67,Read,NAK
0.584397500,620,0x40,0x40,Write,ACK
0.584452500,620,0x40,0x40,Write,NAK
0.584782500,622,0x41,0x13,Read,ACK
0.584837500,622,0x41,0x13,Read,NAK
0.585092500,624,0x49,0x5D,Read,ACK
0.585147500,624,0x49,0x5D,Read,NAK
0.590277500,626,0x49,0x7C,Read,ACK
0.590332500,626,0x49,0x7C,Read,NAK
0.591962500,628,0x40,0x44,Write,ACK
0.592017500,628,0x40,0x44,Write,NAK
0.592347500,630,0x41,0x71,Read,ACK
0.592402500,630,0x41,0x71,Read,NAK
0.592657500,632,0x49,0x44,Read,ACK
0.592712500,632,0x49,0x44,Read,NAK
0.597842500,634,0x49,0x88,Read,ACK
0.597897500,634,0x49,0x88,Read,NAK
0.599527500,636,0x40,0x48,Write,ACK
0.599582500,636,0x40,0x48,Write,NAK
0.599912500,638,0x41,0x1C,Read,ACK
0.599967500,638,0x41,0x1C,Read,NAK
0.600222500,640,0x49,0x4C,Read,ACK
0.600277500,640,0x49,0x4C,Read,NAK
0.605407500,642,0x49,0x55,Read,ACK
0.605462500,642,0x49,0x55,Read,NAK
0.607092500,644,0x40,0x4C,Write,ACK
0.607147500,644,0x40,0x4C,Write,NAK
0.607477500,646,0x41,0x33,Read,ACK
0.607532500,646,0x41,0x33,Read,NAK
0.607787500,648,0x49,0x50,Read,ACK
0.607842500,648,0x49,0x50,Read,NAK
0.612972500,650,0x49,0x7B,Read,ACK
0.613027500,650,0x49,0x7B,Read,NAK
0.614657500,652,0x40,0x50,Write,ACK
0.614712500,652,0x40,0x50,Write,NAK
0.615042500,654,0x41,0x2E,Read,ACK
0.615097500,654,0x41,0x2E,Read,NAK
0.615352500,656,0x49,0x74,Read,ACK
0.615407500,656,0x49,0x74,Read,NAK
0.620537500,658,0x49,0x5E,Read,ACK
0.620592500,658,0x49,0x5E,Read,NAK
0.622222500,660,0x40,0x54,Write,ACK
0.622277500,660,0x40,0x54,Write,NAK
0.622607500,662,0x41,0x59,Read,ACK
0.622662500,662,0x41,0x59,Read,NAK
0.622917500,664,0x49,0x6A,Read,ACK
0.622972500,664,0x49,0x6A,Read,NAK
0.628102500,666,0x49,0x8B,Read,ACK
0.628157500,666,0x49,0x8B,Read,NAK
0.629787500,668,0x40,0x58,Write,ACK
0.629842500,668,0x40,0x58,Write,NAK
0.630172500,670,0x41,0x55,Read,ACK
0.630227500,670,0x41,0x55,Read,NAK
0.630482500,672,0x49,0x98,Read,ACK
0.630537500,672,0x49,0x98,Read,NAK
0.635667500,674,0x49,0x8C,Read,ACK
0.635722500,674,0x49,0x8C,Read,NAK
0.637352500,676,0x40,0x5C,Write,ACK
0.637407500,676,0x40,0x5C,Write,NAK
0.637737500,678,0x41,0x7E,Read,ACK
0.637792500,678,0x41,0x7E,Read,NAK
0.638047500,680,0x49,0xA4,Read,ACK
0.638102500,680,0x49,0xA4,Read,NAK
0.643232500,682,0x49,0x98,Read,ACK
0.643287500,682,0x49,0x98,Read,NAK
0.644917500,684,0x40,0x60,Write,ACK
0.644972500,684,0x40,0x60,Write,NAK
0.645302500,686,0x41,0x73,Read,ACK
0.645357500,686,0x41,0x73,Read,NAK
0.645612500,688,0x49,0x91,Read,ACK
0.645667500,688,0x49,0x91,Read,NAK
0.650797500,690,0x49,0x80,Read,ACK
0.650852500,690,0x49,0x80,Read,NAK
0.652482500,692,0x40,0x64,Write,ACK
0.652537500,692,0x40,0x64,Write,NAK
0.652867500,694,0x41,0x73,Read,ACK
0.652922500,694,0x41,0x73,Read,NAK
0.653177500,696,0x49,0xB1,Read,ACK
0.653232500,696,0x49,0xB1,Read,NAK
0.658362500,698,0x49,0xA0,Read,ACK
0.658417500,698,0x49,0xA0,Read,NAK
0.660047500,700,0x40,0x68,Write,ACK
0.660102500,700,0x40,0x68,Write,NAK
0.660432500,702,0x41,0x67,Read,ACK
0.660487500,702,0x41,0x67,Read,NAK
0.660742500,704,0x49,0x99,Read,ACK
0.660797500,704,0x49,0x99,Read,NAK
0.665927500,706,0x49,0xB3,Read,ACK
0.665982500,706,0x49,0xB3,Read,NAK
0.667612500,708,0x40,0x6C,Write,ACK
0.667667500,708,0x40,0x6C,Write,NAK
0.667997500,710,0x41,0x50,Read,ACK
0.668052500,710,0x41,0x50,Read,NAK
0.668307500,712,0x49,0x9E,Read,ACK
0.668362500,712,0x49,0x9E,Read,NAK
0.673492500,714,0x49,0xBF,Read,ACK
0.673547500,714,0x49,0xBF,Read,NAK
0.675177500,716,0x40,0x70,Write,ACK
0.675232500,716,0x40,0x70,Write,NAK
0.675562500,718,0x41,0x40,Read,ACK
0.675617500,718,0x41,0x40,Read,NAK
0.675872500,720,0x49,0xB9,Read,ACK
0.675927500,720,0x49,0xB9,Read,NAK
0.681057500,722,0x49,0xD0,Read,ACK
0.681112500,722,0x49,0xD0,Read,NAK
0.682742500,724,0x40,0x74,Write,ACK
0.682797500,724,0x40,0x74,Write,NAK
0.683127500,726,0x41,0x82,Read,ACK
0.683182500,726,0x41,0x82,Read,NAK
0.683437500,728,0x49,0x8F,Read,ACK
0.683492500,728,0x49,0x8F,Read,NAK
0.688622500,730,0x49,0x7C,Read,ACK
0.688677500,730,0x49,0x7C,Read,NAK
0.690307500,732,0x40,0x78,Write,ACK
0.690362500,732,0x40,0x78,Write,NAK
0.690692500,734,0x41,0x82,Read,ACK
0.690747500,734,0x41,0x82,Read,NAK
0.691002500,736,0x49,0x9C,Read,ACK
0.691057500,736,0x49,0x9C,Read,NAK
0.696187500,738,0x49,0xBA,Read,ACK
0.696242500,738,0x49,0xBA,Read,NAK
0.697872500,740,0x40,0x7C,Write,ACK
0.697927500,740,0x40,0x7C,Write,NAK
0.698257500,742,0x41,0x62,Read,ACK
0.698312500,742,0x41,0x62,Read,NAK
0.698567500,744,0x49,0xB2,Read,ACK
0.698622500,744,0x49,0xB2,Read,NAK
0.703752500,746,0x49,0x88,Read,ACK
0.703807500,746,0x49,0x88,Read,NAK
0.705437500,748,0x40,0x80,Write,ACK
0.705492500,748,0x40,0x80,Write,NAK
0.705822500,750,0x41,0x95,Read,ACK
0.705877500,750,0x41,0x95,Read,NAK
0.706132500,752,0x49,0x94,Read,ACK
0.706187500,752,0x49,0x94,Read,NAK
0.711317500,754,0x49,0xA1,Read,ACK
0.711372500,754,0x49,0xA1,Read,NAK
0.713002500,756,0x40,0x84,Write,ACK
0.713057500,756,0x40,0x84,Write,NAK
0.713387500,758,0x41,0x5F,Read,ACK
0.713442500,758,0x41,0x5F,Read,NAK
0.713697500,760,0x49,0xC9,Read,ACK
0.713752500,760,0x49,0xC9,Read,NAK
0.718882500,762,0x49,0xD7,Read,ACK
0.718937500,762,0x49,0xD7,Read,NAK
0.720567500,764,0x40,0x88,Write,ACK
0.720622500,764,0x40,0x88,Write,NAK
0.720952500,766,0x41,0xAD,Read,ACK
0.721007500,766,0x41,0xAD,Read,NAK
0.721262500,768,0x49,0xAA,Read,ACK
0.721317500,768,0x49,0xAA,Read,NAK
0.726447500,770,0x49,0xC9,Read,ACK
0.726502500,770,0x49,0xC9,Read,NAK
0.728132500,772,0x40,0x8C,Write,ACK
0.728187500,772,0x40,0x8C,Write,NAK
0.728517500,774,0x41,0x8F,Read,ACK
0.728572500,774,0x41,0x8F,Read,NAK
0.728827500,776,0x49,0xD8,Read,ACK
0.728882500,776,0x49,0xD8,Read,NAK
0.734012500,778,0x49,0xA2,Read,ACK
0.734067500,778,0x49,0xA2,Read,NAK
0.735697500,780,0x40,0x90,Write,ACK
0.735752500,780,0x40,0x90,Write,NAK
0.736082500,782,0x41,0xA0,Read,ACK
0.736137500,782,0x41,0xA0,Read,NAK
0.736392500,784,0x49,0xBE,Read,ACK
0.736447500,784,0x49,0xBE,Read,NAK
0.741577500,786,0x49,0xE8,Read,ACK
0.741632500,786,0x49,0xE8,Read,NAK
0.743262500,788,0x40,0x94,Write,ACK
0.743317500,788,0x40,0x94,Write,NAK
0.743647500,790,0x41,0x8C,Read,ACK
0.743702500,790,0x41,0x8C,Read,NAK
0.743957500,792,0x49,0xDC,Read,ACK
0.744012500,792,0x49,0xDC,Read,NAK
0.749142500,794,0x49,0xD8,Read,ACK
0.749197500,794,0x49,0xD8,Read,NAK
0.750827500,796,0x40,0x98,Write,ACK
0.750882500,796,0x40,0x98,Write,NAK
0.751212500,798,0x41,0xB3,Read,ACK
0.751267500,798,0x41,0xB3,Read,NAK
0.751522500,800,0x49,0xD6,Read,ACK
0.751577500,800,0x49,0xD6,Read,NAK
0.756707500,802,0x49,0xE1,Read,ACK
0.756762500,802,0x49,0xE1,Read,NAK
0.758392500,804,0x40,0x9C,Write,ACK
0.758447500,804,0x40,0x9C,Write,NAK
0.758777500,806,0x41,0x8B,Read,ACK
0.758832500,806,0x41,0x8B,Read,NAK
0.759087500,808,0x49,0xD9,Read,ACK
0.759142500,808,0x49,0xD9,Read,NAK
0.764272500,810,0x49,0xE2,Read,ACK
0.764327500,810,0x49,0xE2,Read,NAK
0.765957500,812,0x40,0xA0,Write,ACK
0.766012500,812,0x40,0xA0,Write,NAK
0.766342500,814,0x41,0x6B,Read,ACK
0.766397500,814,0x41,0x6B,Read,NAK
0.766652500,816,0x49,0xBF,Read,ACK
0.766707500,816,0x49,0xBF,Read,NAK
0.771837500,818,0x49,0xB0,Read,ACK
0.771892500,818,0x49,0xB0,Read,NAK
0.773522500,820,0x40,0xA4,Write,ACK
0.773577500,820,0x40,0xA4,Write,NAK
0.773907500,822,0x41,0xB6,Read,ACK
0.773962500,822,0x41,0xB6,Read,NAK
0.774217500,824,0x49,0xC0,Read,ACK
0.774272500,824,0x49,0xC0,Read,NAK
0.779402500,826,0x49,0xD9,Read,ACK
0.779457500,826,0x49,0xD9,Read,NAK
0.781087500,828,0x40,0xA8,Write,ACK
0.781142500,828,0x40,0xA8,Write,NAK
0.781472500,830,0x41,0x94,Read,ACK
0.781527500,830,0x41,0x94,Read,NAK
0.781782500,832,0x49,0xA2,Read,ACK
0.781837500,832,0x49,0xA2,Read,NAK
0.786967500,834,0x49,0x03,Read,ACK
0.787022500,834,0x49,0x03,Read,NAK
0.788652500,836,0x40,0xAC,Write,ACK
0.788707500,836,0x40,0xAC,Write,NAK
0.789037500,838,0x41,0xD0,Read,ACK
0.789092500,838,0x41,0xD0,Read,NAK
0.789347500,840,0x49,0xD5,Read,ACK
0.789402500,840,0x49,0xD5,Read,NAK
0.794532500,842,0x49,0xEA,Read,ACK
0.794587500,842,0x49,0xEA,Read,NAK
0.796217500,844,0x40,0xB0,Write,ACK
0.796272500,844,0x40,0xB0,Write,NAK
0.796602500,846,0x41,0x82,Read,ACK
0.796657500,846,0x41,0x82,Read,NAK
0.796912500,848,0x49,0xFE,Read,ACK
0.796967500,848,0x49,0xFE,Read,NAK
0.802097500,850,0x49,0xED,Read,ACK
0.802152500,850,0x49,0xED,Read,NAK
0.803782500,852,0x40,0xB4,Write,ACK
0.803837500,852,0x40,0xB4,Write,NAK
0.804167500,854,0x41,0xC5,Read,ACK
0.804222500,854,0x41,0xC5,Read,NAK
0.804477500,856,0x49,0xBA,Read,ACK
0.804532500,856,0x49,0xBA,Read,NAK
0.809662500,858,0x49,0xCB,Read,ACK
0.809717500,858,0x49,0xCB,Read,NAK
0.811347500,860,0x40,0xB8,Write,ACK
0.811402500,860,0x40,0xB8,Write,NAK
0.811732500,862,0x41,0xDA,Read,ACK
0.811787500,862,0x41,0xDA,Read,NAK
0.812042500,864,0x49,0x00,Read,ACK
0.812097500,864,0x49,0x00,Read,NAK
0.817227500,866,0x49,0xCC,Read,ACK
0.817282500,866,0x49,0xCC,Read,NAK
0.818912500,868,0x40,0xBC,Write,ACK
0.818967500,868,0x40,0xBC,Write,NAK
0.819297500,870,0x41,0xBB,Read,ACK
0.819352500,870,0x41,0xBB,Read,NAK
0.819607500,872,0x49,0xCE,Read,ACK
0.819662500,872,0x49,0xCE,Read,NAK
0.824792500,874,0x49,0xED,Read,ACK
0.824847500,874,0x49,0xED,Read,NAK
0.826477500,876,0x40,0xC0,Write,ACK
0.826532500,876,0x40,0xC0,Write,NAK
0.826862500,878,0x41,0xCF,Read,ACK
0.826917500,878,0x41,0xCF,Read,NAK
0.827172500,880,0x49,0xB9,Read,ACK
0.827227500,880,0x49,0xB9,Read,NAK
0.832357500,882,0x49,0xE4,Read,ACK
0.832412500,882,0x49,0xE4,Read,NAK
0.834042500,884,0x40,0xC4,Write,ACK
0.834097500,884,0x40,0xC4,Write,NAK
0.834427500,886,0x41,0xB7,Read,ACK
0.834482500,886,0x41,0xB7,Read,NAK
0.834737500,888,0x49,0x05,Read,ACK
0.834792500,888,0x49,0x05,Read,NAK
0.839922500,890,0x49,0xD4,Read,ACK
0.839977500,890,0x49,0xD4,Read,NAK
0.841607500,892,0x40,0xC8,Write,ACK
0.841662500,892,0x40,0xC8,Write,NAK
0.841992500,894,0x41,0xB1,Read,ACK
0.842047500,894,0x41,0xB1,Read,NAK
0.842302500,896,0x49,0x1C,Read,ACK
0.842357500,896,0x49,0x1C,Read,NAK
0.847487500,898,0x49,0xE2,Read,ACK
0.847542500,898,0x49,0xE2,Read,NAK
0.849172500,900,0x40,0xCC,Write,ACK
0.849227500,900,0x40,0xCC,Write,NAK
0.849557500,902,0x41,0xF7,Read,ACK
0.849612500,902,0x41,0xF7,Read,NAK
0.849867500,904,0x49,0x0C,Read,ACK
0.849922500,904,0x49,0x0C,Read,NAK
0.855052500,906,0x49,0xF9,Read,ACK
0.855107500,906,0x49,0xF9,Read,NAK
0.856737500,908,0x40,0xD0,Write,ACK
0.856792500,908,0x40,0xD0,Write,NAK
0.857122500,910,0x41,0xD9,Read,ACK
0.857177500,910,0x41,0xD9,Read,NAK
0.857432500,912,0x49,0x23,Read,ACK
0.857487500,912,0x49,0x23,Read,NAK
0.862617500,914,0x49,0xE2,Read,ACK
0.862672500,914,0x49,0xE2,Read,NAK
0.864302500,916,0x40,0xD4,Write,ACK
0.864357500,916,0x40,0xD4,Write,NAK
0.864687500,918,0x41,0xA7,Read,ACK
0.864742500,918,0x41,0xA7,Read,NAK
0.864997500,920,0x49,0xE5,Read,ACK
0.865052500,920,0x49,0xE5,Read,NAK
0.870182500,922,0x49,0x35,Read,ACK
0.870237500,922,0x49,0x35,Read,NAK
0.871867500,924,0x40,0xD8,Write,ACK
0.871922500,924,0x40,0xD8,Write,NAK
0.872252500,926,0x41,0xDF,Read,ACK
0.872307500,926,0x41,0xDF,Read,NAK
0.872562500,928,0x49,0x05,Read,ACK
0.872617500,928,0x49,0x05,Read,NAK
0.877747500,930,0x49,0x2E,Read,ACK
0.877802500,930,0x49,0x2E,Read,NAK
0.879432500,932,0x40,0xDC,Write,ACK
0.879487500,932,0x40,0xDC,Write,NAK
0.879817500,934,0x41,0xFA,Read,ACK
0.879872500,934,0x41,0xFA,Read,NAK
0.880127500,936,0x49,0x1B,Read,ACK
0.880182500,936,0x49,0x1B,Read,NAK
0.885312500,938,0x49,0xFC,Read,ACK
0.885367500,938,0x49,0xFC,Read,NAK
0.886997500,940,0x40,0xE0,Write,ACK
0.887052500,940,0x40,0xE0,Write,NAK
0.887382500,942,0x41,0xC6,Read,ACK
0.887437500,942,0x41,0xC6,Read,NAK
0.887692500,944,0x49,0x0C,Read,ACK
0.887747500,944,0x49,0x0C,Read,NAK
0.892877500,946,0x49,0x4A,Read,ACK
0.892932500,946,0x49,0x4A,Read,NAK
0.894562500,948,0x40,0xE4,Write,ACK
0.894617500,948,0x40,0xE4,Write,NAK
0.894947500,950,0x41,0xCC,Read,ACK
0.895002500,950,0x41,0xCC,Read,NAK
0.895257500,952,0x49,0x17,Read,ACK
0.895312500,952,0x49,0x17,Read,NAK
0.900442500,954,0x49,0x1D,Read,ACK
0.900497500,954,0x49,0x1D,Read,NAK
0.902127500,956,0x40,0xE8,Write,ACK
0.902182500,956,0x40,0xE8,Write,NAK
0.902512500,958,0x41,0xB9,Read,ACK
0.902567500,958,0x41,0xB9,Read,NAK
0.902822500,960,0x49,0x23,Read,ACK
0.902877500,960,0x49,0x23,Read,NAK
0.908007500,962,0x49,0x12,Read,ACK
0.908062500,962,0x49,0x12,Read,NAK
0.909692500,964,0x40,0xEC,Write,ACK
0.909747500,964,0x40,0xEC,Write,NAK
0.910077500,966,0x41,0x16,Read,ACK
0.910132500,966,0x41,0x16,Read,NAK
0.910387500,968,0x49,0x2C,Read,ACK
0.910442500,968,0x49,0x2C,Read,NAK
0.915572500,970,0x49,0xFD,Read,ACK
0.915627500,970,0x49,0xFD,Read,NAK
0.917257500,972,0x40,0xF0,Write,ACK
0.917312500,972,0x40,0xF0,Write,NAK
0.917642500,974,0x41,0xCD,Read,ACK
0.917697500,974,0x41,0xCD,Read,NAK
0.917952500,976,0x49,0x2F,Read,ACK
0.918007500,976,0x49,0x2F,Read,NAK
0.923137500,978,0x49,0x28,Read,ACK
0.923192500,978,0x49,0x28,Read,NAK
0.924767500,,0x24,,Write,NAK
0.925097500,982,0x40,0xF4,Write,ACK
0.925152500,982,0x40,0xF4,Write,NAK
0.925482500,984,0x41,0xF3,Read,ACK
0.925537500,984,0x41,0xF3,Read,NAK
0.925792500,986,0x49,0x11,Read,ACK
0.925847500,986,0x49,0x11,Read,NAK
0.930977500,988,0x49,0x18,Read,ACK
0.931032500,988,0x49,0x18,Read,NAK
0.932662500,990,0x40,0xF8,Write,ACK
0.932717500,990,0x40,0xF8,Write,NAK
0.933047500,992,0x41,0xF0,Read,ACK
0.933102500,992,0x41,0xF0,Read,NAK
0.933357500,994,0x49,0x2A,Read,ACK
0.933412500,994,0x49,0x2A,Read,NAK
0.938542500,996,0x49,0x50,Read,ACK
0.938597500,996,0x49,0x50,Read,NAK
0.940227500,998,0x40,0xFC,Write,ACK
0.940282500,998,0x40,0xFC,Write,NAK
0.940612500,1000,0x41,0x1B,Read,ACK
0.940667500,1000,0x41,0x1B,Read,NAK
0.940922500,1002,0x49,0xF8,Read,ACK
0.940977500,1002,0x49,0xF8,Read,NAK
0.946107500,1004,0x49,0x2B,Read,ACK
0.946162500,1004,0x49,0x2B,Read,NAK
0.947792500,1006,0x40,0x00,Write,ACK
0.947847500,1006,0x40,0x00,Write,NAK
0.948177500,1008,0x41,0xD6,Read,ACK
0.948232500,1008,0x41,0xD6,Read,NAK
0.948487500,1010,0x49,0x1D,Read,ACK
0.948542500,1010,0x49,0x1D,Read,NAK
0.953672500,1012,0x49,0x5F,Read,ACK
0.953727500,1012,0x49,0x5F,Read,NAK
0.955357500,1014,0x40,0x04,Write,ACK
0.955412500,1014,0x40,0x04,Write,NAK
0.955742500,1016,0x41,0xCE,Read,ACK
0.955797500,1016,0x41,0xCE,Read,NAK
0.956052500,1018,0x49,0x20,Read,ACK
0.956107500,1018,0x49,0x20,Read,NAK
0.961237500,1020,0x49,0x43,Read,ACK
0.961292500,1020,0x49,0x43,Read,NAK
0.962922500,1022,0x40,0x08,Write,ACK
0.962977500,1022,0x40,0x08,Write,NAK
0.963307500,1024,0x41,0x0D,Read,ACK
0.963362500,1024,0x41,0x0D,Read,NAK
0.963617500,1026,0x49,0x59,Read,ACK
0.963672500,1026,0x49,0x59,Read,NAK
0.968802500,1028,0x49,0x4F,Read,ACK
0.968857500,1028,0x49,0x4F,Read,NAK
0.970487500,1030,0x40,0x0C,Write,ACK
0.970542500,1030,0x40,0x0C,Write,NAK
0.970872500,1032,0x41,0xE7,Read,ACK
0.970927500,1032,0x41,0xE7,Read,NAK
0.971182500,1034,0x49,0x1C,Read,ACK
0.971237500,1034,0x49,0x1C,Read,NAK
0.976367500,1036,0x49,0x25,Read,ACK
0.976422500,1036,0x49,0x25,Read,NAK
0.978052500,1038,0x40,0x10,Write,ACK
0.978107500,1038,0x40,0x10,Write,NAK
0.978437500,1040,0x41,0x3D,Read,ACK
0.978492500,1040,0x41,0x3D,Read,NAK
0.978747500,1042,0x49,0x49,Read,ACK
0.978802500,1042,0x49,0x49,Read,NAK
0.983932500,1044,0x49,0x27,Read,ACK
0.983987500,1044,0x49,0x27,Read,NAK
0.985617500,1046,0x40,0x14,Write,ACK
0.985672500,1046,0x40,0x14,Write,NAK
0.986002500,1048,0x41,0x18,Read,ACK
0.986057500,1048,0x41,0x18,Read,NAK
0.986312500,1050,0x49,0x6C,Read,ACK
0.986367500,1050,0x49,0x6C,Read,NAK
0.991497500,1052,0x49,0x2E,Read,ACK
0.991552500,1052,0x49,0x2E,Read,NAK
0.993182500,1054,0x40,0x18,Write,ACK
0.993237500,1054,0x40,0x18,Write,NAK
0.993567500,1056,0x41,0xEC,Read,ACK
0.993622500,1056,0x41,0xEC,Read,NAK
0.993877500,1058,0x49,0x42,Read,ACK
0.993932500,1058,0x49,0x42,Read,NAK
0.999062500,1060,0x49,0x46,Read,ACK
0.999117500,1060,0x49,0x46,Read,NAK
1.000747500,1062,0x40,0x1C,Write,ACK
1.000802500,1062,0x40,0x1C,Write,NAK
1.001132500,1064,0x41,0xF0,Read,ACK
1.001187500,1064,0x41,0xF0,Read,NAK
1.001442500,1066,0x49,0x61,Read,ACK
1.001497500,1066,0x49,0x61,Read,NAK
1.006627500,1068,0x49,0x31,Read,ACK
1.006682500,1068,0x49,0x31,Read,NAK
1.008312500,1070,0x40,0x20,Write,ACK
1.008367500,1070,0x40,0x20,Write,NAK
1.008697500,1072,0x41,0xFD,Read,ACK
1.008752500,1072,0x41,0xFD,Read,NAK
1.009007500,1074,0x49,0x18,Read,ACK
1.009062500,1074,0x49,0x18,Read,NAK
1.014192500,1076,0x49,0x68,Read,ACK
1.014247500,1076,0x49,0x68,Read,NAK
1.015877500,1078,0x40,0x24,Write,ACK
1.015932500,1078,0x40,0x24,Write,NAK
1.016262500,1080,0x41,0x4A,Read,ACK
1.016317500,1080,0x41,0x4A,Read,NAK
1.016572500,1082,0x49,0x2F,Read,ACK
1.016627500,1082,0x49,0x2F,Read,NAK
1.021757500,1084,0x49,0x4A,Read,ACK
1.021812500,1084,0x49,0x4A,Read,NAK
1.023442500,1086,0x40,0x28,Write,ACK
1.023497500,1086,0x40,0x28,Write,NAK
1.023827500,1088,0x41,0x32,Read,ACK
1.023882500,1088,0x41,0x32,Read,NAK
1.024137500,1090,0x49,0x4D,Read,ACK
1.024192500,1090,0x49,0x4D,Read,NAK
1.029322500,1092,0x49,0x6A,Read,ACK
1.029377500,1092,0x49,0x6A,Read,NAK
1.031007500,1094,0x40,0x2C,Write,ACK
1.031062500,1094,0x40,0x2C,Write,NAK
1.031392500,1096,0x41,0x3F,Read,ACK
1.031447500,1096,0x41,0x3F,Read,NAK
1.031702500,1098,0x49,0x6F,Read,ACK
1.031757500,1098,0x49,0x6F,Read,NAK
1.036887500,1100,0x49,0x49,Read,ACK
1.036942500,1100,0x49,0x49,Read,NAK
1.038572500,1102,0x40,0x30,Write,ACK
1.038627500,1102,0x40,0x30,Write,NAK
1.038957500,1104,0x41,0x5B,Read,ACK
1.039012500,1104,0x41,0x5B,Read,NAK
1.039267500,1106,0x49,0x81,Read,ACK
1.039322500,1106,0x49,0x81,Read,NAK
1.044452500,1108,0x49,0x84,Read,ACK
1.044507500,1108,0x49,0x84,Read,NAK
1.046137500,1110,0x40,0x34,Write,ACK
1.046192500,1110,0x40,0x34,Write,NAK
1.046522500,1112,0x41,0x27,Read,ACK
1.046577500,1112,0x41,0x27,Read,NAK
1.046832500,1114,0x49,0x8A,Read,ACK
1.046887500,1114,0x49,0x8A,Read,NAK
1.052017500,1116,0x49,0x77,Read,ACK
1.052072500,1116,0x49,0x77,Read,NAK
1.053702500,1118,0x40,0x38,Write,ACK
1.053757500,1118,0x40,0x38,Write,NAK
1.054087500,1120,0x41,0x32,Read,ACK
1.054142500,1120,0x41,0x32,Read,NAK
1.054397500,1122,0x49,0x62,Read,ACK
1.054452500,1122,0x49,0x62,Read,NAK
1.059582500,1124,0x49,0x72,Read,ACK
1.059637500,1124,0x49,0x72,Read,NAK
1.061267500,1126,0x40,0x3C,Write,ACK
1.061322500,1126,0x40,0x3C,Write,NAK
1.061652500,1128,0x41,0x25,Read,ACK
1.061707500,1128,0x41,0x25,Read,NAK
1.061962500,1130,0x49,0x73,Read,ACK
1.062017500,1130,0x49,0x73,Read,NAK
1.067147500,1132,0x49,0x63,Read,ACK
1.067202500,1132,0x49,0x63,Read,NAK
1.068832500,1134,0x40,0x40,Write,ACK
1.068887500,1134,0x40,0x40,Write,NAK
1.069217500,1136,0x41,0x1D,Read,ACK
1.069272500,1136,0x41,0x1D,Read,NAK
1.069527500,1138,0x49,0x97,Read,ACK
1.069582500,1138,0x49,0x97,Read,NAK
1.074712500,1140,0x49,0x61,Read,ACK
1.074767500,1140,0x49,0x61,Read,NAK
1.076397500,1142,0x40,0x44,Write,ACK
1.076452500,1142,0x40,0x44,Write,NAK
1.076782500,1144,0x41,0x54,Read,ACK
1.076837500,1144,0x41,0x54,Read,NAK
1.077092500,1146,0x49,0x43,Read,ACK
1.077147500,1146,0x49,0x43,Read,NAK
1.082277500,1148,0x49,0x8E,Read,ACK
1.082332500,1148,0x49,0x8E,Read,NAK
1.083962500,1150,0x40,0x48,Write,ACK
1.084017500,1150,0x40,0x48,Write,NAK
1.084347500,1152,0x41,0x4A,Read,ACK
1.084402500,1152,0x41,0x4A,Read,NAK
1.084657500,1154,0x49,0x8C,Read,ACK
1.084712500,1154,0x49,0x8C,Read,NAK
1.089842500,1156,0x49,0x98,Read,ACK
1.089897500,1156,0x49,0x98,Read,NAK
1.091527500,1158,0x40,0x4C,Write,ACK
1.091582500,1158,0x40,0x4C,Write,NAK
1.091912500,1160,0x41,0x4D,Read,ACK
1.091967500,1160,0x41,0x4D,Read,NAK
1.092222500,1162,0x49,0xA1,Read,ACK
1.092277500,1162,0x49,0xA1,Read,NAK
1.097407500,1164,0x49,0x88,Read,ACK
1.097462500,1164,0x49,0x88,Read,NAK
1.099092500,1166,0x40,0x50,Write,ACK
1.099147500,1166,0x40,0x50,Write,NAK
1.099477500,1168,0x41,0x40,Read,ACK
1.099532500,1168,0x41,0x40,Read,NAK
1.099787500,1170,0x49,0x98,Read,ACK
1.099842500,1170,0x49,0x98,Read,NAK
1.104972500,1172,0x49,0x93,Read,ACK
1.105027500,1172,0x49,0x93,Read,NAK
1.106657500,1174,0x40,0x54,Write,ACK
1.106712500,1174,0x40,0x54,Write,NAK
1.107042500,1176,0x41,0x3C,Read,ACK
1.107097500,1176,0x41,0x3C,Read,NAK
1.107352500,1178,0x49,0x92,Read,ACK
1.107407500,1178,0x49,0x92,Read,NAK
1.112537500,1180,0x49,0x7E,Read,ACK
1.112592500,1180,0x49,0x7E,Read,NAK
1.114222500,1182,0x40,0x58,Write,ACK
1.114277500,1182,0x40,0x58,Write,NAK
1.114607500,1184,0x41,0x3A,Read,ACK
1.114662500,1184,0x41,0x3A,Read,NAK
1.114917500,1186,0x49,0xA4,Read,ACK
1.114972500,1186,0x49,0xA4,Read,NAK
1.120102500,1188,0x49,0xB7,Read,ACK
1.120157500,1188,0x49,0xB7,Read,NAK
1.121787500,1190,0x40,0x5C,Write,ACK
1.121842500,1190,0x40,0x5C,Write,NAK
1.122172500,1192,0x41,0x2A,Read,ACK
1.122227500,1192,0x41,0x2A,Read,NAK
1.122482500,1194,0x49,0x67,Read,ACK
1.122537500,1194,0x49,0x67,Read,NAK
1.127667500,1196,0x49,0x9D,Read,ACK
1.127722500,1196,0x49,0x9D,Read,NAK
1.129352500,1198,0x40,0x60,Write,ACK
1.129407500,1198,0x40,0x60,Write,NAK
1.129737500,1200,0x41,0x70,Read,ACK
1.129792500,1200,0x41,0x70,Read,NAK
1.130047500,1202,0x49,0x7A,Read,ACK
1.130102500,1202,0x49,0x7A,Read,NAK
1.135232500,1204,0x49,0x8E,Read,ACK
1.135287500,1204,0x49,0x8E,Read,NAK
1.136917500,1206,0x40,0x64,Write,ACK
1.136972500,1206,0x40,0x64,Write,NAK
1.137302500,1208,0x41,0x5B,Read,ACK
1.137357500,1208,0x41,0x5B,Read,NAK
1.137612500,1210,0x49,0x60,Read,ACK
1.137667500,1210,0x49,0x60,Read,NAK
1.142797500,1212,0x49,0xBB,Read,ACK
1.142852500,1212,0x49,0xBB,Read,NAK
1.144482500,1214,0x40,0x68,Write,ACK
1.144537500,1214,0x40,0x68,Write,NAK
1.144867500,1216,0x41,0x86,Read,ACK
1.144922500,1216,0x41,0x86,Read,NAK
1.145177500,1218,0x49,0x63,Read,ACK
1.145232500,1218,0x49,0x63,Read,NAK
1.150362500,1220,0x49,0xC1,Read,ACK
1.150417500,1220,0x49,0xC1,Read,NAK
1.152047500,1222,0x40,0x6C,Write,ACK
1.152102500,1222,0x40,0x6C,Write,NAK
1.152432500,1224,0x41,0x36,Read,ACK
1.152487500,1224,0x41,0x36,Read,NAK
1.152742500,1226,0x49,0xBA,Read,ACK
1.152797500,1226,0x49,0xBA,Read,NAK
1.157927500,1228,0x49,0xD3,Read,ACK
1.157982500,1228,0x49,0xD3,Read,NAK
1.159612500,1230,0x40,0x70,Write,ACK
1.159667500,1230,0x40,0x70,Write,NAK
1.159997500,1232,0x41,0x80,Read,ACK
1.160052500,1232,0x41,0x80,Read,NAK
1.160307500,1234,0x49,0x9E,Read,ACK
1.160362500,1234,0x49,0x9E,Read,NAK
1.165492500,1236,0x49,0x8D,Read,ACK
1.165547500,1236,0x49,0x8D,Read,NAK
1.167177500,1238,0x40,0x74,Write,ACK
1.167232500,1238,0x40,0x74,Write,NAK
1.167562500,1240,0x41,0x5A,Read,ACK
1.167617500,1240,0x41,0x5A,Read,NAK
1.167872500,1242,0x49,0xA3,Read,ACK
1.167927500,1242,0x49,0xA3,Read,NAK
1.173057500,1244,0x49,0x9A,Read,ACK
1.173112500,1244,0x49,0x9A,Read,NAK
1.174742500,1246,0x40,0x78,Write,ACK
1.174797500,1246,0x40,0x78,Write,NAK
1.175127500,1248,0x41,0x6E,Read,ACK
1.175182500,1248,0x41,0x6E,Read,NAK
1.175437500,1250,0x49,0xB6,Read,ACK
1.175492500,1250,0x49,0xB6,Read,NAK
1.180622500,1252,0x49,0xBC,Read,ACK
1.180677500,1252,0x49,0xBC,Read,NAK
1.182252500,,0x24,,Write,NAK
1.182582500,1256,0x40,0x7C,Write,ACK
1.182637500,1256,0x40,0x7C,Write,NAK
1.182967500,1258,0x41,0x73,Read,ACK
1.183022500,1258,0x41,0x73,Read,NAK
1.183277500,1260,0x49,0xB9,Read,ACK
1.183332500,1260,0x49,0xB9,Read,NAK
1.188462500,1262,0x49,0x9A,Read,ACK
1.188517500,1262,0x49,0x9A,Read,NAK
1.190147500,1264,0x40,0x80,Write,ACK
1.190202500,1264,0x40,0x80,Write,NAK
1.190532500,1266,0x41,0x52,Read,ACK
1.190587500,1266,0x41,0x52,Read,NAK
1.190842500,1268,0x49,0x84,Read,ACK
1.190897500,1268,0x49,0x84,Read,NAK
1.196027500,1270,0x49,0xC3,Read,ACK
1.196082500,1270,0x49,0xC3,Read,NAK
1.197712500,1272,0x40,0x84,Write,ACK
1.197767500,1272,0x40,0x84,Write,NAK
1.198097500,1274,0x41,0x62,Read,ACK
1.198152500,1274,0x41,0x62,Read,NAK
1.198407500,1276,0x49,0xD6,Read,ACK
1.198462500,1276,0x49,0xD6,Read,NAK
1.203592500,1278,0x49,0x92,Read,ACK
1.203647500,1278,0x49,0x92,Read,NAK
1.205277500,1280,0x40,0x88,Write,ACK
1.205332500,1280,0x40,0x88,Write,NAK
1.205662500,1282,0x41,0xB3,Read,ACK
1.205717500,1282,0x41,0xB3,Read,NAK
1.205972500,1284,0x49,0xA7,Read,ACK
1.206027500,1284,0x49,0xA7,Read,NAK
1.211157500,1286,0x49,0xBF,Read,ACK
1.211212500,1286,0x49,0xBF,Read,NAK
1.212842500,1288,0x40,0x8C,Write,ACK
1.212897500,1288,0x40,0x8C,Write,NAK
1.213227500,1290,0x41,0x73,Read,ACK
1.213282500,1290,0x41,0x73,Read,NAK
1.213537500,1292,0x49,0xAE,Read,ACK
1.213592500,1292,0x49,0xAE,Read,NAK
1.218722500,1294,0x49,0xBC,Read,ACK
1.218777500,1294,0x49,0xBC,Read,NAK
1.220407500,1296,0x40,0x90,Write,ACK
1.220462500,1296,0x40,0x90,Write,NAK
1.220792500,1298,0x41,0x8E,Read,ACK
1.220847500,1298,0x41,0x8E,Read,NAK
1.221102500,1300,0x49,0xC5,Read,ACK
1.221157500,1300,0x49,0xC5,Read,NAK
1.226287500,1302,0x49,0x9C,Read,ACK
1.226342500,1302,0x49,0x9C,Read,NAK
1.227972500,1304,0x40,0x94,Write,ACK
1.228027500,1304,0x40,0x94,Write,NAK
1.228357500,1306,0x41,0xA7,Read,ACK
1.228412500,1306,0x41,0xA7,Read,NAK
1.228667500,1308,0x49,0xAE,Read,ACK
1.228722500,1308,0x49,0xAE,Read,NAK
1.233852500,1310,0x49,0xC0,Read,ACK
1.233907500,1310,0x49,0xC0,Read,NAK
1.235537500,1312,0x40,0x98,Write,ACK
1.235592500,1312,0x40,0x98,Write,NAK
1.235922500,1314,0x41,0x9E,Read,ACK
1.235977500,1314,0x41,0x9E,Read,NAK
1.236232500,1316,0x49,0xC0,Read,ACK
1.236287500,1316,0x49,0xC0,Read,NAK
1.241417500,1318,0x49,0xB0,Read,ACK
1.241472500,1318,0x49,0xB0,Read,NAK
1.243102500,1320,0x40,0x9C,Write,ACK
1.243157500,1320,0x40,0x9C,Write,NAK
1.243487500,1322,0x41,0x7C,Read,ACK
1.243542500,1322,0x41,0x7C,Read,NAK
1.243797500,1324,0x49,0xEE,Read,ACK
1.243852500,1324,0x49,0xEE,Read,NAK
1.248982500,1326,0x49,0xBC,Read,ACK
1.249037500,1326,0x49,0xBC,Read,NAK
1.250667500,1328,0x40,0xA0,Write,ACK
1.250722500,1328,0x40,0xA0,Write,NAK
1.251052500,1330,0x41,0x71,Read,ACK
1.251107500,1330,0x41,0x71,Read,NAK
1.251362500,1332,0x49,0xEB,Read,ACK
1.251417500,1332,0x49,0xEB,Read,NAK
1.256547500,1334,0x49,0xFE,Read,ACK
1.256602500,1334,0x49,0xFE,Read,NAK
1.258232500,1336,0x40,0xA4,Write,ACK
1.258287500,1336,0x40,0xA4,Write,NAK
1.258617500,1338,0x41,0x8C,Read,ACK
1.258672500,1338,0x41,0x8C,Read,NAK
1.258927500,1340,0x49,0xC8,Read,ACK
1.258982500,1340,0x49,0xC8,Read,NAK
1.264112500,1342,0x49,0xCF,Read,ACK
1.264167500,1342,0x49,0xCF,Read,NAK
1.265797500,1344,0x40,0xA8,Write,ACK
1.265852500,1344,0x40,0xA8,Write,NAK
1.266182500,1346,0x41,0xCA,Read,ACK
1.266237500,1346,0x41,0xCA,Read,NAK
1.266492500,1348,0x49,0xF2,Read,ACK
1.266547500,1348,0x49,0xF2,Read,NAK
1.271677500,1350,0x49,0xCC,Read,ACK
1.271732500,1350,0x49,0xCC,Read,NAK
1.273362500,1352,0x40,0xAC,Write,ACK
1.273417500,1352,0x40,0xAC,Write,NAK
1.273747500,1354,0x41,0xC6,Read,ACK
1.273802500,1354,0x41,0xC6,Read,NAK
1.274057500,1356,0x49,0xE8,Read,ACK
1.274112500,1356,0x49,0xE8,Read,NAK
1.279242500,1358,0x49,0xC8,Read,ACK
1.279297500,1358,0x49,0xC8,Read,NAK
1.280927500,1360,0x40,0xB0,Write,ACK
1.280982500,1360,0x40,0xB0,Write,NAK
1.281312500,1362,0x41,0xD0,Read,ACK
1.281367500,1362,0x41,0xD0,Read,NAK
1.281622500,1364,0x49,0xC0,Read,ACK
1.281677500,1364,0x49,0xC0,Read,NAK
1.286807500,1366,0x49,0xF7,Read,ACK
1.286862500,1366,0x49,0xF7,Read,NAK
1.288492500,1368,0x40,0xB4,Write,ACK
1.288547500,1368,0x40,0xB4,Write,NAK
1.288877500,1370,0x41,0x8D,Read,ACK
1.288932500,1370,0x41,0x8D,Read,NAK
1.289187500,1372,0x49,0xAC,Read,ACK
1.289242500,1372,0x49,0xAC,Read,NAK
1.294372500,1374,0x49,0xD7,Read,ACK
1.294427500,1374,0x49,0xD7,Read,NAK
1.296057500,1376,0x40,0xB8,Write,ACK
1.296112500,1376,0x40,0xB8,Write,NAK
1.296442500,1378,0x41,0xB6,Read,ACK
1.296497500,1378,0x41,0xB6,Read,NAK
1.296752500,1380,0x49,0x0F,Read,ACK
1.296807500,1380,0x49,0x0F,Read,NAK
1.301937500,1382,0x49,0x14,Read,ACK
1.301992500,1382,0x49,0x14,Read,NAK
1.303622500,1384,0x40,0xBC,Write,ACK
1.303677500,1384,0x40,0xBC,Write,NAK
1.304007500,1386,0x41,0xAF,Read,ACK
1.304062500,1386,0x41,0xAF,Read,NAK
1.304317500,1388,0x49,0xF0,Read,ACK
1.304372500,1388,0x49,0xF0,Read,NAK
1.309502500,1390,0x49,0xCB,Read,ACK
1.309557500,1390,0x49,0xCB,Read,NAK
1.311187500,1392,0x40,0xC0,Write,ACK
1.311242500,1392,0x40,0xC0,Write,NAK
1.311572500,1394,0x41,0xB9,Read,ACK
1.311627500,1394,0x41,0xB9,Read,NAK
1.311882500,1396,0x49,0xE6,Read,ACK
1.311937500,1396,0x49,0xE6,Read,NAK
1.317067500,1398,0x49,0x17,Read,ACK
1.317122500,1398,0x49,0x17,Read,NAK
1.318752500,1400,0x40,0xC4,Write,ACK
1.318807500,1400,0x40,0xC4,Write,NAK
1.319137500,1402,0x41,0xEC,Read,ACK
1.319192500,1402,0x41,0xEC,Read,NAK
1.319447500,1404,0x49,0xCA,Read,ACK
1.319502500,1404,0x49,0xCA,Read,NAK
1.324632500,1406,0x49,0x04,Read,ACK
1.324687500,1406,0x49,0x04,Read,NAK
1.326317500,1408,0x40,0xC8,Write,ACK
1.326372500,1408,0x40,0xC8,Write,NAK
1.326702500,1410,0x41,0x92,Read,ACK
1.326757500,1410,0x41,0x92,Read,NAK
1.327012500,1412,0x49,0xE4,Read,ACK
1.327067500,1412,0x49,0xE4,Read,NAK
1.332197500,1414,0x49,0x07,Read,ACK
1.332252500,1414,0x49,0x07,Read,NAK
1.333827500,,0x24,,Write,NAK
1.334157500,1418,0x40,0xCC,Write,ACK
1.334212500,1418,0x40,0xCC,Write,NAK
1.334542500,1420,0x41,0xD3,Read,ACK
1.334597500,1420,0x41,0xD3,Read,NAK
1.334852500,1422,0x49,0xDF,Read,ACK
1.334907500,1422,0x49,0xDF,Read,NAK
1.340037500,1424,0x49,0x13,Read,ACK
1.340092500,1424,0x49,0x13,Read,NAK
1.341722500,1426,0x40,0xD0,Write,ACK
1.341777500,1426,0x40,0xD0,Write,NAK
1.342107500,1428,0x41,0xA2,Read,ACK
1.342162500,1428,0x41,0xA2,Read,NAK
1.342417500,1430,0x49,0xE2,Read,ACK
1.342472500,1430,0x49,0xE2,Read,NAK
1.347602500,1432,0x49,0x11,Read,ACK
1.347657500,1432,0x49,0x11,Read,NAK
1.349287500,1434,0x40,0xD4,Write,ACK
1.349342500,1434,0x40,0xD4,Write,NAK
1.349672500,1436,0x41,0xBC,Read,ACK
1.349727500,1436,0x41,0xBC,Read,NAK
1.349982500,1438,0x49,0xF0,Read,ACK
1.350037500,1438,0x49,0xF0,Read,NAK
1.355167500,1440,0x49,0xDD,Read,ACK
1.355222500,1440,0x49,0xDD,Read,NAK
1.356852500,1442,0x40,0xD8,Write,ACK
1.356907500,1442,0x40,0xD8,Write,NAK
1.357237500,1444,0x41,0xC5,Read,ACK
1.357292500,1444,0x41,0xC5,Read,NAK
1.357547500,1446,0x49,0xF5,Read,ACK
1.357602500,1446,0x49,0xF5,Read,NAK
1.362732500,1448,0x49,0x1C,Read,ACK
1.362787500,1448,0x49,0x1C,Read,NAK
1.364417500,1450,0x40,0xDC,Write,ACK
1.364472500,1450,0x40,0xDC,Write,NAK
1.364802500,1452,0x41,0xA7,Read,ACK
1.364857500,1452,0x41,0xA7,Read,NAK
1.365112500,1454,0x49,0xE8,Read,ACK
1.365167500,1454,0x49,0xE8,Read,NAK
1.370297500,1456,0x49,0x30,Read,ACK
1.370352500,1456,0x49,0x30,Read,NAK
1.371982500,1458,0x40,0xE0,Write,ACK
1.372037500,1458,0x40,0xE0,Write,NAK
1.372367500,1460,0x41,0xF0,Read,ACK
1.372422500,1460,0x41,0xF0,Read,NAK
1.372677500,1462,0x49,0x0F,Read,ACK
1.372732500,1462,0x49,0x0F,Read,NAK
1.377862500,1464,0x49,0x05,Read,ACK
1.377917500,1464,0x49,0x05,Read,NAK
1.379547500,1466,0x40,0xE4,Write,ACK
1.379602500,1466,0x40,0xE4,Write,NAK
1.379932500,1468,0x41,0xF7,Read,ACK
1.379987500,1468,0x41,0xF7,Read,NAK
1.380242500,1470,0x49,0x01,Read,ACK
1.380297500,1470,0x49,0x01,Read,NAK
1.385427500,1472,0x49,0xEE,Read,ACK
1.385482500,1472,0x49,0xEE,Read,NAK
1.387112500,1474,0x40,0xE8,Write,ACK
1.387167500,1474,0x40,0xE8,Write,NAK
1.387497500,1476,0x41,0x00,Read,ACK
1.387552500,1476,0x41,0x00,Read,NAK
1.387807500,1478,0x49,0x19,Read,ACK
1.387862500,1478,0x49,0x19,Read,NAK
1.392992500,1480,0x49,0x28,Read,ACK
1.393047500,1480,0x49,0x28,Read,NAK
1.394677500,1482,0x40,0xEC,Write,ACK
1.394732500,1482,0x40,0xEC,Write,NAK
1.395062500,1484,0x41,0xDE,Read,ACK
1.395117500,1484,0x41,0xDE,Read,NAK
1.395372500,1486,0x49,0xF7,Read,ACK
1.395427500,1486,0x49,0xF7,Read,NAK
1.400557500,1488,0x49,0x19,Read,ACK
1.400612500,1488,0x49,0x19,Read,NAK
1.402242500,1490,0x40,0xF0,Write,ACK
1.402297500,1490,0x40,0xF0,Write,NAK
1.402627500,1492,0x41,0xBB,Read,ACK
1.402682500,1492,0x41,0xBB,Read,NAK
1.402937500,1494,0x49,0x46,Read,ACK
1.402992500,1494,0x49,0x46,Read,NAK
1.408122500,1496,0x49,0x0E,Read,ACK
1.408177500,1496,0x49,0x0E,Read,NAK
1.409807500,1498,0x40,0xF4,Write,ACK
1.409862500,1498,0x40,0xF4,Write,NAK
1.410192500,1500,0x41,0xE0,Read,ACK
1.410247500,1500,0x41,0xE0,Read,NAK
1.410502500,1502,0x49,0x04,Read,ACK
1.410557500,1502,0x49,0x04,Read,NAK
1.415687500,1504,0x49,0x0E,Read,ACK
1.415742500,1504,0x49,0x0E,Read,NAK
1.417372500,1506,0x40,0xF8,Write,ACK
1.417427500,1506,0x40,0xF8,Write,NAK
1.417757500,1508,0x41,0x03,Read,ACK
1.417812500,1508,0x41,0x03,Read,NAK
1.418067500,1510,0x49,0x0E,Read,ACK
1.418122500,1510,0x49,0x0E,Read,NAK
1.423252500,1512,0x49,0x60,Read,ACK
1.423307500,1512,0x49,0x60,Read,NAK
1.424937500,1514,0x40,0xFC,Write,ACK
1.424992500,1514,0x40,0xFC,Write,NAK
1.425322500,1516,0x41,0xFC,Read,ACK
1.425377500,1516,0x41,0xFC,Read,NAK
1.425632500,1518,0x49,0x3C,Read,ACK
1.425687500,1518,0x49,0x3C,Read,NAK
1.430817500,1520,0x49,0x47,Read,ACK
1.430872500,1520,0x49,0x47,Read,NAK
1.432502500,1522,0x40,0x00,Write,ACK
1.432557500,1522,0x40,0x00,Write,NAK
1.432887500,1524,0x41,0x1D,Read,ACK
1.432942500,1524,0x41,0x1D,Read,NAK
1.433197500,1526,0x49,0x28,Read,ACK
1.433252500,1526,0x49,0x28,Read,NAK
1.438382500,1528,0x49,0x34,Read,ACK
1.438437500,1528,0x49,0x34,Read,NAK
1.440067500,1530,0x40,0x04,Write,ACK
1.440122500,1530,0x40,0x04,Write,NAK
1.440452500,1532,0x41,0x28,Read,ACK
1.440507500,1532,0x41,0x28,Read,NAK
1.440762500,1534,0x49,0x2A,Read,ACK
1.440817500,1534,0x49,0x2A,Read,NAK
1.445947500,1536,0x49,0x60,Read,ACK
1.446002500,1536,0x49,0x60,Read,NAK
1.447632500,1538,0x40,0x08,Write,ACK
1.447687500,1538,0x40,0x08,Write,NAK
1.448017500,1540,0x41,0x0D,Read,ACK
1.448072500,1540,0x41,0x0D,Read,NAK
1.448327500,1542,0x49,0x28,Read,ACK
1.448382500,1542,0x49,0x28,Read,NAK
1.453512500,1544,0x49,0x4A,Read,ACK
1.453567500,1544,0x49,0x4A,Read,NAK
1.455197500,1546,0x40,0x0C,Write,ACK
1.455252500,1546,0x40,0x0C,Write,NAK
1.455582500,1548,0x41,0xE5,Read,ACK
1.455637500,1548,0x41,0xE5,Read,NAK
1.455892500,1550,0x49,0x63,Read,ACK
1.455947500,1550,0x49,0x63,Read,NAK
1.461077500,1552,0x49,0x43,Read,ACK
1.461132500,1552,0x49,0x43,Read,NAK
1.462762500,1554,0x40,0x10,Write,ACK
1.462817500,1554,0x40,0x10,Write,NAK
1.463147500,1556,0x41,0x07,Read,ACK
1.463202500,1556,0x41,0x07,Read,NAK
1.463457500,1558,0x49,0x1D,Read,ACK
1.463512500,1558,0x49,0x1D,Read,NAK
1.468642500,1560,0x49,0x4C,Read,ACK
1.468697500,1560,0x49,0x4C,Read,NAK
1.470327500,1562,0x40,0x14,Write,ACK
1.470382500,1562,0x40,0x14,Write,NAK
1.470712500,1564,0x41,0x0F,Read,ACK
1.470767500,1564,0x41,0x0F,Read,NAK
1.471022500,1566,0x49,0x22,Read,ACK
1.471077500,1566,0x49,0x22,Read,NAK
1.476207500,1568,0x49,0x4F,Read,ACK
1.476262500,1568,0x49,0x4F,Read,NAK
1.477892500,1570,0x40,0x18,Write,ACK
1.477947500,1570,0x40,0x18,Write,NAK
1.478277500,1572,0x41,0x1A,Read,ACK
1.478332500,1572,0x41,0x1A,Read,NAK
1.478587500,1574,0x49,0x3F,Read,ACK
1.478642500,1574,0x49,0x3F,Read,NAK
1.483772500,1576,0x49,0x75,Read,ACK
1.483827500,1576,0x49,0x75,Read,NAK
1.485457500,1578,0x40,0x1C,Write,ACK
1.485512500,1578,0x40,0x1C,Write,NAK
1.485842500,1580,0x41,0x32,Read,ACK
1.485897500,1580,0x41,0x32,Read,NAK
1.486152500,1582,0x49,0x18,Read,ACK
1.486207500,1582,0x49,0x18,Read,NAK
1.491337500,1584,0x49,0x4A,Read,ACK
1.491392500,1584,0x49,0x4A,Read,NAK
1.493022500,1586,0x40,0x20,Write,ACK
1.493077500,1586,0x40,0x20,Write,NAK
1.493407500,1588,0x41,0x22,Read,ACK
1.493462500,1588,0x41,0x22,Read,NAK
1.493717500,1590,0x49,0x6A,Read,ACK
1.493772500,1590,0x49,0x6A,Read,NAK
1.498902500,1592,0x49,0x3B,Read,ACK
1.498957500,1592,0x49,0x3B,Read,NAK
1.500587500,1594,0x40,0x24,Write,ACK
1.500642500,1594,0x40,0x24,Write,NAK
1.500972500,1596,0x41,0x42,Read,ACK
1.501027500,1596,0x41,0x42,Read,NAK
1.501282500,1598,0x49,0x1F,Read,ACK
1.501337500,1598,0x49,0x1F,Read,NAK
1.506467500,1600,0x49,0x6D,Read,ACK
1.506522500,1600,0x49,0x6D,Read,NAK
1.508152500,1602,0x40,0x28,Write,ACK
1.508207500,1602,0x40,0x28,Write,NAK
1.508537500,1604,0x41,0xF2,Read,ACK
1.508592500,1604,0x41,0xF2,Read,NAK
1.508847500,1606,0x49,0x37,Read,ACK
1.508902500,1606,0x49,0x37,Read,NAK
1.514032500,1608,0x49,0x5E,Read,ACK
1.514087500,1608,0x49,0x5E,Read,NAK
1.515717500,1610,0x40,0x2C,Write,ACK
1.515772500,1610,0x40,0x2C,Write,NAK
1.516102500,1612,0x41,0x40,Read,ACK
1.516157500,1612,0x41,0x40,Read,NAK
1.516412500,1614,0x49,0x51,Read,ACK
1.516467500,1614,0x49,0x51,Read,NAK
1.521597500,1616,0x49,0x57,Read,ACK
1.521652500,1616,0x49,0x57,Read,NAK
1.523282500,1618,0x40,0x30,Write,ACK
1.523337500,1618,0x40,0x30,Write,NAK
1.523667500,1620,0x41,0x40,Read,ACK
1.523722500,1620,0x41,0x40,Read,NAK
1.523977500,1622,0x49,0x4F,Read,ACK
1.524032500,1622,0x49,0x4F,Read,NAK
1.529162500,1624,0x49,0x69,Read,ACK
1.529217500,1624,0x49,0x69,Read,NAK
1.530792500,,0x24,,Write,NAK
1.531122500,1628,0x40,0x34,Write,ACK
1.531177500,1628,0x40,0x34,Write,NAK
1.531507500,1630,0x41,0x3F,Read,ACK
1.531562500,1630,0x41,0x3F,Read,NAK
1.531817500,1632,0x49,0x2C,Read,ACK
1.531872500,1632,0x49,0x2C,Read,NAK
1.537002500,1634,0x49,0x62,Read,ACK
1.537057500,1634,0x49,0x62,Read,NAK
1.538687500,1636,0x40,0x38,Write,ACK
1.538742500,1636,0x40,0x38,Write,NAK
1.539072500,1638,0x41,0x06,Read,ACK
1.539127500,1638,0x41,0x06,Read,NAK
1.539382500,1640,0x49,0x47,Read,ACK
1.539437500,1640,0x49,0x47,Read,NAK
1.544567500,1642,0x49,0x64,Read,ACK
1.544622500,1642,0x49,0x64,Read,NAK
1.546197500,,0x24,,Write,NAK
1.546527500,1646,0x40,0x3C,Write,ACK
1.546582500,1646,0x40,0x3C,Write,NAK
1.546912500,1648,0x41,0x25,Read,ACK
1.546967500,1648,0x41,0x25,Read,NAK
1.547222500,1650,0x49,0x7E,Read,ACK
1.547277500,1650,0x49,0x7E,Read,NAK
1.552407500,1652,0x49,0x9E,Read,ACK
1.552462500,1652,0x49,0x9E,Read,NAK
1.554092500,1654,0x40,0x40,Write,ACK
1.554147500,1654,0x40,0x40,Write,NAK
1.554477500,1656,0x41,0x17,Read,ACK
1.554532500,1656,0x41,0x17,Read,NAK
1.554787500,1658,0x49,0x41,Read,ACK
1.554842500,1658,0x49,0x41,Read,NAK
1.559972500,1660,0x49,0x9D,Read,ACK
1.560027500,1660,0x49,0x9D,Read,NAK
1.561657500,1662,0x40,0x44,Write,ACK
1.561712500,1662,0x40,0x44,Write,NAK
1.562042500,1664,0x41,0x1F,Read,ACK
1.562097500,1664,0x41,0x1F,Read,NAK
1.562352500,1666,0x49,0x3E,Read,ACK
1.562407500,1666,0x49,0x3E,Read,NAK
1.567537500,1668,0x49,0x78,Read,ACK
1.567592500,1668,0x49,0x78,Read,NAK
1.569222500,1670,0x40,0x48,Write,ACK
1.569277500,1670,0x40,0x48,Write,NAK
1.569607500,1672,0x41,0x30,Read,ACK
1.569662500,1672,0x41,0x30,Read,NAK
1.569917500,1674,0x49,0x6A,Read,ACK
1.569972500,1674,0x49,0x6A,Read,NAK
1.575102500,1676,0x49,0x73,Read,ACK
1.575157500,1676,0x49,0x73,Read,NAK
1.576787500,1678,0x40,0x4C,Write,ACK
1.576842500,1678,0x40,0x4C,Write,NAK
1.577172500,1680,0x41,0x71,Read,ACK
1.577227500,1680,0x41,0x71,Read,NAK
1.577482500,1682,0x49,0x8B,Read,ACK
1.577537500,1682,0x49,0x8B,Read,NAK
1.582667500,1684,0x49,0x9F,Read,ACK
1.582722500,1684,0x49,0x9F,Read,NAK
1.584352500,1686,0x40,0x50,Write,ACK
1.584407500,1686,0x40,0x50,Write,NAK
1.584737500,1688,0x41,0x28,Read,ACK
1.584792500,1688,0x41,0x28,Read,NAK
1.585047500,1690,0x49,0x60,Read,ACK
1.585102500,1690,0x49,0x60,Read,NAK
1.590232500,1692,0x49,0x78,Read,ACK
1.590287500,1692,0x49,0x78,Read,NAK
1.591862500,,0x24,,Write,NAK
1.592192500,1696,0x40,0x54,Write,ACK
1.592247500,1696,0x40,0x54,Write,NAK
1.592577500,1698,0x41,0x6F,Read,ACK
1.592632500,1698,0x41,0x6F,Read,NAK
1.592887500,1700,0x49,0x62,Read,ACK
1.592942500,1700,0x49,0x62,Read,NAK
1.598072500,1702,0x49,0x91,Read,ACK
1.598127500,1702,0x49,0x91,Read,NAK
1.599757500,1704,0x40,0x58,Write,ACK
1.599812500,1704,0x40,0x58,Write,NAK
1.600142500,1706,0x41,0x53,Read,ACK
1.600197500,1706,0x41,0x53,Read,NAK
1.600452500,1708,0x49,0xA9,Read,ACK
1.600507500,1708,0x49,0xA9,Read,NAK
1.605637500,1710,0x49,0x70,Read,ACK
1.605692500,1710,0x49,0x70,Read,NAK
1.607322500,1712,0x40,0x5C,Write,ACK
1.607377500,1712,0x40,0x5C,Write,NAK
1.607707500,1714,0x41,0x39,Read,ACK
1.607762500,1714,0x41,0x39,Read,NAK
1.608017500,1716,0x49,0x8E,Read,ACK
1.608072500,1716,0x49,0x8E,Read,NAK
1.613202500,1718,0x49,0xAB,Read,ACK
1.613257500,1718,0x49,0xAB,Read,NAK
1.614887500,1720,0x40,0x60,Write,ACK
1.614942500,1720,0x40,0x60,Write,NAK
1.615272500,1722,0x41,0x72,Read,ACK
1.615327500,1722,0x41,0x72,Read,NAK
1.615582500,1724,0x49,0x90,Read,ACK
1.615637500,1724,0x49,0x90,Read,NAK
1.620767500,1726,0x49,0x89,Read,ACK
1.620822500,1726,0x49,0x89,Read,NAK
1.622452500,1728,0x40,0x64,Write,ACK
1.622507500,1728,0x40,0x64,Write,NAK
1.622837500,1730,0x41,0x3C,Read,ACK
1.622892500,1730,0x41,0x3C,Read,NAK
1.623147500,1732,0x49,0x79,Read,ACK
1.623202500,1732,0x49,0x79,Read,NAK
1.628332500,1734,0x49,0x75,Read,ACK
1.628387500,1734,0x49,0x75,Read,NAK
1.630017500,1736,0x40,0x68,Write,ACK
1.630072500,1736,0x40,0x68,Write,NAK
1.630402500,1738,0x41,0x7D,Read,ACK
1.630457500,1738,0x41,0x7D,Read,NAK
1.630712500,1740,0x49,0x8C,Read,ACK
1.630767500,1740,0x49,0x8C,Read,NAK
1.635897500,1742,0x49,0xA4,Read,ACK
1.635952500,1742,0x49,0xA4,Read,NAK
1.637582500,1744,0x40,0x6C,Write,ACK
1.637637500,1744,0x40,0x6C,Write,NAK
1.637967500,1746,0x41,0x7D,Read,ACK
1.638022500,1746,0x41,0x7D,Read,NAK
1.638277500,1748,0x49,0x7F,Read,ACK
1.638332500,1748,0x49,0x7F,Read,NAK
1.643462500,1750,0x49,0xC2,Read,ACK
1.643517500,1750,0x49,0xC2,Read,NAK
1.645147500,1752,0x40,0x70,Write,ACK
1.645202500,1752,0x40,0x70,Write,NAK
1.645532500,1754,0x41,0x41,Read,ACK
1.645587500,1754,0x41,0x41,Read,NAK
1.645842500,1756,0x49,0xA7,Read,ACK
1.645897500,1756,0x49,0xA7,Read,NAK
1.651027500,1758,0x49,0x89,Read,ACK
1.651082500,1758,0x49,0x89,Read,NAK
1.652712500,1760,0x40,0x74,Write,ACK
1.652767500,1760,0x40,0x74,Write,NAK
1.653097500,1762,0x41,0x97,Read,ACK
1.653152500,1762,0x41,0x97,Read,NAK
1.653407500,1764,0x49,0x82,Read,ACK
1.653462500,1764,0x49,0x82,Read,NAK
1.658592500,1766,0x49,0x94,Read,ACK
1.658647500,1766,0x49,0x94,Read,NAK
1.660277500,1768,0x40,0x78,Write,ACK
1.660332500,1768,0x40,0x78,Write,NAK
1.660662500,1770,0x41,0x85,Read,ACK
1.660717500,1770,0x41,0x85,Read,NAK
1.660972500,1772,0x49,0x98,Read,ACK
1.661027500,1772,0x49,0x98,Read,NAK
1.666157500,1774,0x49,0x96,Read,ACK
1.666212500,1774,0x49,0x96,Read,NAK
1.667842500,1776,0x40,0x7C,Write,ACK
1.667897500,1776,0x40,0x7C,Write,NAK
1.668227500,1778,0x41,0x7D,Read,ACK
1.668282500,1778,0x41,0x7D,Read,NAK
1.668537500,1780,0x49,0xD1,Read,ACK
1.668592500,1780,0x49,0xD1,Read,NAK
1.673722500,1782,0x49,0xCA,Read,ACK
1.673777500,1782,0x49,0xCA,Read,NAK
1.675407500,1784,0x40,0x80,Write,ACK
1.675462500,1784,0x40,0x80,Write,NAK
1.675792500,1786,0x41,0x4F,Read,ACK
1.675847500,1786,0x41,0x4F,Read,NAK
1.676102500,1788,0x49,0x7B,Read,ACK
1.676157500,1788,0x49,0x7B,Read,NAK
1.681287500,1790,0x49,0x9B,Read,ACK
1.681342500,1790,0x49,0x9B,Read,NAK
1.682917500,,0x24,,Write,NAK
1.683247500,1794,0x40,0x84,Write,ACK
1.683302500,1794,0x40,0x84,Write,NAK
1.683632500,1796,0x41,0xA6,Read,ACK
1.683687500,1796,0x41,0xA6,Read,NAK
1.683942500,1798,0x49,0x98,Read,ACK
1.683997500,1798,0x49,0x98,Read,NAK
1.689127500,1800,0x49,0x9B,Read,ACK
1.689182500,1800,0x49,0x9B,Read,NAK
1.690812500,1802,0x40,0x88,Write,ACK
1.690867500,1802,0x40,0x88,Write,NAK
1.691197500,1804,0x41,0x6E,Read,ACK
1.691252500,1804,0x41,0x6E,Read,NAK
1.691507500,1806,0x49,0xC3,Read,ACK
1.691562500,1806,0x49,0xC3,Read,NAK
1.696692500,1808,0x49,0xE0,Read,ACK
1.696747500,1808,0x49,0xE0,Read,NAK
1.698322500,,0x24,,Write,NAK
1.698652500,1812,0x40,0x8C,Write,ACK
1.698707500,1812,0x40,0x8C,Write,NAK
1.699037500,1814,0x41,0xB8,Read,ACK
1.699092500,1814,0x41,0xB8,Read,NAK
1.699347500,1816,0x49,0x8E,Read,ACK
1.699402500,1816,0x49,0x8E,Read,NAK
1.704532500,1818,0x49,0xB9,Read,ACK
1.704587500,1818,0x49,0xB9,Read,NAK
1.706217500,1820,0x40,0x90,Write,ACK
1.706272500,1820,0x40,0x90,Write,NAK
1.706602500,1822,0x41,0xA7,Read,ACK
1.706657500,1822,0x41,0xA7,Read,NAK
1.706912500,1824,0x49,0xBE,Read,ACK
1.706967500,1824,0x49,0xBE,Read,NAK
1.712097500,1826,0x49,0xC5,Read,ACK
1.712152500,1826,0x49,0xC5,Read,NAK
1.713782500,1828,0x40,0x94,Write,ACK
1.713837500,1828,0x40,0x94,Write,NAK
1.714167500,1830,0x41,0x7E,Read,ACK
1.714222500,1830,0x41,0x7E,Read,NAK
1.714477500,1832,0x49,0xA2,Read,ACK
1.714532500,1832,0x49,0xA2,Read,NAK
1.719662500,1834,0x49,0xD5,Read,ACK
1.719717500,1834,0x49,0xD5,Read,NAK
1.721347500,1836,0x40,0x98,Write,ACK
1.721402500,1836,0x40,0x98,Write,NAK
1.721732500,1838,0x41,0x74,Read,ACK
1.721787500,1838,0x41,0x74,Read,NAK
1.722042500,1840,0x49,0xDF,Read,ACK
1.722097500,1840,0x49,0xDF,Read,NAK
1.727227500,1842,0x49,0xF4,Read,ACK
1.727282500,1842,0x49,0xF4,Read,NAK
1.728912500,1844,0x40,0x9C,Write,ACK
1.728967500,1844,0x40,0x9C,Write,NAK
1.729297500,1846,0x41,0x83,Read,ACK
1.729352500,1846,0x41,0x83,Read,NAK
1.729607500,1848,0x49,0x9A,Read,ACK
1.729662500,1848,0x49,0x9A,Read,NAK
1.734792500,1850,0x49,0xA3,Read,ACK
1.734847500,1850,0x49,0xA3,Read,NAK
1.736477500,1852,0x40,0xA0,Write,ACK
1.736532500,1852,0x40,0xA0,Write,NAK
1.736862500,1854,0x41,0xAB,Read,ACK
1.736917500,1854,0x41,0xAB,Read,NAK
1.737172500,1856,0x49,0xDE,Read,ACK
1.737227500,1856,0x49,0xDE,Read,NAK
1.742357500,1858,0x49,0xDD,Read,ACK
1.742412500,1858,0x49,0xDD,Read,NAK
1.744042500,1860,0x40,0xA4,Write,ACK
1.744097500,1860,0x40,0xA4,Write,NAK
1.744427500,1862,0x41,0x70,Read,ACK
1.744482500,1862,0x41,0x70,Read,NAK
1.744737500,1864,0x49,0xB1,Read,ACK
1.744792500,1864,0x49,0xB1,Read,NAK
1.749922500,1866,0x49,0xBB,Read,ACK
1.749977500,1866,0x49,0xBB,Read,NAK
1.751607500,1868,0x40,0xA8,Write,ACK
1.751662500,1868,0x40,0xA8,Write,NAK
1.751992500,1870,0x41,0xCE,Read,ACK
1.752047500,1870,0x41,0xCE,Read,NAK
1.752302500,1872,0x49,0xCF,Read,ACK
1.752357500,1872,0x49,0xCF,Read,NAK
1.757487500,1874,0x49,0x02,Read,ACK
1.757542500,1874,0x49,0x02,Read,NAK
1.759172500,1876,0x40,0xAC,Write,ACK
1.759227500,1876,0x40,0xAC,Write,NAK
1.759557500,1878,0x41,0xB4,Read,ACK
1.759612500,1878,0x41,0xB4,Read,NAK
1.759867500,1880,0x49,0xB7,Read,ACK
1.759922500,1880,0x49,0xB7,Read,NAK
1.765052500,1882,0x49,0xB4,Read,ACK
1.765107500,1882,0x49,0xB4,Read,NAK
1.766737500,1884,0x40,0xB0,Write,ACK
1.766792500,1884,0x40,0xB0,Write,NAK
1.767122500,1886,0x41,0x97,Read,ACK
1.767177500,1886,0x41,0x97,Read,NAK
1.767432500,1888,0x49,0x09,Read,ACK
1.767487500,1888,0x49,0x09,Read,NAK
1.772617500,1890,0x49,0xF1,Read,ACK
1.772672500,1890,0x49,0xF1,Read,NAK
1.774302500,1892,0x40,0xB4,Write,ACK
1.774357500,1892,0x40,0xB4,Write,NAK
1.774687500,1894,0x41,0x95,Read,ACK
1.774742500,1894,0x41,0x95,Read,NAK
1.774997500,1896,0x49,0xEE,Read,ACK
1.775052500,1896,0x49,0xEE,Read,NAK
1.780182500,1898,0x49,0xF7,Read,ACK
1.780237500,1898,0x49,0xF7,Read,NAK
1.781867500,1900,0x40,0xB8,Write,ACK
1.781922500,1900,0x40,0xB8,Write,NAK
1.782252500,1902,0x41,0x84,Read,ACK
1.782307500,1902,0x41,0x84,Read,NAK
1.782562500,1904,0x49,0x0F,Read,ACK
1.782617500,1904,0x49,0x0F,Read,NAK
1.787747500,1906,0x49,0xCE,Read,ACK
1.787802500,1906,0x49,0xCE,Read,NAK
1.789432500,1908,0x40,0xBC,Write,ACK
1.789487500,1908,0x40,0xBC,Write,NAK
1.789817500,1910,0x41,0x8C,Read,ACK
1.789872500,1910,0x41,0x8C,Read,NAK
1.790127500,1912,0x49,0xF6,Read,ACK
1.790182500,1912,0x49,0xF6,Read,NAK
1.795312500,1914,0x49,0x04,Read,ACK
1.795367500,1914,0x49,0x04,Read,NAK
1.796997500,1916,0x40,0xC0,Write,ACK
1.797052500,1916,0x40,0xC0,Write,NAK
1.797382500,1918,0x41,0xB2,Read,ACK
1.797437500,1918,0x41,0xB2,Read,NAK
1.797692500,1920,0x49,0xFE,Read,ACK
1.797747500,1920,0x49,0xFE,Read,NAK
1.802877500,1922,0x49,0xE0,Read,ACK
1.802932500,1922,0x49,0xE0,Read,NAK
1.804562500,1924,0x40,0xC4,Write,ACK
1.804617500,1924,0x40,0xC4,Write,NAK
1.804947500,1926,0x41,0xED,Read,ACK
1.805002500,1926,0x41,0xED,Read,NAK
1.805257500,1928,0x49,0x17,Read,ACK
1.805312500,1928,0x49,0x17,Read,NAK
1.810442500,1930,0x49,0x19,Read,ACK
1.810497500,1930,0x49,0x19,Read,NAK
1.812127500,1932,0x40,0xC8,Write,ACK
1.812182500,1932,0x40,0xC8,Write,NAK
1.812512500,1934,0x41,0xF1,Read,ACK
1.812567500,1934,0x41,0xF1,Read,NAK
1.812822500,1936,0x49,0xCB,Read,ACK
1.812877500,1936,0x49,0xCB,Read,NAK
1.818007500,1938,0x49,0x21,Read,ACK
1.818062500,1938,0x49,0x21,Read,NAK
1.819692500,1940,0x40,0xCC,Write,ACK
1.819747500,1940,0x40,0xCC,Write,NAK
1.820077500,1942,0x41,0xB8,Read,ACK
1.820132500,1942,0x41,0xB8,Read,NAK
1.820387500,1944,0x49,0x15,Read,ACK
1.820442500,1944,0x49,0x15,Read,NAK
1.825572500,1946,0x49,0x03,Read,ACK
1.825627500,1946,0x49,0x03,Read,NAK
1.827257500,1948,0x40,0xD0,Write,ACK
1.827312500,1948,0x40,0xD0,Write,NAK
1.827642500,1950,0x41,0xED,Read,ACK
1.827697500,1950,0x41,0xED,Read,NAK
1.827952500,1952,0x49,0x01,Read,ACK
1.828007500,1952,0x49,0x01,Read,NAK
1.833137500,1954,0x49,0x23,Read,ACK
1.833192500,1954,0x49,0x23,Read,NAK
1.834822500,1956,0x40,0xD4,Write,ACK
1.834877500,1956,0x40,0xD4,Write,NAK
1.835207500,1958,0x41,0xB9,Read,ACK
1.835262500,1958,0x41,0xB9,Read,NAK
1.835517500,1960,0x49,0xEE,Read,ACK
1.835572500,1960,0x49,0xEE,Read,NAK
1.840702500,1962,0x49,0xDB,Read,ACK
1.840757500,1962,0x49,0xDB,Read,NAK
1.842387500,1964,0x40,0xD8,Write,ACK
1.842442500,1964,0x40,0xD8,Write,NAK
1.842772500,1966,0x41,0xC3,Read,ACK
1.842827500,1966,0x41,0xC3,Read,NAK
1.843082500,1968,0x49,0xDE,Read,ACK
1.843137500,1968,0x49,0xDE,Read,NAK
1.848267500,1970,0x49,0x1B,Read,ACK
1.848322500,1970,0x49,0x1B,Read,NAK
1.849952500,1972,0x40,0xDC,Write,ACK
1.850007500,1972,0x40,0xDC,Write,NAK
1.850337500,1974,0x41,0xFA,Read,ACK
1.850392500,1974,0x41,0xFA,Read,NAK
1.850647500,1976,0x49,0xEC,Read,ACK
1.850702500,1976,0x49,0xEC,Read,NAK
1.855832500,1978,0x49,0x22,Read,ACK
1.855887500,1978,0x49,0x22,Read,NAK
1.857517500,1980,0x40,0xE0,Write,ACK
1.857572500,1980,0x40,0xE0,Write,NAK
1.857902500,1982,0x41,0xDC,Read,ACK
1.857957500,1982,0x41,0xDC,Read,NAK
1.858212500,1984,0x49,0xFE,Read,ACK
1.858267500,1984,0x49,0xFE,Read,NAK
1.863397500,1986,0x49,0x2E,Read,ACK
1.863452500,1986,0x49,0x2E,Read,NAK
1.865082500,1988,0x40,0xE4,Write,ACK
1.865137500,1988,0x40,0xE4,Write,NAK
1.865467500,1990,0x41,0xCF,Read,ACK
1.865522500,1990,0x41,0xCF,Read,NAK
1.865777500,1992,0x49,0x0B,Read,ACK
1.865832500,1992,0x49,0x0B,Read,NAK
1.870962500,1994,0x49,0x3F,Read,ACK
1.871017500,1994,0x49,0x3F,Read,NAK
1.872647500,1996,0x40,0xE8,Write,ACK
1.872702500,1996,0x40,0xE8,Write,NAK
1.873032500,1998,0x41,0xF0,Read,ACK
1.873087500,1998,0x41,0xF0,Read,NAK
1.873342500,2000,0x49,0x21,Read,ACK
1.873397500,2000,0x49,0x21,Read,NAK
1.878527500,2002,0x49,0x14,Read,ACK
1.878582500,2002,0x49,0x14,Read,NAK
1.880212500,2004,0x40,0xEC,Write,ACK
1.880267500,2004,0x40,0xEC,Write,NAK
1.880597500,2006,0x41,0xB8,Read,ACK
1.880652500,2006,0x41,0xB8,Read,NAK
1.880907500,2008,0x49,0x38,Read,ACK
1.880962500,2008,0x49,0x38,Read,NAK
1.886092500,2010,0x49,0x32,Read,ACK
1.886147500,2010,0x49,0x32,Read,NAK
1.887777500,2012,0x40,0xF0,Write,ACK
1.887832500,2012,0x40,0xF0,Write,NAK
1.888162500,2014,0x41,0xE7,Read,ACK
1.888217500,2014,0x41,0xE7,Read,NAK
1.888472500,2016,0x49,0x0D,Read,ACK
1.888527500,2016,0x49,0x0D,Read,NAK
1.893657500,2018,0x49,0x57,Read,ACK
1.893712500,2018,0x49,0x57,Read,NAK
1.895342500,2020,0x40,0xF4,Write,ACK
1.895397500,2020,0x40,0xF4,Write,NAK
1.895727500,2022,0x41,0xD9,Read,ACK
1.895782500,2022,0x41,0xD9,Read,NAK
1.896037500,2024,0x49,0x4A,Read,ACK
1.896092500,2024,0x49,0x4A,Read,NAK
1.901222500,2026,0x49,0x31,Read,ACK
1.901277500,2026,0x49,0x31,Read,NAK
1.902907500,2028,0x40,0xF8,Write,ACK
1.902962500,2028,0x40,0xF8,Write,NAK
1.903292500,2030,0x41,0xCE,Read,ACK
1.903347500,2030,0x41,0xCE,Read,NAK
1.903602500,2032,0x49,0xFC,Read,ACK
1.903657500,2032,0x49,0xFC,Read,NAK
1.908787500,2034,0x49,0x03,Read,ACK
1.908842500,2034,0x49,0x03,Read,NAK
1.910472500,2036,0x40,0xFC,Write,ACK
1.910527500,2036,0x40,0xFC,Write,NAK
1.910857500,2038,0x41,0x22,Read,ACK
1.910912500,2038,0x41,0x22,Read,NAK
1.911167500,2040,0x49,0x05,Read,ACK
1.911222500,2040,0x49,0x05,Read,NAK
1.916352500,2042,0x49,0x1C,Read,ACK
1.916407500,2042,0x49,0x1C,Read,NAK
1.918037500,2044,0x40,0x00,Write,ACK
1.918092500,2044,0x40,0x00,Write,NAK
1.918422500,2046,0x41,0x05,Read,ACK
1.918477500,2046,0x41,0x05,Read,NAK
1.918732500,2048,0x49,0x56,Read,ACK
1.918787500,2048,0x49,0x56,Read,NAK
1.923917500,2050,0x49,0x2E,Read,ACK
1.923972500,2050,0x49,0x2E,Read,NAK
1.925602500,2052,0x40,0x04,Write,ACK
1.925657500,2052,0x40,0x04,Write,NAK
1.925987500,2054,0x41,0x30,Read,ACK
1.926042500,2054,0x41,0x30,Read,NAK
1.926297500,2056,0x49,0x12,Read,ACK
1.926352500,2056,0x49,0x12,Read,NAK
1.931482500,2058,0x49,0x54,Read,ACK
1.931537500,2058,0x49,0x54,Read,NAK
1.933167500,2060,0x40,0x08,Write,ACK
1.933222500,2060,0x40,0x08,Write,NAK
1.933552500,2062,0x41,0xFD,Read,ACK
1.933607500,2062,0x41,0xFD,Read,NAK
1.933862500,2064,0x49,0x09,Read,ACK
1.933917500,2064,0x49,0x09,Read,NAK
1.939047500,2066,0x49,0x4C,Read,ACK
1.939102500,2066,0x49,0x4C,Read,NAK
1.940732500,2068,0x40,0x0C,Write,ACK
1.940787500,2068,0x40,0x0C,Write,NAK
1.941117500,2070,0x41,0x07,Read,ACK
1.941172500,2070,0x41,0x07,Read,NAK
1.941427500,2072,0x49,0x4E,Read,ACK
1.941482500,2072,0x49,0x4E,Read,NAK
1.946612500,2074,0x49,0x66,Read,ACK
1.946667500,2074,0x49,0x66,Read,NAK
1.948297500,2076,0x40,0x10,Write,ACK
1.948352500,2076,0x40,0x10,Write,NAK
1.948682500,2078,0x41,0x1E,Read,ACK
1.948737500,2078,0x41,0x1E,Read,NAK
1.948992500,2080,0x49,0x55,Read,ACK
1.949047500,2080,0x49,0x55,Read,NAK
1.954177500,2082,0x49,0x5D,Read,ACK
1.954232500,2082,0x49,0x5D,Read,NAK
1.955862500,2084,0x40,0x14,Write,ACK
1.955917500,2084,0x40,0x14,Write,NAK
1.956247500,2086,0x41,0xF9,Read,ACK
1.956302500,2086,0x41,0xF9,Read,NAK
1.956557500,2088,0x49,0x22,Read,ACK
1.956612500,2088,0x49,0x22,Read,NAK
1.961742500,2090,0x49,0x57,Read,ACK
1.961797500,2090,0x49,0x57,Read,NAK
1.963372500,,0x24,,Write,NAK
1.963702500,2094,0x40,0x18,Write,ACK
1.963757500,2094,0x40,0x18,Write,NAK
1.964087500,2096,0x41,0x3D,Read,ACK
1.964142500,2096,0x41,0x3D,Read,NAK
1.964397500,2098,0x49,0x4F,Read,ACK
1.964452500,2098,0x49,0x4F,Read,NAK
1.969582500,2100,0x49,0x47,Read,ACK
1.969637500,2100,0x49,0x47,Read,NAK
1.971267500,2102,0x40,0x1C,Write,ACK
1.971322500,2102,0x40,0x1C,Write,NAK
1.971652500,2104,0x41,0x3A,Read,ACK
1.971707500,2104,0x41,0x3A,Read,NAK
1.971962500,2106,0x49,0x53,Read,ACK
1.972017500,2106,0x49,0x53,Read,NAK
1.977147500,2108,0x49,0x71,Read,ACK
1.977202500,2108,0x49,0x71,Read,NAK
1.978832500,2110,0x40,0x20,Write,ACK
1.978887500,2110,0x40,0x20,Write,NAK
1.979217500,2112,0x41,0x28,Read,ACK
1.979272500,2112,0x41,0x28,Read,NAK
1.979527500,2114,0x49,0x5B,Read,ACK
1.979582500,2114,0x49,0x5B,Read,NAK
1.984712500,2116,0x49,0x80,Read,ACK
1.984767500,2116,0x49,0x80,Read,NAK
1.986397500,2118,0x40,0x24,Write,ACK
1.986452500,2118,0x40,0x24,Write,NAK
1.986782500,2120,0x41,0x4B,Read,ACK
1.986837500,2120,0x41,0x4B,Read,NAK
1.987092500,2122,0x49,0x28,Read,ACK
1.987147500,2122,0x49,0x28,Read,NAK
1.992277500,2124,0x49,0x43,Read,ACK
1.992332500,2124,0x49,0x43,Read,NAK
1.993962500,2126,0x40,0x28,Write,ACK
1.994017500,2126,0x40,0x28,Write,NAK
1.994347500,2128,0x41,0x0B,Read,ACK
1.994402500,2128,0x41,0x0B,Read,NAK
1.994657500,2130,0x49,0x43,Read,ACK
1.994712500,2130,0x49,0x43,Read,NAK
1.999842500,2132,0x49,0x51,Read,ACK
1.999897500,2132,0x49,0x51,Read,NAK
2.001527500,2134,0x40,0x2C,Write,ACK
2.001582500,2134,0x40,0x2C,Write,NAK
2.001912500,2136,0x41,0x04,Read,ACK
2.001967500,2136,0x41,0x04,Read,NAK
2.002222500,2138,0x49,0x67,Read,ACK
2.002277500,2138,0x49,0x67,Read,NAK
2.007407500,2140,0x49,0x7B,Read,ACK
2.007462500,2140,0x49,0x7B,Read,NAK
2.009092500,2142,0x40,0x30,Write,ACK
2.009147500,2142,0x40,0x30,Write,NAK
2.009477500,2144,0x41,0xFA,Read,ACK
2.009532500,2144,0x41,0xFA,Read,NAK
2.009787500,2146,0x49,0x51,Read,ACK
2.009842500,2146,0x49,0x51,Read,NAK
2.014972500,2148,0x49,0x54,Read,ACK
2.015027500,2148,0x49,0x54,Read,NAK
2.016657500,2150,0x40,0x34,Write,ACK
2.016712500,2150,0x40,0x34,Write,NAK
2.017042500,2152,0x41,0x41,Read,ACK
2.017097500,2152,0x41,0x41,Read,NAK
2.017352500,2154,0x49,0x84,Read,ACK
2.017407500,2154,0x49,0x84,Read,NAK
2.022537500,2156,0x49,0x4E,Read,ACK
2.022592500,2156,0x49,0x4E,Read,NAK
2.024222500,2158,0x40,0x38,Write,ACK
2.024277500,2158,0x40,0x38,Write,NAK
2.024607500,2160,0x41,0x09,Read,ACK
2.024662500,2160,0x41,0x09,Read,NAK
2.024917500,2162,0x49,0x6A,Read,ACK
2.024972500,2162,0x49,0x6A,Read,NAK
2.030102500,2164,0x49,0x6D,Read,ACK
2.030157500,2164,0x49,0x6D,Read,NAK
2.031787500,2166,0x40,0x3C,Write,ACK
2.031842500,2166,0x40,0x3C,Write,NAK
2.032172500,2168,0x41,0x1F,Read,ACK
2.032227500,2168,0x41,0x1F,Read,NAK
2.032482500,2170,0x49,0x7E,Read,ACK
2.032537500,2170,0x49,0x7E,Read,NAK
2.037667500,2172,0x49,0x6A,Read,ACK
2.037722500,2172,0x49,0x6A,Read,NAK
2.039352500,2174,0x40,0x40,Write,ACK
2.039407500,2174,0x40,0x40,Write,NAK
2.039737500,2176,0x41,0x37,Read,ACK
2.039792500,2176,0x41,0x37,Read,NAK
2.040047500,2178,0x49,0x52,Read,ACK
2.040102500,2178,0x49,0x52,Read,NAK
2.045232500,2180,0x49,0x7A,Read,ACK
2.045287500,2180,0x49,0x7A,Read,NAK
2.046917500,2182,0x40,0x44,Write,ACK
2.046972500,2182,0x40,0x44,Write,NAK
2.047302500,2184,0x41,0x6D,Read,ACK
2.047357500,2184,0x41,0x6D,Read,NAK
2.047612500,2186,0x49,0x56,Read,ACK
2.047667500,2186,0x49,0x56,Read,NAK
2.052797500,2188,0x49,0x9A,Read,ACK
2.052852500,2188,0x49,0x9A,Read,NAK
2.054427500,,0x24,,Write,NAK
2.054757500,2192,0x40,0x48,Write,ACK
2.054812500,2192,0x40,0x48,Write,NAK
2.055142500,2194,0x41,0x53,Read,ACK
2.055197500,2194,0x41,0x53,Read,NAK
2.055452500,2196,0x49,0x4B,Read,ACK
2.055507500,2196,0x49,0x4B,Read,NAK
2.060637500,2198,0x49,0x7E,Read,ACK
2.060692500,2198,0x49,0x7E,Read,NAK
2.062322500,2200,0x40,0x4C,Write,ACK
2.062377500,2200,0x40,0x4C,Write,NAK
2.062707500,2202,0x41,0x38,Read,ACK
2.062762500,2202,0x41,0x38,Read,NAK
2.063017500,2204,0x49,0x89,Read,ACK
2.063072500,2204,0x49,0x89,Read,NAK
2.068202500,2206,0x49,0x60,Read,ACK
2.068257500,2206,0x49,0x60,Read,NAK
2.069887500,2208,0x40,0x50,Write,ACK
2.069942500,2208,0x40,0x50,Write,NAK
2.070272500,2210,0x41,0x28,Read,ACK
2.070327500,2210,0x41,0x28,Read,NAK
2.070582500,2212,0x49,0xA5,Read,ACK
2.070637500,2212,0x49,0xA5,Read,NAK
2.075767500,2214,0x49,0x65,Read,ACK
2.075822500,2214,0x49,0x65,Read,NAK
2.077452500,2216,0x40,0x54,Write,ACK
2.077507500,2216,0x40,0x54,Write,NAK
2.077837500,2218,0x41,0x73,Read,ACK
2.077892500,2218,0x41,0x73,Read,NAK
2.078147500,2220,0x49,0x6B,Read,ACK
2.078202500,2220,0x49,0x6B,Read,NAK
2.083332500,2222,0x49,0x87,Read,ACK
2.083387500,2222,0x49,0x87,Read,NAK
2.085017500,2224,0x40,0x58,Write,ACK
2.085072500,2224,0x40,0x58,Write,NAK
2.085402500,2226,0x41,0x7F,Read,ACK
2.085457500,2226,0x41,0x7F,Read,NAK
2.085712500,2228,0x49,0x78,Read,ACK
2.085767500,2228,0x49,0x78,Read,NAK
2.090897500,2230,0x49,0xB6,Read,ACK
2.090952500,2230,0x49,0xB6,Read,NAK
2.092582500,2232,0x40,0x5C,Write,ACK
2.092637500,2232,0x40,0x5C,Write,NAK
2.092967500,2234,0x41,0x38,Read,ACK
2.093022500,2234,0x41,0x38,Read,NAK
2.093277500,2236,0x49,0x6D,Read,ACK
2.093332500,2236,0x49,0x6D,Read,NAK
2.098462500,2238,0x49,0x6D,Read,ACK
2.098517500,2238,0x49,0x6D,Read,NAK
2.100147500,2240,0x40,0x60,Write,ACK
2.100202500,2240,0x40,0x60,Write,NAK
2.100532500,2242,0x41,0x31,Read,ACK
2.100587500,2242,0x41,0x31,Read,NAK
2.100842500,2244,0x49,0x94,Read,ACK
2.100897500,2244,0x49,0x94,Read,NAK
2.106027500,2246,0x49,0x6E,Read,ACK
2.106082500,2246,0x49,0x6E,Read,NAK
2.107712500,2248,0x40,0x64,Write,ACK
2.107767500,2248,0x40,0x64,Write,NAK
2.108097500,2250,0x41,0x58,Read,ACK
2.108152500,2250,0x41,0x58,Read,NAK
2.108407500,2252,0x49,0xB0,Read,ACK
2.108462500,2252,0x49,0xB0,Read,NAK
2.113592500,2254,0x49,0xB6,Read,ACK
2.113647500,2254,0x49,0xB6,Read,NAK
2.115277500,2256,0x40,0x68,Write,ACK
2.115332500,2256,0x40,0x68,Write,NAK
2.115662500,2258,0x41,0x66,Read,ACK
2.115717500,2258,0x41,0x66,Read,NAK
2.115972500,2260,0x49,0xA8,Read,ACK
2.116027500,2260,0x49,0xA8,Read,NAK
2.121157500,2262,0x49,0x96,Read,ACK
2.121212500,2262,0x49,0x96,Read,NAK
2.122842500,2264,0x40,0x6C,Write,ACK
2.122897500,2264,0x40,0x6C,Write,NAK
2.123227500,2266,0x41,0x63,Read,ACK
2.123282500,2266,0x41,0x63,Read,NAK
2.123537500,2268,0x49,0x66,Read,ACK
2.123592500,2268,0x49,0x66,Read,NAK
2.128722500,2270,0x49,0xBC,Read,ACK
2.128777500,2270,0x49,0xBC,Read,NAK
2.130407500,2272,0x40,0x70,Write,ACK
2.130462500,2272,0x40,0x70,Write,NAK
2.130792500,2274,0x41,0x6D,Read,ACK
2.130847500,2274,0x41,0x6D,Read,NAK
2.131102500,2276,0x49,0xBD,Read,ACK
2.131157500,2276,0x49,0xBD,Read,NAK
2.136287500,2278,0x49,0xA5,Read,ACK
2.136342500,2278,0x49,0xA5,Read,NAK
2.137972500,2280,0x40,0x74,Write,ACK
2.138027500,2280,0x40,0x74,Write,NAK
2.138357500,2282,0x41,0x52,Read,ACK
2.138412500,2282,0x41,0x52,Read,NAK
2.138667500,2284,0x49,0x94,Read,ACK
2.138722500,2284,0x49,0x94,Read,NAK
2.143852500,2286,0x49,0x9B,Read,ACK
2.143907500,2286,0x49,0x9B,Read,NAK
2.145537500,2288,0x40,0x78,Write,ACK
2.145592500,2288,0x40,0x78,Write,NAK
2.145922500,2290,0x41,0x67,Read,ACK
2.145977500,2290,0x41,0x67,Read,NAK
2.146232500,2292,0x49,0x82,Read,ACK
2.146287500,2292,0x49,0x82,Read,NAK
2.151417500,2294,0x49,0xA4,Read,ACK
2.151472500,2294,0x49,0xA4,Read,NAK
2.153102500,2296,0x40,0x7C,Write,ACK
2.153157500,2296,0x40,0x7C,Write,NAK
2.153487500,2298,0x41,0xA9,Read,ACK
2.153542500,2298,0x41,0xA9,Read,NAK
2.153797500,2300,0x49,0xA1,Read,ACK
2.153852500,2300,0x49,0xA1,Read,NAK
2.158982500,2302,0x49,0xCA,Read,ACK
2.159037500,2302,0x49,0xCA,Read,NAK
2.160667500,2304,0x40,0x80,Write,ACK
2.160722500,2304,0x40,0x80,Write,NAK
2.161052500,2306,0x41,0x87,Read,ACK
2.161107500,2306,0x41,0x87,Read,NAK
2.161362500,2308,0x49,0xC4,Read,ACK
2.161417500,2308,0x49,0xC4,Read,NAK
2.166547500,2310,0x49,0xC4,Read,ACK
2.166602500,2310,0x49,0xC4,Read,NAK
2.168232500,2312,0x40,0x84,Write,ACK
2.168287500,2312,0x40,0x84,Write,NAK
2.168617500,2314,0x41,0x5F,Read,ACK
2.168672500,2314,0x41,0x5F,Read,NAK
2.168927500,2316,0x49,0x9E,Read,ACK
2.168982500,2316,0x49,0x9E,Read,NAK
2.174112500,2318,0x49,0xCA,Read,ACK
2.174167500,2318,0x49,0xCA,Read,NAK
2.175797500,2320,0x40,0x88,Write,ACK
2.175852500,2320,0x40,0x88,Write,NAK
2.176182500,2322,0x41,0x90,Read,ACK
2.176237500,2322,0x41,0x90,Read,NAK
2.176492500,2324,0x49,0x80,Read,ACK
2.176547500,2324,0x49,0x80,Read,NAK
2.181677500,2326,0x49,0x96,Read,ACK
2.181732500,2326,0x49,0x96,Read,NAK
2.183362500,2328,0x40,0x8C,Write,ACK
2.183417500,2328,0x40,0x8C,Write,NAK
2.183747500,2330,0x41,0x90,Read,ACK
2.183802500,2330,0x41,0x90,Read,NAK
2.184057500,2332,0x49,0xA2,Read,ACK
2.184112500,2332,0x49,0xA2,Read,NAK
2.189242500,2334,0x49,0xDA,Read,ACK
2.189297500,2334,0x49,0xDA,Read,NAK
2.190927500,2336,0x40,0x90,Write,ACK
2.190982500,2336,0x40,0x90,Write,NAK
2.191312500,2338,0x41,0x6D,Read,ACK
2.191367500,2338,0x41,0x6D,Read,NAK
2.191622500,2340,0x49,0xCB,Read,ACK
2.191677500,2340,0x49,0xCB,Read,NAK
2.196807500,2342,0x49,0xF9,Read,ACK
2.196862500,2342,0x49,0xF9,Read,NAK
2.198492500,2344,0x40,0x94,Write,ACK
2.198547500,2344,0x40,0x94,Write,NAK
2.198877500,2346,0x41,0x6A,Read,ACK
2.198932500,2346,0x41,0x6A,Read,NAK
2.199187500,2348,0x49,0xA9,Read,ACK
2.199242500,2348,0x49,0xA9,Read,NAK
2.204372500,2350,0x49,0xD5,Read,ACK
2.204427500,2350,0x49,0xD5,Read,NAK
2.206057500,2352,0x40,0x98,Write,ACK
2.206112500,2352,0x40,0x98,Write,NAK
2.206442500,2354,0x41,0x65,Read,ACK
2.206497500,2354,0x41,0x65,Read,NAK
2.206752500,2356,0x49,0xBD,Read,ACK
2.206807500,2356,0x49,0xBD,Read,NAK
2.211937500,2358,0x49,0xD7,Read,ACK
2.211992500,2358,0x49,0xD7,Read,NAK
2.213622500,2360,0x40,0x9C,Write,ACK
2.213677500,2360,0x40,0x9C,Write,NAK
2.214007500,2362,0x41,0xC4,Read,ACK
2.214062500,2362,0x41,0xC4,Read,NAK
2.214317500,2364,0x49,0xE2,Read,ACK
2.214372500,2364,0x49,0xE2,Read,NAK
2.219502500,2366,0x49,0xDF,Read,ACK
2.219557500,2366,0x49,0xDF,Read,NAK
2.221187500,2368,0x40,0xA0,Write,ACK
2.221242500,2368,0x40,0xA0,Write,NAK
2.221572500,2370,0x41,0x74,Read,ACK
2.221627500,2370,0x41,0x74,Read,NAK
2.221882500,2372,0x49,0xDF,Read,ACK
2.221937500,2372,0x49,0xDF,Read,NAK
2.227067500,2374,0x49,0xB2,Read,ACK
2.227122500,2374,0x49,0xB2,Read,NAK
2.228752500,2376,0x40,0xA4,Write,ACK
2.228807500,2376,0x40,0xA4,Write,NAK
2.229137500,2378,0x41,0xAB,Read,ACK
2.229192500,2378,0x41,0xAB,Read,NAK
2.229447500,2380,0x49,0xE4,Read,ACK
2.229502500,2380,0x49,0xE4,Read,NAK
2.234632500,2382,0x49,0xDB,Read,ACK
2.234687500,2382,0x49,0xDB,Read,NAK
2.236317500,2384,0x40,0xA8,Write,ACK
2.236372500,2384,0x40,0xA8,Write,NAK
2.236702500,2386,0x41,0x8E,Read,ACK
2.236757500,2386,0x41,0x8E,Read,NAK
2.237012500,2388,0x49,0xA6,Read,ACK
2.237067500,2388,0x49,0xA6,Read,NAK
2.242197500,2390,0x49,0x02,Read,ACK
2.242252500,2390,0x49,0x02,Read,NAK
2.243882500,2392,0x40,0xAC,Write,ACK
2.243937500,2392,0x40,0xAC,Write,NAK
2.244267500,2394,0x41,0x9E,Read,ACK
2.244322500,2394,0x41,0x9E,Read,NAK
2.244577500,2396,0x49,0xD8,Read,ACK
2.244632500,2396,0x49,0xD8,Read,NAK
2.249762500,2398,0x49,0xE4,Read,ACK
2.249817500,2398,0x49,0xE4,Read,NAK
2.251447500,2400,0x40,0xB0,Write,ACK
2.251502500,2400,0x40,0xB0,Write,NAK
2.251832500,2402,0x41,0x92,Read,ACK
2.251887500,2402,0x41,0x92,Read,NAK
2.252142500,2404,0x49,0x09,Read,ACK
2.252197500,2404,0x49,0x09,Read,NAK
2.257327500,2406,0x49,0xBB,Read,ACK
2.257382500,2406,0x49,0xBB,Read,NAK
2.259012500,2408,0x40,0xB4,Write,ACK
2.259067500,2408,0x40,0xB4,Write,NAK
2.259397500,2410,0x41,0xD0,Read,ACK
2.259452500,2410,0x41,0xD0,Read,NAK
2.259707500,2412,0x49,0xB8,Read,ACK
2.259762500,2412,0x49,0xB8,Read,NAK
2.264892500,2414,0x49,0x14,Read,ACK
2.264947500,2414,0x49,0x14,Read,NAK
2.266577500,2416,0x40,0xB8,Write,ACK
2.266632500,2416,0x40,0xB8,Write,NAK
2.266962500,2418,0x41,0xBF,Read,ACK
2.267017500,2418,0x41,0xBF,Read,NAK
2.267272500,2420,0x49,0x0F,Read,ACK
2.267327500,2420,0x49,0x0F,Read,NAK
2.272457500,2422,0x49,0xE6,Read,ACK
2.272512500,2422,0x49,0xE6,Read,NAK
2.274142500,2424,0x40,0xBC,Write,ACK
2.274197500,2424,0x40,0xBC,Write,NAK
2.274527500,2426,0x41,0xD3,Read,ACK
2.274582500,2426,0x41,0xD3,Read,NAK
2.274837500,2428,0x49,0xE6,Read,ACK
2.274892500,2428,0x49,0xE6,Read,NAK
2.280022500,2430,0x49,0xD2,Read,ACK
2.280077500,2430,0x49,0xD2,Read,NAK
2.281707500,2432,0x40,0xC0,Write,ACK
2.281762500,2432,0x40,0xC0,Write,NAK
2.282092500,2434,0x41,0xA3,Read,ACK
2.282147500,2434,0x41,0xA3,Read,NAK
2.282402500,2436,0x49,0x05,Read,ACK
2.282457500,2436,0x49,0x05,Read,NAK
2.287587500,2438,0x49,0x0A,Read,ACK
2.287642500,2438,0x49,0x0A,Read,NAK
2.289272500,2440,0x40,0xC4,Write,ACK
2.289327500,2440,0x40,0xC4,Write,NAK
2.289657500,2442,0x41,0x93,Read,ACK
2.289712500,2442,0x41,0x93,Read,NAK
2.289967500,2444,0x49,0xCA,Read,ACK
2.290022500,2444,0x49,0xCA,Read,NAK
2.295152500,2446,0x49,0x09,Read,ACK
2.295207500,2446,0x49,0x09,Read,NAK
2.296837500,2448,0x40,0xC8,Write,ACK
2.296892500,2448,0x40,0xC8,Write,NAK
2.297222500,2450,0x41,0xAA,Read,ACK
2.297277500,2450,0x41,0xAA,Read,NAK
2.297532500,2452,0x49,0xEB,Read,ACK
2.297587500,2452,0x49,0xEB,Read,NAK
2.302717500,2454,0x49,0xE8,Read,ACK
2.302772500,2454,0x49,0xE8,Read,NAK
2.304402500,2456,0x40,0xCC,Write,ACK
2.304457500,2456,0x40,0xCC,Write,NAK
2.304787500,2458,0x41,0xCA,Read,ACK
2.304842500,2458,0x41,0xCA,Read,NAK
2.305097500,2460,0x49,0xDC,Read,ACK
2.305152500,2460,0x49,0xDC,Read,NAK
2.310282500,2462,0x49,0xEF,Read,ACK
2.310337500,2462,0x49,0xEF,Read,NAK
2.311967500,2464,0x40,0xD0,Write,ACK
2.312022500,2464,0x40,0xD0,Write,NAK
2.312352500,2466,0x41,0xB3,Read,ACK
2.312407500,2466,0x41,0xB3,Read,NAK
2.312662500,2468,0x49,0xE6,Read,ACK
2.312717500,2468,0x49,0xE6,Read,NAK
2.317847500,2470,0x49,0xE7,Read,ACK
2.317902500,2470,0x49,0xE7,Read,NAK
2.319532500,2472,0x40,0xD4,Write,ACK
2.319587500,2472,0x40,0xD4,Write,NAK
2.319917500,2474,0x41,0x00,Read,ACK
2.319972500,2474,0x41,0x00,Read,NAK
2.320227500,2476,0x49,0xCF,Read,ACK
2.320282500,2476,0x49,0xCF,Read,NAK
2.325412500,2478,0x49,0x08,Read,ACK
2.325467500,2478,0x49,0x08,Read,NAK
2.327097500,2480,0x40,0xD8,Write,ACK
2.327152500,2480,0x40,0xD8,Write,NAK
2.327482500,2482,0x41,0xA4,Read,ACK
2.327537500,2482,0x41,0xA4,Read,NAK
2.327792500,2484,0x49,0x23,Read,ACK
2.327847500,2484,0x49,0x23,Read,NAK
2.332977500,2486,0x49,0xF2,Read,ACK
2.333032500,2486,0x49,0xF2,Read,NAK
2.334662500,2488,0x40,0xDC,Write,ACK
2.334717500,2488,0x40,0xDC,Write,NAK
2.335047500,2490,0x41,0xFF,Read,ACK
2.335102500,2490,0x41,0xFF,Read,NAK
2.335357500,2492,0x49,0x28,Read,ACK
2.335412500,2492,0x49,0x28,Read,NAK
2.340542500,2494,0x49,0xF7,Read,ACK
2.340597500,2494,0x49,0xF7,Read,NAK
2.342227500,2496,0x40,0xE0,Write,ACK
2.342282500,2496,0x40,0xE0,Write,NAK
2.342612500,2498,0x41,0xBB,Read,ACK
2.342667500,2498,0x41,0xBB,Read,NAK
2.342922500,2500,0x49,0xFD,Read,ACK
2.342977500,2500,0x49,0xFD,Read,NAK
2.348107500,2502,0x49,0x1C,Read,ACK
2.348162500,2502,0x49,0x1C,Read,NAK
2.349792500,2504,0x40,0xE4,Write,ACK
2.349847500,2504,0x40,0xE4,Write,NAK
2.350177500,2506,0x41,0xB5,Read,ACK
2.350232500,2506,0x41,0xB5,Read,NAK
2.350487500,2508,0x49,0x1E,Read,ACK
2.350542500,2508,0x49,0x1E,Read,NAK
2.355672500,2510,0x49,0xF4,Read,ACK
2.355727500,2510,0x49,0xF4,Read,NAK
2.357357500,2512,0x40,0xE8,Write,ACK
2.357412500,2512,0x40,0xE8,Write,NAK
2.357742500,2514,0x41,0xF3,Read,ACK
2.357797500,2514,0x41,0xF3,Read,NAK
2.358052500,2516,0x49,0x34,Read,ACK
2.358107500,2516,0x49,0x34,Read,NAK
2.363237500,2518,0x49,0x1F,Read,ACK
2.363292500,2518,0x49,0x1F,Read,NAK
2.364922500,2520,0x40,0xEC,Write,ACK
2.364977500,2520,0x40,0xEC,Write,NAK
2.365307500,2522,0x41,0xC2,Read,ACK
2.365362500,2522,0x41,0xC2,Read,NAK
2.365617500,2524,0x49,0xFE,Read,ACK
2.365672500,2524,0x49,0xFE,Read,NAK
2.370802500,2526,0x49,0x20,Read,ACK
2.370857500,2526,0x49,0x20,Read,NAK
2.372487500,2528,0x40,0xF0,Write,ACK
2.372542500,2528,0x40,0xF0,Write,NAK
2.372872500,2530,0x41,0xF7,Read,ACK
2.372927500,2530,0x41,0xF7,Read,NAK
2.373182500,2532,0x49,0x23,Read,ACK
2.373237500,2532,0x49,0x23,Read,NAK
2.378367500,2534,0x49,0x58,Read,ACK
2.378422500,2534,0x49,0x58,Read,NAK
2.380052500,2536,0x40,0xF4,Write,ACK
2.380107500,2536,0x40,0xF4,Write,NAK
2.380437500,2538,0x41,0xD0,Read,ACK
2.380492500,2538,0x41,0xD0,Read,NAK
2.380747500,2540,0x49,0x15,Read,ACK
2.380802500,2540,0x49,0x15,Read,NAK
2.385932500,2542,0x49,0x12,Read,ACK
2.385987500,2542,0x49,0x12,Read,NAK
2.387617500,2544,0x40,0xF8,Write,ACK
2.387672500,2544,0x40,0xF8,Write,NAK
2.388002500,2546,0x41,0x12,Read,ACK
2.388057500,2546,0x41,0x12,Read,NAK
2.388312500,2548,0x49,0x4C,Read,ACK
2.388367500,2548,0x49,0x4C,Read,NAK
2.393497500,2550,0x49,0x04,Read,ACK
2.393552500,2550,0x49,0x04,Read,NAK
2.395182500,2552,0x40,0xFC,Write,ACK
2.395237500,2552,0x40,0xFC,Write,NAK
2.395567500,2554,0x41,0xE6,Read,ACK
2.395622500,2554,0x41,0xE6,Read,NAK
2.395877500,2556,0x49,0x3F,Read,ACK
2.395932500,2556,0x49,0x3F,Read,NAK
2.401062500,2558,0x49,0x26,Read,ACK
2.401117500,2558,0x49,0x26,Read,NAK
2.402747500,2560,0x40,0x00,Write,ACK
2.402802500,2560,0x40,0x00,Write,NAK
2.403132500,2562,0x41,0xDA,Read,ACK
2.403187500,2562,0x41,0xDA,Read,NAK
2.403442500,2564,0x49,0x1F,Read,ACK
2.403497500,2564,0x49,0x1F,Read,NAK
2.408627500,2566,0x49,0x20,Read,ACK
2.408682500,2566,0x49,0x20,Read,NAK
2.410312500,2568,0x40,0x04,Write,ACK
2.410367500,2568,0x40,0x04,Write,NAK
2.410697500,2570,0x41,0xD7,Read,ACK
2.410752500,2570,0x41,0xD7,Read,NAK
2.411007500,2572,0x49,0x50,Read,ACK
2.411062500,2572,0x49,0x50,Read,NAK
2.416192500,2574,0x49,0x12,Read,ACK
2.416247500,2574,0x49,0x12,Read,NAK
2.417877500,2576,0x40,0x08,Write,ACK
2.417932500,2576,0x40,0x08,Write,NAK
2.418262500,2578,0x41,0x1A,Read,ACK
2.418317500,2578,0x41,0x1A,Read,NAK
2.418572500,2580,0x49,0x05,Read,ACK
2.418627500,2580,0x49,0x05,Read,NAK
2.423757500,2582,0x49,0x3B,Read,ACK
2.423812500,2582,0x49,0x3B,Read,NAK
2.425442500,2584,0x40,0x0C,Write,ACK
2.425497500,2584,0x40,0x0C,Write,NAK
2.425827500,2586,0x41,0xFA,Read,ACK
2.425882500,2586,0x41,0xFA,Read,NAK
2.426137500,2588,0x49,0x5B,Read,ACK
2.426192500,2588,0x49,0x5B,Read,NAK
2.431322500,2590,0x49,0x5C,Read,ACK
2.431377500,2590,0x49,0x5C,Read,NAK
2.433007500,2592,0x40,0x10,Write,ACK
2.433062500,2592,0x40,0x10,Write,NAK
2.433392500,2594,0x41,0xDD,Read,ACK
2.433447500,2594,0x41,0xDD,Read,NAK
2.433702500,2596,0x49,0x4D,Read,ACK
2.433757500,2596,0x49,0x4D,Read,NAK
2.438887500,2598,0x49,0x53,Read,ACK
2.438942500,2598,0x49,0x53,Read,NAK
2.440572500,2600,0x40,0x14,Write,ACK
2.440627500,2600,0x40,0x14,Write,NAK
2.440957500,2602,0x41,0x20,Read,ACK
2.441012500,2602,0x41,0x20,Read,NAK
2.441267500,2604,0x49,0x2D,Read,ACK
2.441322500,2604,0x49,0x2D,Read,NAK
2.446452500,2606,0x49,0x79,Read,ACK
2.446507500,2606,0x49,0x79,Read,NAK
2.448137500,2608,0x40,0x18,Write,ACK
2.448192500,2608,0x40,0x18,Write,NAK
2.448522500,2610,0x41,0x33,Read,ACK
2.448577500,2610,0x41,0x33,Read,NAK
2.448832500,2612,0x49,0x71,Read,ACK
2.448887500,2612,0x49,0x71,Read,NAK
2.454017500,2614,0x49,0x32,Read,ACK
2.454072500,2614,0x49,0x32,Read,NAK
2.455702500,2616,0x40,0x1C,Write,ACK
2.455757500,2616,0x40,0x1C,Write,NAK
2.456087500,2618,0x41,0x32,Read,ACK
2.456142500,2618,0x41,0x32,Read,NAK
2.456397500,2620,0x49,0x18,Read,ACK
2.456452500,2620,0x49,0x18,Read,NAK
2.461582500,2622,0x49,0x33,Read,ACK
2.461637500,2622,0x49,0x33,Read,NAK
2.463267500,2624,0x40,0x20,Write,ACK
2.463322500,2624,0x40,0x20,Write,NAK
2.463652500,2626,0x41,0x19,Read,ACK
2.463707500,2626,0x41,0x19,Read,NAK
2.463962500,2628,0x49,0x73,Read,ACK
2.464017500,2628,0x49,0x73,Read,NAK
2.469147500,2630,0x49,0x6C,Read,ACK
2.469202500,2630,0x49,0x6C,Read,NAK
2.470832500,2632,0x40,0x24,Write,ACK
2.470887500,2632,0x40,0x24,Write,NAK
2.471217500,2634,0x41,0x3D,Read,ACK
2.471272500,2634,0x41,0x3D,Read,NAK
2.471527500,2636,0x49,0x66,Read,ACK
2.471582500,2636,0x49,0x66,Read,NAK
2.476712500,2638,0x49,0x4E,Read,ACK
2.476767500,2638,0x49,0x4E,Read,NAK
2.478397500,2640,0x40,0x28,Write,ACK
2.478452500,2640,0x40,0x28,Write,NAK
2.478782500,2642,0x41,0x46,Read,ACK
2.478837500,2642,0x41,0x46,Read,NAK
2.479092500,2644,0x49,0x3D,Read,ACK
2.479147500,2644,0x49,0x3D,Read,NAK
2.484277500,2646,0x49,0x86,Read,ACK
2.484332500,2646,0x49,0x86,Read,NAK
2.485962500,2648,0x40,0x2C,Write,ACK
2.486017500,2648,0x40,0x2C,Write,NAK
2.486347500,2650,0x41,0x0A,Read,ACK
2.486402500,2650,0x41,0x0A,Read,NAK
2.486657500,2652,0x49,0x5E,Read,ACK
2.486712500,2652,0x49,0x5E,Read,NAK
2.491842500,2654,0x49,0x48,Read,ACK
2.491897500,2654,0x49,0x48,Read,NAK
2.493527500,2656,0x40,0x30,Write,ACK
2.493582500,2656,0x40,0x30,Write,NAK
2.493912500,2658,0x41,0x4D,Read,ACK
2.493967500,2658,0x41,0x4D,Read,NAK
2.494222500,2660,0x49,0x47,Read,ACK
2.494277500,2660,0x49,0x47,Read,NAK
2.499407500,2662,0x49,0x98,Read,ACK
2.499462500,2662,0x49,0x98,Read,NAK
2.501092500,2664,0x40,0x34,Write,ACK
2.501147500,2664,0x40,0x34,Write,NAK
2.501477500,2666,0x41,0x43,Read,ACK
2.501532500,2666,0x41,0x43,Read,NAK
2.501787500,2668,0x49,0x85,Read,ACK
2.501842500,2668,0x49,0x85,Read,NAK
2.506972500,2670,0x49,0x9E,Read,ACK
2.507027500,2670,0x49,0x9E,Read,NAK
2.508657500,2672,0x40,0x38,Write,ACK
2.508712500,2672,0x40,0x38,Write,NAK
2.509042500,2674,0x41,0x5D,Read,ACK
2.509097500,2674,0x41,0x5D,Read,NAK
2.509352500,2676,0x49,0x40,Read,ACK
2.509407500,2676,0x49,0x40,Read,NAK
2.514537500,2678,0x49,0x4F,Read,ACK
2.514592500,2678,0x49,0x4F,Read,NAK
2.516222500,2680,0x40,0x3C,Write,ACK
2.516277500,2680,0x40,0x3C,Write,NAK
2.516607500,2682,0x41,0x1F,Read,ACK
2.516662500,2682,0x41,0x1F,Read,NAK
2.516917500,2684,0x49,0x86,Read,ACK
2.516972500,2684,0x49,0x86,Read,NAK
2.522102500,2686,0x49,0x4F,Read,ACK
2.522157500,2686,0x49,0x4F,Read,NAK
2.523787500,2688,0x40,0x40,Write,ACK
2.523842500,2688,0x40,0x40,Write,NAK
2.524172500,2690,0x41,0x57,Read,ACK
2.524227500,2690,0x41,0x57,Read,NAK
2.524482500,2692,0x49,0x87,Read,ACK
2.524537500,2692,0x49,0x87,Read,NAK
2.529667500,2694,0x49,0x9C,Read,ACK
2.529722500,2694,0x49,0x9C,Read,NAK
2.531352500,2696,0x40,0x44,Write,ACK
2.531407500,2696,0x40,0x44,Write,NAK
2.531737500,2698,0x41,0x48,Read,ACK
2.531792500,2698,0x41,0x48,Read,NAK
2.532047500,2700,0x49,0x4E,Read,ACK
2.532102500,2700,0x49,0x4E,Read,NAK
2.537232500,2702,0x49,0x86,Read,ACK
2.537287500,2702,0x49,0x86,Read,NAK
2.538917500,2704,0x40,0x48,Write,ACK
2.538972500,2704,0x40,0x48,Write,NAK
2.539302500,2706,0x41,0x45,Read,ACK
2.539357500,2706,0x41,0x45,Read,NAK
2.539612500,2708,0x49,0x6C,Read,ACK
2.539667500,2708,0x49,0x6C,Read,NAK
2.544797500,2710,0x49,0x91,Read,ACK
2.544852500,2710,0x49,0x91,Read,NAK
2.546482500,2712,0x40,0x4C,Write,ACK
2.546537500,2712,0x40,0x4C,Write,NAK
2.546867500,2714,0x41,0x51,Read,ACK
2.546922500,2714,0x41,0x51,Read,NAK
2.547177500,2716,0x49,0x69,Read,ACK
2.547232500,2716,0x49,0x69,Read,NAK
2.552362500,2718,0x49,0xB6,Read,ACK
2.552417500,2718,0x49,0xB6,Read,NAK
2.554047500,2720,0x40,0x50,Write,ACK
2.554102500,2720,0x40,0x50,Write,NAK
2.554432500,2722,0x41,0x62,Read,ACK
2.554487500,2722,0x41,0x62,Read,NAK
2.554742500,2724,0x49,0xA6,Read,ACK
2.554797500,2724,0x49,0xA6,Read,NAK
2.559927500,2726,0x49,0xB7,Read,ACK
2.559982500,2726,0x49,0xB7,Read,NAK
2.561612500,2728,0x40,0x54,Write,ACK
2.561667500,2728,0x40,0x54,Write,NAK
2.561997500,2730,0x41,0x45,Read,ACK
2.562052500,2730,0x41,0x45,Read,NAK
2.562307500,2732,0x49,0x79,Read,ACK
2.562362500,2732,0x49,0x79,Read,NAK
2.567492500,2734,0x49,0xBB,Read,ACK
2.567547500,2734,0x49,0xBB,Read,NAK
2.569177500,2736,0x40,0x58,Write,ACK
2.569232500,2736,0x40,0x58,Write,NAK
2.569562500,2738,0x41,0x64,Read,ACK
2.569617500,2738,0x41,0x64,Read,NAK
2.569872500,2740,0x49,0x5A,Read,ACK
2.569927500,2740,0x49,0x5A,Read,NAK
2.575057500,2742,0x49,0x91,Read,ACK
2.575112500,2742,0x49,0x91,Read,NAK
2.576742500,2744,0x40,0x5C,Write,ACK
2.576797500,2744,0x40,0x5C,Write,NAK
2.577127500,2746,0x41,0x87,Read,ACK
2.577182500,2746,0x41,0x87,Read,NAK
2.577437500,2748,0x49,0x60,Read,ACK
2.577492500,2748,0x49,0x60,Read,NAK
2.582622500,2750,0x49,0x76,Read,ACK
2.582677500,2750,0x49,0x76,Read,NAK
2.584307500,2752,0x40,0x60,Write,ACK
2.584362500,2752,0x40,0x60,Write,NAK
2.584692500,2754,0x41,0x8A,Read,ACK
2.584747500,2754,0x41,0x8A,Read,NAK
2.585002500,2756,0x49,0x5A,Read,ACK
2.585057500,2756,0x49,0x5A,Read,NAK
2.590187500,2758,0x49,0xBA,Read,ACK
2.590242500,2758,0x49,0xBA,Read,NAK
2.591872500,2760,0x40,0x64,Write,ACK
2.591927500,2760,0x40,0x64,Write,NAK
2.592257500,2762,0x41,0x7A,Read,ACK
2.592312500,2762,0x41,0x7A,Read,NAK
2.592567500,2764,0x49,0xB8,Read,ACK
2.592622500,2764,0x49,0xB8,Read,NAK
2.597752500,2766,0x49,0x9F,Read,ACK
2.597807500,2766,0x49,0x9F,Read,NAK
2.599437500,2768,0x40,0x68,Write,ACK
2.599492500,2768,0x40,0x68,Write,NAK
2.599822500,2770,0x41,0x8F,Read,ACK
2.599877500,2770,0x41,0x8F,Read,NAK
2.600132500,2772,0x49,0xA4,Read,ACK
2.600187500,2772,0x49,0xA4,Read,NAK
2.605317500,2774,0x49,0xA6,Read,ACK
2.605372500,2774,0x49,0xA6,Read,NAK
2.607002500,2776,0x40,0x6C,Write,ACK
2.607057500,2776,0x40,0x6C,Write,NAK
2.607387500,2778,0x41,0x3F,Read,ACK
2.607442500,2778,0x41,0x3F,Read,NAK
2.607697500,2780,0x49,0x68,Read,ACK
2.607752500,2780,0x49,0x68,Read,NAK
2.612882500,2782,0x49,0xD5,Read,ACK
2.612937500,2782,0x49,0xD5,Read,NAK
2.614567500,2784,0x40,0x70,Write,ACK
2.614622500,2784,0x40,0x70,Write,NAK
2.614952500,2786,0x41,0x3C,Read,ACK
2.615007500,2786,0x41,0x3C,Read,NAK
2.615262500,2788,0x49,0xC4,Read,ACK
2.615317500,2788,0x49,0xC4,Read,NAK
2.620447500,2790,0x49,0x92,Read,ACK
2.620502500,2790,0x49,0x92,Read,NAK
2.622132500,2792,0x40,0x74,Write,ACK
2.622187500,2792,0x40,0x74,Write,NAK
2.622517500,2794,0x41,0x68,Read,ACK
2.622572500,2794,0x41,0x68,Read,NAK
2.622827500,2796,0x49,0x81,Read,ACK
2.622882500,2796,0x49,0x81,Read,NAK
2.628012500,2798,0x49,0x93,Read,ACK
2.628067500,2798,0x49,0x93,Read,NAK
2.629642500,,0x24,,Write,NAK
2.629972500,2802,0x40,0x78,Write,ACK
2.630027500,2802,0x40,0x78,Write,NAK
2.630357500,2804,0x41,0x65,Read,ACK
2.630412500,2804,0x41,0x65,Read,NAK
2.630667500,2806,0x49,0x88,Read,ACK
2.630722500,2806,0x49,0x88,Read,NAK
2.635852500,2808,0x49,0xB6,Read,ACK
2.635907500,2808,0x49,0xB6,Read,NAK
2.637537500,2810,0x40,0x7C,Write,ACK
2.637592500,2810,0x40,0x7C,Write,NAK
2.637922500,2812,0x41,0x6E,Read,ACK
2.637977500,2812,0x41,0x6E,Read,NAK
2.638232500,2814,0x49,0x8C,Read,ACK
2.638287500,2814,0x49,0x8C,Read,NAK
2.643417500,2816,0x49,0x8E,Read,ACK
2.643472500,2816,0x49,0x8E,Read,NAK
2.645102500,2818,0x40,0x80,Write,ACK
2.645157500,2818,0x40,0x80,Write,NAK
2.645487500,2820,0x41,0x9D,Read,ACK
2.645542500,2820,0x41,0x9D,Read,NAK
2.645797500,2822,0x49,0xA4,Read,ACK
2.645852500,2822,0x49,0xA4,Read,NAK
2.650982500,2824,0x49,0xB5,Read,ACK
2.651037500,2824,0x49,0xB5,Read,NAK
2.652667500,2826,0x40,0x84,Write,ACK
2.652722500,2826,0x40,0x84,Write,NAK
2.653052500,2828,0x41,0x76,Read,ACK
2.653107500,2828,0x41,0x76,Read,NAK
2.653362500,2830,0x49,0xDC,Read,ACK
2.653417500,2830,0x49,0xDC,Read,NAK
2.658547500,2832,0x49,0xE6,Read,ACK
2.658602500,2832,0x49,0xE6,Read,NAK
2.660232500,2834,0x40,0x88,Write,ACK
2.660287500,2834,0x40,0x88,Write,NAK
2.660617500,2836,0x41,0x96,Read,ACK
2.660672500,2836,0x41,0x96,Read,NAK
2.660927500,2838,0x49,0xE0,Read,ACK
2.660982500,2838,0x49,0xE0,Read,NAK
2.666112500,2840,0x49,0xE8,Read,ACK
2.666167500,2840,0x49,0xE8,Read,NAK
2.667797500,2842,0x40,0x8C,Write,ACK
2.667852500,2842,0x40,0x8C,Write,NAK
2.668182500,2844,0x41,0x5A,Read,ACK
2.668237500,2844,0x41,0x5A,Read,NAK
2.668492500,2846,0x49,0xDA,Read,ACK
2.668547500,2846,0x49,0xDA,Read,NAK
2.673677500,2848,0x49,0x9E,Read,ACK
2.673732500,2848,0x49,0x9E,Read,NAK
2.675362500,2850,0x40,0x90,Write,ACK
2.675417500,2850,0x40,0x90,Write,NAK
2.675747500,2852,0x41,0x7C,Read,ACK
2.675802500,2852,0x41,0x7C,Read,NAK
2.676057500,2854,0x49,0xAC,Read,ACK
2.676112500,2854,0x49,0xAC,Read,NAK
2.681242500,2856,0x49,0xCA,Read,ACK
2.681297500,2856,0x49,0xCA,Read,NAK
2.682927500,2858,0x40,0x94,Write,ACK
2.682982500,2858,0x40,0x94,Write,NAK
2.683312500,2860,0x41,0x9B,Read,ACK
2.683367500,2860,0x41,0x9B,Read,NAK
2.683622500,2862,0x49,0xA5,Read,ACK
2.683677500,2862,0x49,0xA5,Read,NAK
2.688807500,2864,0x49,0xF3,Read,ACK
2.688862500,2864,0x49,0xF3,Read,NAK
2.690492500,2866,0x40,0x98,Write,ACK
2.690547500,2866,0x40,0x98,Write,NAK
2.690877500,2868,0x41,0x97,Read,ACK
2.690932500,2868,0x41,0x97,Read,NAK
2.691187500,2870,0x49,0xED,Read,ACK
2.691242500,2870,0x49,0xED,Read,NAK
2.696372500,2872,0x49,0xF4,Read,ACK
2.696427500,2872,0x49,0xF4,Read,NAK
2.698057500,2874,0x40,0x9C,Write,ACK
2.698112500,2874,0x40,0x9C,Write,NAK
2.698442500,2876,0x41,0xB0,Read,ACK
2.698497500,2876,0x41,0xB0,Read,NAK
2.698752500,2878,0x49,0xF2,Read,ACK
2.698807500,2878,0x49,0xF2,Read,NAK
2.703937500,2880,0x49,0xF9,Read,ACK
2.703992500,2880,0x49,0xF9,Read,NAK
2.705622500,2882,0x40,0xA0,Write,ACK
2.705677500,2882,0x40,0xA0,Write,NAK
2.706007500,2884,0x41,0x94,Read,ACK
2.706062500,2884,0x41,0x94,Read,NAK
2.706317500,2886,0x49,0xB7,Read,ACK
2.706372500,2886,0x49,0xB7,Read,NAK
2.711502500,2888,0x49,0xEB,Read,ACK
2.711557500,2888,0x49,0xEB,Read,NAK
2.713187500,2890,0x40,0xA4,Write,ACK
2.713242500,2890,0x40,0xA4,Write,NAK
2.713572500,2892,0x41,0x8D,Read,ACK
2.713627500,2892,0x41,0x8D,Read,NAK
2.713882500,2894,0x49,0xA5,Read,ACK
2.713937500,2894,0x49,0xA5,Read,NAK
2.719067500,2896,0x49,0xBF,Read,ACK
2.719122500,2896,0x49,0xBF,Read,NAK
2.720752500,2898,0x40,0xA8,Write,ACK
2.720807500,2898,0x40,0xA8,Write,NAK
2.721137500,2900,0x41,0x7B,Read,ACK
2.721192500,2900,0x41,0x7B,Read,NAK
2.721447500,2902,0x49,0xA7,Read,ACK
2.721502500,2902,0x49,0xA7,Read,NAK
2.726632500,2904,0x49,0xCC,Read,ACK
2.726687500,2904,0x49,0xCC,Read,NAK
2.728317500,2906,0x40,0xAC,Write,ACK
2.728372500,2906,0x40,0xAC,Write,NAK
2.728702500,2908,0x41,0xA7,Read,ACK
2.728757500,2908,0x41,0xA7,Read,NAK
2.729012500,2910,0x49,0xFE,Read,ACK
2.729067500,2910,0x49,0xFE,Read,NAK
2.734197500,2912,0x49,0xCA,Read,ACK
2.734252500,2912,0x49,0xCA,Read,NAK
2.735882500,2914,0x40,0xB0,Write,ACK
2.735937500,2914,0x40,0xB0,Write,NAK
2.736267500,2916,0x41,0xCC,Read,ACK
2.736322500,2916,0x41,0xCC,Read,NAK
2.736577500,2918,0x49,0xC1,Read,ACK
2.736632500,2918,0x49,0xC1,Read,NAK
2.741762500,2920,0x49,0xC3,Read,ACK
2.741817500,2920,0x49,0xC3,Read,NAK
2.743447500,2922,0x40,0xB4,Write,ACK
2.743502500,2922,0x40,0xB4,Write,NAK
2.743832500,2924,0x41,0xB4,Read,ACK
2.743887500,2924,0x41,0xB4,Read,NAK
2.744142500,2926,0x49,0xDF,Read,ACK
2.744197500,2926,0x49,0xDF,Read,NAK
2.749327500,2928,0x49,0xE7,Read,ACK
2.749382500,2928,0x49,0xE7,Read,NAK
2.750957500,,0x24,,Write,NAK
2.751287500,2932,0x40,0xB8,Write,ACK
2.751342500,2932,0x40,0xB8,Write,NAK
2.751672500,2934,0x41,0x82,Read,ACK
2.751727500,2934,0x41,0x82,Read,NAK
2.751982500,2936,0x49,0xFF,Read,ACK
2.752037500,2936,0x49,0xFF,Read,NAK
2.757167500,2938,0x49,0xF9,Read,ACK
2.757222500,2938,0x49,0xF9,Read,NAK
2.758852500,2940,0x40,0xBC,Write,ACK
2.758907500,2940,0x40,0xBC,Write,NAK
2.759237500,2942,0x41,0xD3,Read,ACK
2.759292500,2942,0x41,0xD3,Read,NAK
2.759547500,2944,0x49,0xDE,Read,ACK
2.759602500,2944,0x49,0xDE,Read,NAK
2.764732500,2946,0x49,0xE2,Read,ACK
2.764787500,2946,0x49,0xE2,Read,NAK
2.766417500,2948,0x40,0xC0,Write,ACK
2.766472500,2948,0x40,0xC0,Write,NAK
2.766802500,2950,0x41,0xD7,Read,ACK
2.766857500,2950,0x41,0xD7,Read,NAK
2.767112500,2952,0x49,0xB6,Read,ACK
2.767167500,2952,0x49,0xB6,Read,NAK
2.772297500,2954,0x49,0x00,Read,ACK
2.772352500,2954,0x49,0x00,Read,NAK
2.773982500,2956,0x40,0xC4,Write,ACK
2.774037500,2956,0x40,0xC4,Write,NAK
2.774367500,2958,0x41,0xCD,Read,ACK
2.774422500,2958,0x41,0xCD,Read,NAK
2.774677500,2960,0x49,0x07,Read,ACK
2.774732500,2960,0x49,0x07,Read,NAK
2.779862500,2962,0x49,0xD8,Read,ACK
2.779917500,2962,0x49,0xD8,Read,NAK
2.781547500,2964,0x40,0xC8,Write,ACK
2.781602500,2964,0x40,0xC8,Write,NAK
2.781932500,2966,0x41,0xB9,Read,ACK
2.781987500,2966,0x41,0xB9,Read,NAK
2.782242500,2968,0x49,0x1C,Read,ACK
2.782297500,2968,0x49,0x1C,Read,NAK
2.787427500,2970,0x49,0x29,Read,ACK
2.787482500,2970,0x49,0x29,Read,NAK
2.789112500,2972,0x40,0xCC,Write,ACK
2.789167500,2972,0x40,0xCC,Write,NAK
2.789497500,2974,0x41,0xBD,Read,ACK
2.789552500,2974,0x41,0xBD,Read,NAK
2.789807500,2976,0x49,0xD0,Read,ACK
2.789862500,2976,0x49,0xD0,Read,NAK
2.794992500,2978,0x49,0xEB,Read,ACK
2.795047500,2978,0x49,0xEB,Read,NAK
2.796677500,2980,0x40,0xD0,Write,ACK
2.796732500,2980,0x40,0xD0,Write,NAK
2.797062500,2982,0x41,0xC3,Read,ACK
2.797117500,2982,0x41,0xC3,Read,NAK
2.797372500,2984,0x49,0xEB,Read,ACK
2.797427500,2984,0x49,0xEB,Read,NAK
2.802557500,2986,0x49,0xE8,Read,ACK
2.802612500,2986,0x49,0xE8,Read,NAK
2.804242500,2988,0x40,0xD4,Write,ACK
2.804297500,2988,0x40,0xD4,Write,NAK
2.804627500,2990,0x41,0xC8,Read,ACK
2.804682500,2990,0x41,0xC8,Read,NAK
2.804937500,2992,0x49,0xD7,Read,ACK
2.804992500,2992,0x49,0xD7,Read,NAK
2.810122500,2994,0x49,0xE2,Read,ACK
2.810177500,2994,0x49,0xE2,Read,NAK
2.811807500,2996,0x40,0xD8,Write,ACK
2.811862500,2996,0x40,0xD8,Write,NAK
2.812192500,2998,0x41,0x00,Read,ACK
2.812247500,2998,0x41,0x00,Read,NAK
2.812502500,3000,0x49,0xDF,Read,ACK
2.812557500,3000,0x49,0xDF,Read,NAK
2.817687500,3002,0x49,0xF0,Read,ACK
2.817742500,3002,0x49,0xF0,Read,NAK
2.819372500,3004,0x40,0xDC,Write,ACK
2.819427500,3004,0x40,0xDC,Write,NAK
2.819757500,3006,0x41,0xE4,Read,ACK
2.819812500,3006,0x41,0xE4,Read,NAK
2.820067500,3008,0x49,0xD2,Read,ACK
2.820122500,3008,0x49,0xD2,Read,NAK
2.825252500,3010,0x49,0x11,Read,ACK
2.825307500,3010,0x49,0x11,Read,NAK
2.826937500,3012,0x40,0xE0,Write,ACK
2.826992500,3012,0x40,0xE0,Write,NAK
2.827322500,3014,0x41,0xDE,Read,ACK
2.827377500,3014,0x41,0xDE,Read,NAK
2.827632500,3016,0x49,0xD9,Read,ACK
2.827687500,3016,0x49,0xD9,Read,NAK
2.832817500,3018,0x49,0x1B,Read,ACK
2.832872500,3018,0x49,0x1B,Read,NAK
2.834502500,3020,0x40,0xE4,Write,ACK
2.834557500,3020,0x40,0xE4,Write,NAK
2.834887500,3022,0x41,0xCF,Read,ACK
2.834942500,3022,0x41,0xCF,Read,NAK
2.835197500,3024,0x49,0x1B,Read,ACK
2.835252500,3024,0x49,0x1B,Read,NAK
2.840382500,3026,0x49,0x14,Read,ACK
2.840437500,3026,0x49,0x14,Read,NAK
2.842067500,3028,0x40,0xE8,Write,ACK
2.842122500,3028,0x40,0xE8,Write,NAK
2.842452500,3030,0x41,0xBE,Read,ACK
2.842507500,3030,0x41,0xBE,Read,NAK
2.842762500,3032,0x49,0xFD,Read,ACK
2.842817500,3032,0x49,0xFD,Read,NAK
2.847947500,3034,0x49,0xFB,Read,ACK
2.848002500,3034,0x49,0xFB,Read,NAK
2.849632500,3036,0x40,0xEC,Write,ACK
2.849687500,3036,0x40,0xEC,Write,NAK
2.850017500,3038,0x41,0x17,Read,ACK
2.850072500,3038,0x41,0x17,Read,NAK
2.850327500,3040,0x49,0x07,Read,ACK
2.850382500,3040,0x49,0x07,Read,NAK
2.855512500,3042,0x49,0x0B,Read,ACK
2.855567500,3042,0x49,0x0B,Read,NAK
2.857197500,3044,0x40,0xF0,Write,ACK
2.857252500,3044,0x40,0xF0,Write,NAK
2.857582500,3046,0x41,0x04,Read,ACK
2.857637500,3046,0x41,0x04,Read,NAK
2.857892500,3048,0x49,0x43,Read,ACK
2.857947500,3048,0x49,0x43,Read,NAK
2.863077500,3050,0x49,0x1D,Read,ACK
2.863132500,3050,0x49,0x1D,Read,NAK
2.864762500,3052,0x40,0xF4,Write,ACK
2.864817500,3052,0x40,0xF4,Write,NAK
2.865147500,3054,0x41,0xC4,Read,ACK
2.865202500,3054,0x41,0xC4,Read,NAK
2.865457500,3056,0x49,0x4B,Read,ACK
2.865512500,3056,0x49,0x4B,Read,NAK
2.870642500,3058,0x49,0x05,Read,ACK
2.870697500,3058,0x49,0x05,Read,NAK
2.872327500,3060,0x40,0xF8,Write,ACK
2.872382500,3060,0x40,0xF8,Write,NAK
2.872712500,3062,0x41,0xD1,Read,ACK
2.872767500,3062,0x41,0xD1,Read,NAK
2.873022500,3064,0x49,0x3D,Read,ACK
2.873077500,3064,0x49,0x3D,Read,NAK
2.878207500,3066,0x49,0x1A,Read,ACK
2.878262500,3066,0x49,0x1A,Read,NAK
2.879892500,3068,0x40,0xFC,Write,ACK
2.879947500,3068,0x40,0xFC,Write,NAK
2.880277500,3070,0x41,0x16,Read,ACK
2.880332500,3070,0x41,0x16,Read,NAK
2.880587500,3072,0x49,0x3B,Read,ACK
2.880642500,3072,0x49,0x3B,Read,NAK
2.885772500,3074,0x49,0x17,Read,ACK
2.885827500,3074,0x49,0x17,Read,NAK
2.887457500,3076,0x40,0x00,Write,ACK
2.887512500,3076,0x40,0x00,Write,NAK
2.887842500,3078,0x41,0x17,Read,ACK
2.887897500,3078,0x41,0x17,Read,NAK
2.888152500,3080,0x49,0x3F,Read,ACK
2.888207500,3080,0x49,0x3F,Read,NAK
2.893337500,3082,0x49,0x07,Read,ACK
2.893392500,3082,0x49,0x07,Read,NAK
2.895022500,3084,0x40,0x04,Write,ACK
2.895077500,3084,0x40,0x04,Write,NAK
2.895407500,3086,0x41,0x28,Read,ACK
2.895462500,3086,0x41,0x28,Read,NAK
2.895717500,3088,0x49,0x57,Read,ACK
2.895772500,3088,0x49,0x57,Read,NAK
2.900902500,3090,0x49,0x2D,Read,ACK
2.900957500,3090,0x49,0x2D,Read,NAK
2.902587500,3092,0x40,0x08,Write,ACK
2.902642500,3092,0x40,0x08,Write,NAK
2.902972500,3094,0x41,0xEB,Read,ACK
2.903027500,3094,0x41,0xEB,Read,NAK
2.903282500,3096,0x49,0x2C,Read,ACK
2.903337500,3096,0x49,0x2C,Read,NAK
2.908467500,3098,0x49,0x14,Read,ACK
2.908522500,3098,0x49,0x14,Read,NAK
2.910152500,3100,0x40,0x0C,Write,ACK
2.910207500,3100,0x40,0x0C,Write,NAK
2.910537500,3102,0x41,0x29,Read,ACK
2.910592500,3102,0x41,0x29,Read,NAK
2.910847500,3104,0x49,0x20,Read,ACK
2.910902500,3104,0x49,0x20,Read,NAK
2.916032500,3106,0x49,0x20,Read,ACK
2.916087500,3106,0x49,0x20,Read,NAK
2.917717500,3108,0x40,0x10,Write,ACK
2.917772500,3108,0x40,0x10,Write,NAK
2.918102500,3110,0x41,0x25,Read,ACK
2.918157500,3110,0x41,0x25,Read,NAK
2.918412500,3112,0x49,0x09,Read,ACK
2.918467500,3112,0x49,0x09,Read,NAK
2.923597500,3114,0x49,0x64,Read,ACK
2.923652500,3114,0x49,0x64,Read,NAK
2.925282500,3116,0x40,0x14,Write,ACK
2.925337500,3116,0x40,0x14,Write,NAK
2.925667500,3118,0x41,0xDE,Read,ACK
2.925722500,3118,0x41,0xDE,Read,NAK
2.925977500,3120,0x49,0x32,Read,ACK
2.926032500,3120,0x49,0x32,Read,NAK
2.931162500,3122,0x49,0x71,Read,ACK
2.931217500,3122,0x49,0x71,Read,NAK
2.932847500,3124,0x40,0x18,Write,ACK
2.932902500,3124,0x40,0x18,Write,NAK
2.933232500,3126,0x41,0xF5,Read,ACK
2.933287500,3126,0x41,0xF5,Read,NAK
2.933542500,3128,0x49,0x1C,Read,ACK
2.933597500,3128,0x49,0x1C,Read,NAK
2.938727500,3130,0x49,0x7F,Read,ACK
2.938782500,3130,0x49,0x7F,Read,NAK
2.940412500,3132,0x40,0x1C,Write,ACK
2.940467500,3132,0x40,0x1C,Write,NAK
2.940797500,3134,0x41,0x0D,Read,ACK
2.940852500,3134,0x41,0x0D,Read,NAK
2.941107500,3136,0x49,0x23,Read,ACK
2.941162500,3136,0x49,0x23,Read,NAK
2.946292500,3138,0x49,0x47,Read,ACK
2.946347500,3138,0x49,0x47,Read,NAK
2.947977500,3140,0x40,0x20,Write,ACK
2.948032500,3140,0x40,0x20,Write,NAK
2.948362500,3142,0x41,0x14,Read,ACK
2.948417500,3142,0x41,0x14,Read,NAK
2.948672500,3144,0x49,0x6E,Read,ACK
2.948727500,3144,0x49,0x6E,Read,NAK
2.953857500,3146,0x49,0x75,Read,ACK
2.953912500,3146,0x49,0x75,Read,NAK
2.955542500,3148,0x40,0x24,Write,ACK
2.955597500,3148,0x40,0x24,Write,NAK
2.955927500,3150,0x41,0x40,Read,ACK
2.955982500,3150,0x41,0x40,Read,NAK
2.956237500,3152,0x49,0x26,Read,ACK
2.956292500,3152,0x49,0x26,Read,NAK
2.961422500,3154,0x49,0x52,Read,ACK
2.961477500,3154,0x49,0x52,Read,NAK
2.963107500,3156,0x40,0x28,Write,ACK
2.963162500,3156,0x40,0x28,Write,NAK
2.963492500,3158,0x41,0x2D,Read,ACK
2.963547500,3158,0x41,0x2D,Read,NAK
2.963802500,3160,0x49,0x7E,Read,ACK
2.963857500,3160,0x49,0x7E,Read,NAK
2.968987500,3162,0x49,0x80,Read,ACK
2.969042500,3162,0x49,0x80,Read,NAK
2.970672500,3164,0x40,0x2C,Write,ACK
2.970727500,3164,0x40,0x2C,Write,NAK
2.971057500,3166,0x41,0x44,Read,ACK
2.971112500,3166,0x41,0x44,Read,NAK
2.971367500,3168,0x49,0x50,Read,ACK
2.971422500,3168,0x49,0x50,Read,NAK
2.976552500,3170,0x49,0x37,Read,ACK
2.976607500,3170,0x49,0x37,Read,NAK
2.978237500,3172,0x40,0x30,Write,ACK
2.978292500,3172,0x40,0x30,Write,NAK
2.978622500,3174,0x41,0xFB,Read,ACK
2.978677500,3174,0x41,0xFB,Read,NAK
2.978932500,3176,0x49,0x47,Read,ACK
2.978987500,3176,0x49,0x47,Read,NAK
2.984117500,3178,0x49,0x8F,Read,ACK
2.984172500,3178,0x49,0x8F,Read,NAK
2.985802500,3180,0x40,0x34,Write,ACK
2.985857500,3180,0x40,0x34,Write,NAK
2.986187500,3182,0x41,0x47,Read,ACK
2.986242500,3182,0x41,0x47,Read,NAK
2.986497500,3184,0x49,0x74,Read,ACK
2.986552500,3184,0x49,0x74,Read,NAK
2.991682500,3186,0x49,0x50,Read,ACK
2.991737500,3186,0x49,0x50,Read,NAK
2.993367500,3188,0x40,0x38,Write,ACK
2.993422500,3188,0x40,0x38,Write,NAK
2.993752500,3190,0x41,0x2A,Read,ACK
2.993807500,3190,0x41,0x2A,Read,NAK
2.994062500,3192,0x49,0x40,Read,ACK
2.994117500,3192,0x49,0x40,Read,NAK
2.999247500,3194,0x49,0x9F,Read,ACK
2.999302500,3194,0x49,0x9F,Read,NAK
3.000877500,,0x24,,Write,NAK
3.001207500,3198,0x40,0x3C,Write,ACK
3.001262500,3198,0x40,0x3C,Write,NAK
3.001592500,3200,0x41,0x5D,Read,ACK
3.001647500,3200,0x41,0x5D,Read,NAK
3.001902500,3202,0x49,0x52,Read,ACK
3.001957500,3202,0x49,0x52,Read,NAK
3.007087500,3204,0x49,0x73,Read,ACK
3.007142500,3204,0x49,0x73,Read,NAK
3.008772500,3206,0x40,0x40,Write,ACK
3.008827500,3206,0x40,0x40,Write,NAK
3.009157500,3208,0x41,0x53,Read,ACK
3.009212500,3208,0x41,0x53,Read,NAK
3.009467500,3210,0x49,0x85,Read,ACK
3.009522500,3210,0x49,0x85,Read,NAK
3.014652500,3212,0x49,0x88,Read,ACK
3.014707500,3212,0x49,0x88,Read,NAK
3.016337500,3214,0x40,0x44,Write,ACK
3.016392500,3214,0x40,0x44,Write,NAK
3.016722500,3216,0x41,0x69,Read,ACK
3.016777500,3216,0x41,0x69,Read,NAK
3.017032500,3218,0x49,0x3E,Read,ACK
3.017087500,3218,0x49,0x3E,Read,NAK
3.022217500,3220,0x49,0x59,Read,ACK
3.022272500,3220,0x49,0x59,Read,NAK
3.023902500,3222,0x40,0x48,Write,ACK
3.023957500,3222,0x40,0x48,Write,NAK
3.024287500,3224,0x41,0x47,Read,ACK
3.024342500,3224,0x41,0x47,Read,NAK
3.024597500,3226,0x49,0x6D,Read,ACK
3.024652500,3226,0x49,0x6D,Read,NAK
3.029782500,3228,0x49,0x80,Read,ACK
3.029837500,3228,0x49,0x80,Read,NAK
3.031467500,3230,0x40,0x4C,Write,ACK
3.031522500,3230,0x40,0x4C,Write,NAK
3.031852500,3232,0x41,0x44,Read,ACK
3.031907500,3232,0x41,0x44,Read,NAK
3.032162500,3234,0x49,0x47,Read,ACK
3.032217500,3234,0x49,0x47,Read,NAK
3.037347500,3236,0x49,0xA8,Read,ACK
3.037402500,3236,0x49,0xA8,Read,NAK
3.039032500,3238,0x40,0x50,Write,ACK
3.039087500,3238,0x40,0x50,Write,NAK
3.039417500,3240,0x41,0x40,Read,ACK
3.039472500,3240,0x41,0x40,Read,NAK
3.039727500,3242,0x49,0x5F,Read,ACK
3.039782500,3242,0x49,0x5F,Read,NAK
3.044912500,3244,0x49,0x88,Read,ACK
3.044967500,3244,0x49,0x88,Read,NAK
3.046597500,3246,0x40,0x54,Write,ACK
3.046652500,3246,0x40,0x54,Write,NAK
3.046982500,3248,0x41,0x52,Read,ACK
3.047037500,3248,0x41,0x52,Read,NAK
3.047292500,3250,0x49,0x61,Read,ACK
3.047347500,3250,0x49,0x61,Read,NAK
3.052477500,3252,0x49,0x64,Read,ACK
3.052532500,3252,0x49,0x64,Read,NAK
3.054162500,3254,0x40,0x58,Write,ACK
3.054217500,3254,0x40,0x58,Write,NAK
3.054547500,3256,0x41,0x4B,Read,ACK
3.054602500,3256,0x41,0x4B,Read,NAK
3.054857500,3258,0x49,0x53,Read,ACK
3.054912500,3258,0x49,0x53,Read,NAK
3.060042500,3260,0x49,0x77,Read,ACK
3.060097500,3260,0x49,0x77,Read,NAK
3.061672500,,0x24,,Write,NAK
3.062002500,3264,0x40,0x5C,Write,ACK
3.062057500,3264,0x40,0x5C,Write,NAK
3.062387500,3266,0x41,0x80,Read,ACK
3.062442500,3266,0x41,0x80,Read,NAK
3.062697500,3268,0x49,0x6B,Read,ACK
3.062752500,3268,0x49,0x6B,Read,NAK
3.067882500,3270,0x49,0xA0,Read,ACK
3.067937500,3270,0x49,0xA0,Read,NAK
3.069567500,3272,0x40,0x60,Write,ACK
3.069622500,3272,0x40,0x60,Write,NAK
3.069952500,3274,0x41,0x2E,Read,ACK
3.070007500,3274,0x41,0x2E,Read,NAK
3.070262500,3276,0x49,0x70,Read,ACK
3.070317500,3276,0x49,0x70,Read,NAK
3.075447500,3278,0x49,0xAD,Read,ACK
3.075502500,3278,0x49,0xAD,Read,NAK
3.077132500,3280,0x40,0x64,Write,ACK
3.077187500,3280,0x40,0x64,Write,NAK
3.077517500,3282,0x41,0x81,Read,ACK
3.077572500,3282,0x41,0x81,Read,NAK
3.077827500,3284,0x49,0xAE,Read,ACK
3.077882500,3284,0x49,0xAE,Read,NAK
3.083012500,3286,0x49,0x6D,Read,ACK
3.083067500,3286,0x49,0x6D,Read,NAK
3.084697500,3288,0x40,0x68,Write,ACK
3.084752500,3288,0x40,0x68,Write,NAK
3.085082500,3290,0x41,0x85,Read,ACK
3.085137500,3290,0x41,0x85,Read,NAK
3.085392500,3292,0x49,0x91,Read,ACK
3.085447500,3292,0x49,0x91,Read,NAK
3.090577500,3294,0x49,0x82,Read,ACK
3.090632500,3294,0x49,0x82,Read,NAK
3.092262500,3296,0x40,0x6C,Write,ACK
3.092317500,3296,0x40,0x6C,Write,NAK
3.092647500,3298,0x41,0x6E,Read,ACK
3.092702500,3298,0x41,0x6E,Read,NAK
3.092957500,3300,0x49,0x9B,Read,ACK
3.093012500,3300,0x49,0x9B,Read,NAK
3.098142500,3302,0x49,0xC0,Read,ACK
3.098197500,3302,0x49,0xC0,Read,NAK
3.099827500,3304,0x40,0x70,Write,ACK
3.099882500,3304,0x40,0x70,Write,NAK
3.100212500,3306,0x41,0x8C,Read,ACK
3.100267500,3306,0x41,0x8C,Read,NAK
3.100522500,3308,0x49,0xB4,Read,ACK
3.100577500,3308,0x49,0xB4,Read,NAK
3.105707500,3310,0x49,0x81,Read,ACK
3.105762500,3310,0x49,0x81,Read,NAK
3.107392500,3312,0x40,0x74,Write,ACK
3.107447500,3312,0x40,0x74,Write,NAK
3.107777500,3314,0x41,0x3F,Read,ACK
3.107832500,3314,0x41,0x3F,Read,NAK
3.108087500,3316,0x49,0x7D,Read,ACK
3.108142500,3316,0x49,0x7D,Read,NAK
3.113272500,3318,0x49,0x96,Read,ACK
3.113327500,3318,0x49,0x96,Read,NAK
3.114957500,3320,0x40,0x78,Write,ACK
3.115012500,3320,0x40,0x78,Write,NAK
3.115342500,3322,0x41,0x5B,Read,ACK
3.115397500,3322,0x41,0x5B,Read,NAK
3.115652500,3324,0x49,0x71,Read,ACK
3.115707500,3324,0x49,0x71,Read,NAK
3.120837500,3326,0x49,0xC9,Read,ACK
3.120892500,3326,0x49,0xC9,Read,NAK
3.122522500,3328,0x40,0x7C,Write,ACK
3.122577500,3328,0x40,0x7C,Write,NAK
3.122907500,3330,0x41,0x62,Read,ACK
3.122962500,3330,0x41,0x62,Read,NAK
3.123217500,3332,0x49,0x95,Read,ACK
3.123272500,3332,0x49,0x95,Read,NAK
3.128402500,3334,0x49,0xD5,Read,ACK
3.128457500,3334,0x49,0xD5,Read,NAK
3.130087500,3336,0x40,0x80,Write,ACK
3.130142500,3336,0x40,0x80,Write,NAK
3.130472500,3338,0x41,0x58,Read,ACK
3.130527500,3338,0x41,0x58,Read,NAK
3.130782500,3340,0x49,0xAA,Read,ACK
3.130837500,3340,0x49,0xAA,Read,NAK
3.135967500,3342,0x49,0xDB,Read,ACK
3.136022500,3342,0x49,0xDB,Read,NAK
3.137652500,3344,0x40,0x84,Write,ACK
3.137707500,3344,0x40,0x84,Write,NAK
3.138037500,3346,0x41,0xA6,Read,ACK
3.138092500,3346,0x41,0xA6,Read,NAK
3.138347500,3348,0x49,0xD0,Read,ACK
3.138402500,3348,0x49,0xD0,Read,NAK
3.143532500,3350,0x49,0xE0,Read,ACK
3.143587500,3350,0x49,0xE0,Read,NAK
3.145217500,3352,0x40,0x88,Write,ACK
3.145272500,3352,0x40,0x88,Write,NAK
3.145602500,3354,0x41,0xAB,Read,ACK
3.145657500,3354,0x41,0xAB,Read,NAK
3.145912500,3356,0x49,0x82,Read,ACK
3.145967500,3356,0x49,0x82,Read,NAK
3.151097500,3358,0x49,0xC4,Read,ACK
3.151152500,3358,0x49,0xC4,Read,NAK
3.152782500,3360,0x40,0x8C,Write,ACK
3.152837500,3360,0x40,0x8C,Write,NAK
3.153167500,3362,0x41,0x93,Read,ACK
3.153222500,3362,0x41,0x93,Read,NAK
3.153477500,3364,0x49,0xD4,Read,ACK
3.153532500,3364,0x49,0xD4,Read,NAK
3.158662500,3366,0x49,0xBE,Read,ACK
3.158717500,3366,0x49,0xBE,Read,NAK
3.160347500,3368,0x40,0x90,Write,ACK
3.160402500,3368,0x40,0x90,Write,NAK
3.160732500,3370,0x41,0x96,Read,ACK
3.160787500,3370,0x41,0x96,Read,NAK
3.161042500,3372,0x49,0xBC,Read,ACK
3.161097500,3372,0x49,0xBC,Read,NAK
3.166227500,3374,0x49,0xE5,Read,ACK
3.166282500,3374,0x49,0xE5,Read,NAK
3.167912500,3376,0x40,0x94,Write,ACK
3.167967500,3376,0x40,0x94,Write,NAK
3.168297500,3378,0x41,0x77,Read,ACK
3.168352500,3378,0x41,0x77,Read,NAK
3.168607500,3380,0x49,0xC3,Read,ACK
3.168662500,3380,0x49,0xC3,Read,NAK
3.173792500,3382,0x49,0xD7,Read,ACK
3.173847500,3382,0x49,0xD7,Read,NAK
3.175477500,3384,0x40,0x98,Write,ACK
3.175532500,3384,0x40,0x98,Write,NAK
3.175862500,3386,0x41,0x6F,Read,ACK
3.175917500,3386,0x41,0x6F,Read,NAK
3.176172500,3388,0x49,0xB1,Read,ACK
3.176227500,3388,0x49,0xB1,Read,NAK
3.181357500,3390,0x49,0xE4,Read,ACK
3.181412500,3390,0x49,0xE4,Read,NAK
3.183042500,3392,0x40,0x9C,Write,ACK
3.183097500,3392,0x40,0x9C,Write,NAK
3.183427500,3394,0x41,0x7C,Read,ACK
3.183482500,3394,0x41,0x7C,Read,NAK
3.183737500,3396,0x49,0xC5,Read,ACK
3.183792500,3396,0x49,0xC5,Read,NAK
3.188922500,3398,0x49,0xF1,Read,ACK
3.188977500,3398,0x49,0xF1,Read,NAK
3.190607500,3400,0x40,0xA0,Write,ACK
3.190662500,3400,0x40,0xA0,Write,NAK
3.190992500,3402,0x41,0xA1,Read,ACK
3.191047500,3402,0x41,0xA1,Read,NAK
3.191302500,3404,0x49,0xA4,Read,ACK
3.191357500,3404,0x49,0xA4,Read,NAK
3.196487500,3406,0x49,0xFC,Read,ACK
3.196542500,3406,0x49,0xFC,Read,NAK
3.198172500,3408,0x40,0xA4,Write,ACK
3.198227500,3408,0x40,0xA4,Write,NAK
3.198557500,3410,0x41,0x6E,Read,ACK
3.198612500,3410,0x41,0x6E,Read,NAK
3.198867500,3412,0x49,0xE0,Read,ACK
3.198922500,3412,0x49,0xE0,Read,NAK
3.204052500,3414,0x49,0xBE,Read,ACK
3.204107500,3414,0x49,0xBE,Read,NAK
3.205737500,3416,0x40,0xA8,Write,ACK
3.205792500,3416,0x40,0xA8,Write,NAK
3.206122500,3418,0x41,0xBD,Read,ACK
3.206177500,3418,0x41,0xBD,Read,NAK
3.206432500,3420,0x49,0xE6,Read,ACK
3.206487500,3420,0x49,0xE6,Read,NAK
3.211617500,3422,0x49,0x05,Read,ACK
3.211672500,3422,0x49,0x05,Read,NAK
3.213302500,3424,0x40,0xAC,Write,ACK
3.213357500,3424,0x40,0xAC,Write,NAK
3.213687500,3426,0x41,0xAC,Read,ACK
3.213742500,3426,0x41,0xAC,Read,NAK
3.213997500,3428,0x49,0xBF,Read,ACK
3.214052500,3428,0x49,0xBF,Read,NAK
3.219182500,3430,0x49,0xD3,Read,ACK
3.219237500,3430,0x49,0xD3,Read,NAK
3.220867500,3432,0x40,0xB0,Write,ACK
3.220922500,3432,0x40,0xB0,Write,NAK
3.221252500,3434,0x41,0x9D,Read,ACK
3.221307500,3434,0x41,0x9D,Read,NAK
3.221562500,3436,0x49,0xE5,Read,ACK
3.221617500,3436,0x49,0xE5,Read,NAK
3.226747500,3438,0x49,0xD7,Read,ACK
3.226802500,3438,0x49,0xD7,Read,NAK
3.228432500,3440,0x40,0xB4,Write,ACK
3.228487500,3440,0x40,0xB4,Write,NAK
3.228817500,3442,0x41,0xC6,Read,ACK
3.228872500,3442,0x41,0xC6,Read,NAK
3.229127500,3444,0x49,0x07,Read,ACK
3.229182500,3444,0x49,0x07,Read,NAK
3.234312500,3446,0x49,0xFA,Read,ACK
3.234367500,3446,0x49,0xFA,Read,NAK
3.235997500,3448,0x40,0xB8,Write,ACK
3.236052500,3448,0x40,0xB8,Write,NAK
3.236382500,3450,0x41,0xD2,Read,ACK
3.236437500,3450,0x41,0xD2,Read,NAK
3.236692500,3452,0x49,0xCF,Read,ACK
3.236747500,3452,0x49,0xCF,Read,NAK
3.241877500,3454,0x49,0xDE,Read,ACK
3.241932500,3454,0x49,0xDE,Read,NAK
3.243562500,3456,0x40,0xBC,Write,ACK
3.243617500,3456,0x40,0xBC,Write,NAK
3.243947500,3458,0x41,0xAA,Read,ACK
3.244002500,3458,0x41,0xAA,Read,NAK
3.244257500,3460,0x49,0xEF,Read,ACK
3.244312500,3460,0x49,0xEF,Read,NAK
3.249442500,3462,0x49,0xEE,Read,ACK
3.249497500,3462,0x49,0xEE,Read,NAK
3.251127500,3464,0x40,0xC0,Write,ACK
3.251182500,3464,0x40,0xC0,Write,NAK
3.251512500,3466,0x41,0xD5,Read,ACK
3.251567500,3466,0x41,0xD5,Read,NAK
3.251822500,3468,0x49,0xD2,Read,ACK
3.251877500,3468,0x49,0xD2,Read,NAK
3.257007500,3470,0x49,0xEE,Read,ACK
3.257062500,3470,0x49,0xEE,Read,NAK
3.258692500,3472,0x40,0xC4,Write,ACK
3.258747500,3472,0x40,0xC4,Write,NAK
3.259077500,3474,0x41,0xC1,Read,ACK
3.259132500,3474,0x41,0xC1,Read,NAK
3.259387500,3476,0x49,0xF4,Read,ACK
3.259442500,3476,0x49,0xF4,Read,NAK
3.264572500,3478,0x49,0xDB,Read,ACK
3.264627500,3478,0x49,0xDB,Read,NAK
3.266257500,3480,0x40,0xC8,Write,ACK
3.266312500,3480,0x40,0xC8,Write,NAK
3.266642500,3482,0x41,0xE4,Read,ACK
3.266697500,3482,0x41,0xE4,Read,NAK
3.266952500,3484,0x49,0xC0,Read,ACK
3.267007500,3484,0x49,0xC0,Read,NAK
3.272137500,3486,0x49,0x11,Read,ACK
3.272192500,3486,0x49,0x11,Read,NAK
3.273822500,3488,0x40,0xCC,Write,ACK
3.273877500,3488,0x40,0xCC,Write,NAK
3.274207500,3490,0x41,0xE9,Read,ACK
3.274262500,3490,0x41,0xE9,Read,NAK
3.274517500,3492,0x49,0xF5,Read,ACK
3.274572500,3492,0x49,0xF5,Read,NAK
3.279702500,3494,0x49,0x0A,Read,ACK
3.279757500,3494,0x49,0x0A,Read,NAK
3.281387500,3496,0x40,0xD0,Write,ACK
3.281442500,3496,0x40,0xD0,Write,NAK
3.281772500,3498,0x41,0xDC,Read,ACK
3.281827500,3498,0x41,0xDC,Read,NAK
3.282082500,3500,0x49,0xED,Read,ACK
3.282137500,3500,0x49,0xED,Read,NAK
3.287267500,3502,0x49,0x27,Read,ACK
3.287322500,3502,0x49,0x27,Read,NAK
3.288952500,3504,0x40,0xD4,Write,ACK
3.289007500,3504,0x40,0xD4,Write,NAK
3.289337500,3506,0x41,0xF2,Read,ACK
3.289392500,3506,0x41,0xF2,Read,NAK
3.289647500,3508,0x49,0xF5,Read,ACK
3.289702500,3508,0x49,0xF5,Read,NAK
3.294832500,3510,0x49,0xF7,Read,ACK
3.294887500,3510,0x49,0xF7,Read,NAK
3.296517500,3512,0x40,0xD8,Write,ACK
3.296572500,3512,0x40,0xD8,Write,NAK
3.296902500,3514,0x41,0xEE,Read,ACK
3.296957500,3514,0x41,0xEE,Read,NAK
3.297212500,3516,0x49,0xD9,Read,ACK
3.297267500,3516,0x49,0xD9,Read,NAK
3.302397500,3518,0x49,0x26,Read,ACK
3.302452500,3518,0x49,0x26,Read,NAK
3.304082500,3520,0x40,0xDC,Write,ACK
3.304137500,3520,0x40,0xDC,Write,NAK
3.304467500,3522,0x41,0xBE,Read,ACK
3.304522500,3522,0x41,0xBE,Read,NAK
3.304777500,3524,0x49,0x14,Read,ACK
3.304832500,3524,0x49,0x14,Read,NAK
3.309962500,3526,0x49,0xEC,Read,ACK
3.310017500,3526,0x49,0xEC,Read,NAK
3.311647500,3528,0x40,0xE0,Write,ACK
3.311702500,3528,0x40,0xE0,Write,NAK
3.312032500,3530,0x41,0x08,Read,ACK
3.312087500,3530,0x41,0x08,Read,NAK
3.312342500,3532,0x49,0x06,Read,ACK
3.312397500,3532,0x49,0x06,Read,NAK
3.317527500,3534,0x49,0x01,Read,ACK
3.317582500,3534,0x49,0x01,Read,NAK
3.319212500,3536,0x40,0xE4,Write,ACK
3.319267500,3536,0x40,0xE4,Write,NAK
3.319597500,3538,0x41,0xB5,Read,ACK
3.319652500,3538,0x41,0xB5,Read,NAK
3.319907500,3540,0x49,0x04,Read,ACK
3.319962500,3540,0x49,0x04,Read,NAK
3.325092500,3542,0x49,0x06,Read,ACK
3.325147500,3542,0x49,0x06,Read,NAK
3.326777500,3544,0x40,0xE8,Write,ACK
3.326832500,3544,0x40,0xE8,Write,NAK
3.327162500,3546,0x41,0x12,Read,ACK
3.327217500,3546,0x41,0x12,Read,NAK
3.327472500,3548,0x49,0x0C,Read,ACK
3.327527500,3548,0x49,0x0C,Read,NAK
3.332657500,3550,0x49,0x3D,Read,ACK
3.332712500,3550,0x49,0x3D,Read,NAK
3.334342500,3552,0x40,0xEC,Write,ACK
3.334397500,3552,0x40,0xEC,Write,NAK
3.334727500,3554,0x41,0xE7,Read,ACK
3.334782500,3554,0x41,0xE7,Read,NAK
3.335037500,3556,0x49,0x37,Read,ACK
3.335092500,3556,0x49,0x37,Read,NAK
3.340222500,3558,0x49,0x55,Read,ACK
3.340277500,3558,0x49,0x55,Read,NAK
3.341907500,3560,0x40,0xF0,Write,ACK
3.341962500,3560,0x40,0xF0,Write,NAK
3.342292500,3562,0x41,0x06,Read,ACK
3.342347500,3562,0x41,0x06,Read,NAK
3.342602500,3564,0x49,0x34,Read,ACK
3.342657500,3564,0x49,0x34,Read,NAK
3.347787500,3566,0x49,0x30,Read,ACK
3.347842500,3566,0x49,0x30,Read,NAK
3.349472500,3568,0x40,0xF4,Write,ACK
3.349527500,3568,0x40,0xF4,Write,NAK
3.349857500,3570,0x41,0xD4,Read,ACK
3.349912500,3570,0x41,0xD4,Read,NAK
3.350167500,3572,0x49,0x0F,Read,ACK
3.350222500,3572,0x49,0x0F,Read,NAK
3.355352500,3574,0x49,0x48,Read,ACK
3.355407500,3574,0x49,0x48,Read,NAK
3.357037500,3576,0x40,0xF8,Write,ACK
3.357092500,3576,0x40,0xF8,Write,NAK
3.357422500,3578,0x41,0xF2,Read,ACK
3.357477500,3578,0x41,0xF2,Read,NAK
3.357732500,3580,0x49,0xEE,Read,ACK
3.357787500,3580,0x49,0xEE,Read,NAK
3.362917500,3582,0x49,0x42,Read,ACK
3.362972500,3582,0x49,0x42,Read,NAK
3.364602500,3584,0x40,0xFC,Write,ACK
3.364657500,3584,0x40,0xFC,Write,NAK
3.364987500,3586,0x41,0x08,Read,ACK
3.365042500,3586,0x41,0x08,Read,NAK
3.365297500,3588,0x49,0x3E,Read,ACK
3.365352500,3588,0x49,0x3E,Read,NAK
3.370482500,3590,0x49,0x1A,Read,ACK
3.370537500,3590,0x49,0x1A,Read,NAK
3.372167500,3592,0x40,0x00,Write,ACK
3.372222500,3592,0x40,0x00,Write,NAK
3.372552500,3594,0x41,0x17,Read,ACK
3.372607500,3594,0x41,0x17,Read,NAK
3.372862500,3596,0x49,0x27,Read,ACK
3.372917500,3596,0x49,0x27,Read,NAK
3.378047500,3598,0x49,0x11,Read,ACK
3.378102500,3598,0x49,0x11,Read,NAK
3.379732500,3600,0x40,0x04,Write,ACK
3.379787500,3600,0x40,0x04,Write,NAK
3.380117500,3602,0x41,0xF9,Read,ACK
3.380172500,3602,0x41,0xF9,Read,NAK
3.380427500,3604,0x49,0x54,Read,ACK
3.380482500,3604,0x49,0x54,Read,NAK
3.385612500,3606,0x49,0x58,Read,ACK
3.385667500,3606,0x49,0x58,Read,NAK
3.387297500,3608,0x40,0x08,Write,ACK
3.387352500,3608,0x40,0x08,Write,NAK
3.387682500,3610,0x41,0xF6,Read,ACK
3.387737500,3610,0x41,0xF6,Read,NAK
3.387992500,3612,0x49,0x05,Read,ACK
3.388047500,3612,0x49,0x05,Read,NAK
3.393177500,3614,0x49,0x26,Read,ACK
3.393232500,3614,0x49,0x26,Read,NAK
3.394862500,3616,0x40,0x0C,Write,ACK
3.394917500,3616,0x40,0x0C,Write,NAK
3.395247500,3618,0x41,0x32,Read,ACK
3.395302500,3618,0x41,0x32,Read,NAK
3.395557500,3620,0x49,0x17,Read,ACK
3.395612500,3620,0x49,0x17,Read,NAK
3.400742500,3622,0x49,0x47,Read,ACK
3.400797500,3622,0x49,0x47,Read,NAK
3.402427500,3624,0x40,0x10,Write,ACK
3.402482500,3624,0x40,0x10,Write,NAK
3.402812500,3626,0x41,0x0E,Read,ACK
3.402867500,3626,0x41,0x0E,Read,NAK
3.403122500,3628,0x49,0x43,Read,ACK
3.403177500,3628,0x49,0x43,Read,NAK
3.408307500,3630,0x49,0x69,Read,ACK
3.408362500,3630,0x49,0x69,Read,NAK
3.409992500,3632,0x40,0x14,Write,ACK
3.410047500,3632,0x40,0x14,Write,NAK
3.410377500,3634,0x41,0x41,Read,ACK
3.410432500,3634,0x41,0x41,Read,NAK
3.410687500,3636,0x49,0x15,Read,ACK
3.410742500,3636,0x49,0x15,Read,NAK
3.415872500,3638,0x49,0x37,Read,ACK
3.415927500,3638,0x49,0x37,Read,NAK
3.417557500,3640,0x40,0x18,Write,ACK
3.417612500,3640,0x40,0x18,Write,NAK
3.417942500,3642,0x41,0xEE,Read,ACK
3.417997500,3642,0x41,0xEE,Read,NAK
3.418252500,3644,0x49,0x6E,Read,ACK
3.418307500,3644,0x49,0x6E,Read,NAK
3.423437500,3646,0x49,0x37,Read,ACK
3.423492500,3646,0x49,0x37,Read,NAK
3.425122500,3648,0x40,0x1C,Write,ACK
3.425177500,3648,0x40,0x1C,Write,NAK
3.425507500,3650,0x41,0x2E,Read,ACK
3.425562500,3650,0x41,0x2E,Read,NAK
3.425817500,3652,0x49,0x41,Read,ACK
3.425872500,3652,0x49,0x41,Read,NAK
3.431002500,3654,0x49,0x4E,Read,ACK
3.431057500,3654,0x49,0x4E,Read,NAK
3.432687500,3656,0x40,0x20,Write,ACK
3.432742500,3656,0x40,0x20,Write,NAK
3.433072500,3658,0x41,0x1B,Read,ACK
3.433127500,3658,0x41,0x1B,Read,NAK
3.433382500,3660,0x49,0x1C,Read,ACK
3.433437500,3660,0x49,0x1C,Read,NAK
3.438567500,3662,0x49,0x4C,Read,ACK
3.438622500,3662,0x49,0x4C,Read,NAK
3.440252500,3664,0x40,0x24,Write,ACK
3.440307500,3664,0x40,0x24,Write,NAK
3.440637500,3666,0x41,0x4E,Read,ACK
3.440692500,3666,0x41,0x4E,Read,NAK
3.440947500,3668,0x49,0x29,Read,ACK
3.441002500,3668,0x49,0x29,Read,NAK
3.446132500,3670,0x49,0x4F,Read,ACK
3.446187500,3670,0x49,0x4F,Read,NAK
3.447817500,3672,0x40,0x28,Write,ACK
3.447872500,3672,0x40,0x28,Write,NAK
3.448202500,3674,0x41,0x08,Read,ACK
3.448257500,3674,0x41,0x08,Read,NAK
3.448512500,3676,0x49,0x59,Read,ACK
3.448567500,3676,0x49,0x59,Read,NAK
3.453697500,3678,0x49,0x74,Read,ACK
3.453752500,3678,0x49,0x74,Read,NAK
3.455382500,3680,0x40,0x2C,Write,ACK
3.455437500,3680,0x40,0x2C,Write,NAK
3.455767500,3682,0x41,0x16,Read,ACK
3.455822500,3682,0x41,0x16,Read,NAK
3.456077500,3684,0x49,0x6B,Read,ACK
3.456132500,3684,0x49,0x6B,Read,NAK
3.461262500,3686,0x49,0x8B,Read,ACK
3.461317500,3686,0x49,0x8B,Read,NAK
3.462947500,3688,0x40,0x30,Write,ACK
3.463002500,3688,0x40,0x30,Write,NAK
3.463332500,3690,0x41,0x1C,Read,ACK
3.463387500,3690,0x41,0x1C,Read,NAK
3.463642500,3692,0x49,0x3C,Read,ACK
3.463697500,3692,0x49,0x3C,Read,NAK
3.468827500,3694,0x49,0x75,Read,ACK
3.468882500,3694,0x49,0x75,Read,NAK
3.470512500,3696,0x40,0x34,Write,ACK
3.470567500,3696,0x40,0x34,Write,NAK
3.470897500,3698,0x41,0x1F,Read,ACK
3.470952500,3698,0x41,0x1F,Read,NAK
3.471207500,3700,0x49,0x85,Read,ACK
3.471262500,3700,0x49,0x85,Read,NAK
3.476392500,3702,0x49,0x90,Read,ACK
3.476447500,3702,0x49,0x90,Read,NAK
3.478077500,3704,0x40,0x38,Write,ACK
3.478132500,3704,0x40,0x38,Write,NAK
3.478462500,3706,0x41,0x59,Read,ACK
3.478517500,3706,0x41,0x59,Read,NAK
3.478772500,3708,0x49,0x37,Read,ACK
3.478827500,3708,0x49,0x37,Read,NAK
3.483957500,3710,0x49,0x5B,Read,ACK
3.484012500,3710,0x49,0x5B,Read,NAK
3.485642500,3712,0x40,0x3C,Write,ACK
3.485697500,3712,0x40,0x3C,Write,NAK
3.486027500,3714,0x41,0x3E,Read,ACK
3.486082500,3714,0x41,0x3E,Read,NAK
3.486337500,3716,0x49,0x79,Read,ACK
3.486392500,3716,0x49,0x79,Read,NAK
3.491522500,3718,0x49,0x84,Read,ACK
3.491577500,3718,0x49,0x84,Read,NAK
3.493207500,3720,0x40,0x40,Write,ACK
3.493262500,3720,0x40,0x40,Write,NAK
3.493592500,3722,0x41,0x57,Read,ACK
3.493647500,3722,0x41,0x57,Read,NAK
3.493902500,3724,0x49,0x38,Read,ACK
3.493957500,3724,0x49,0x38,Read,NAK
3.499087500,3726,0x49,0x79,Read,ACK
3.499142500,3726,0x49,0x79,Read,NAK
3.500772500,3728,0x40,0x44,Write,ACK
3.500827500,3728,0x40,0x44,Write,NAK
3.501157500,3730,0x41,0x1F,Read,ACK
3.501212500,3730,0x41,0x1F,Read,NAK
3.501467500,3732,0x49,0x60,Read,ACK
3.501522500,3732,0x49,0x60,Read,NAK
3.506652500,3734,0x49,0x84,Read,ACK
3.506707500,3734,0x49,0x84,Read,NAK
3.508282500,,0x24,,Write,NAK
3.508612500,3738,0x40,0x48,Write,ACK
3.508667500,3738,0x40,0x48,Write,NAK
3.508997500,3740,0x41,0x43,Read,ACK
3.509052500,3740,0x41,0x43,Read,NAK
3.509307500,3742,0x49,0x8C,Read,ACK
3.509362500,3742,0x49,0x8C,Read,NAK
3.514492500,3744,0x49,0x8A,Read,ACK
3.514547500,3744,0x49,0x8A,Read,NAK
3.516177500,3746,0x40,0x4C,Write,ACK
3.516232500,3746,0x40,0x4C,Write,NAK
3.516562500,3748,0x41,0x49,Read,ACK
3.516617500,3748,0x41,0x49,Read,NAK
3.516872500,3750,0x49,0x71,Read,ACK
3.516927500,3750,0x49,0x71,Read,NAK
3.522057500,3752,0x49,0x65,Read,ACK
3.522112500,3752,0x49,0x65,Read,NAK
3.523742500,3754,0x40,0x50,Write,ACK
3.523797500,3754,0x40,0x50,Write,NAK
3.524127500,3756,0x41,0x5F,Read,ACK
3.524182500,3756,0x41,0x5F,Read,NAK
3.524437500,3758,0x49,0x66,Read,ACK
3.524492500,3758,0x49,0x66,Read,NAK
3.529622500,3760,0x49,0x9E,Read,ACK
3.529677500,3760,0x49,0x9E,Read,NAK
3.531307500,3762,0x40,0x54,Write,ACK
3.531362500,3762,0x40,0x54,Write,NAK
3.531692500,3764,0x41,0x35,Read,ACK
3.531747500,3764,0x41,0x35,Read,NAK
3.532002500,3766,0x49,0x82,Read,ACK
3.532057500,3766,0x49,0x82,Read,NAK
3.537187500,3768,0x49,0x8F,Read,ACK
3.537242500,3768,0x49,0x8F,Read,NAK
3.538872500,3770,0x40,0x58,Write,ACK
3.538927500,3770,0x40,0x58,Write,NAK
3.539257500,3772,0x41,0x63,Read,ACK
3.539312500,3772,0x41,0x63,Read,NAK
3.539567500,3774,0x49,0x9E,Read,ACK
3.539622500,3774,0x49,0x9E,Read,NAK
3.544752500,3776,0x49,0x79,Read,ACK
3.544807500,3776,0x49,0x79,Read,NAK
3.546437500,3778,0x40,0x5C,Write,ACK
3.546492500,3778,0x40,0x5C,Write,NAK
3.546822500,3780,0x41,0x59,Read,ACK
3.546877500,3780,0x41,0x59,Read,NAK
3.547132500,3782,0x49,0xAD,Read,ACK
3.547187500,3782,0x49,0xAD,Read,NAK
3.552317500,3784,0x49,0xB2,Read,ACK
3.552372500,3784,0x49,0xB2,Read,NAK
3.554002500,3786,0x40,0x60,Write,ACK
3.554057500,3786,0x40,0x60,Write,NAK
3.554387500,3788,0x41,0x87,Read,ACK
3.554442500,3788,0x41,0x87,Read,NAK
3.554697500,3790,0x49,0xA7,Read,ACK
3.554752500,3790,0x49,0xA7,Read,NAK
3.559882500,3792,0x49,0x6D,Read,ACK
3.559937500,3792,0x49,0x6D,Read,NAK
3.561567500,3794,0x40,0x64,Write,ACK
3.561622500,3794,0x40,0x64,Write,NAK
3.561952500,3796,0x41,0x75,Read,ACK
3.562007500,3796,0x41,0x75,Read,NAK
3.562262500,3798,0x49,0x6A,Read,ACK
3.562317500,3798,0x49,0x6A,Read,NAK
3.567447500,3800,0x49,0xA2,Read,ACK
3.567502500,3800,0x49,0xA2,Read,NAK
3.569077500,,0x24,,Write,NAK
3.569407500,3804,0x40,0x68,Write,ACK
3.569462500,3804,0x40,0x68,Write,NAK
3.569792500,3806,0x41,0x60,Read,ACK
3.569847500,3806,0x41,0x60,Read,NAK
3.570102500,3808,0x49,0x6C,Read,ACK
3.570157500,3808,0x49,0x6C,Read,NAK
3.575287500,3810,0x49,0xA5,Read,ACK
3.575342500,3810,0x49,0xA5,Read,NAK
3.576972500,3812,0x40,0x6C,Write,ACK
3.577027500,3812,0x40,0x6C,Write,NAK
3.577357500,3814,0x41,0x73,Read,ACK
3.577412500,3814,0x41,0x73,Read,NAK
3.577667500,3816,0x49,0x7A,Read,ACK
3.577722500,3816,0x49,0x7A,Read,NAK
3.582852500,3818,0x49,0x97,Read,ACK
3.582907500,3818,0x49,0x97,Read,NAK
3.584537500,3820,0x40,0x70,Write,ACK
3.584592500,3820,0x40,0x70,Write,NAK
3.584922500,3822,0x41,0x42,Read,ACK
3.584977500,3822,0x41,0x42,Read,NAK
3.585232500,3824,0x49,0x6D,Read,ACK
3.585287500,3824,0x49,0x6D,Read,NAK
3.590417500,3826,0x49,0x9B,Read,ACK
3.590472500,3826,0x49,0x9B,Read,NAK
3.592102500,3828,0x40,0x74,Write,ACK
3.592157500,3828,0x40,0x74,Write,NAK
3.592487500,3830,0x41,0x4E,Read,ACK
3.592542500,3830,0x41,0x4E,Read,NAK
3.592797500,3832,0x49,0xC2,Read,ACK
3.592852500,3832,0x49,0xC2,Read,NAK
3.597982500,3834,0x49,0xA9,Read,ACK
3.598037500,3834,0x49,0xA9,Read,NAK
3.599667500,3836,0x40,0x78,Write,ACK
3.599722500,3836,0x40,0x78,Write,NAK
3.600052500,3838,0x41,0x56,Read,ACK
3.600107500,3838,0x41,0x56,Read,NAK
3.600362500,3840,0x49,0x86,Read,ACK
3.600417500,3840,0x49,0x86,Read,NAK
3.605547500,3842,0x49,0xB6,Read,ACK
3.605602500,3842,0x49,0xB6,Read,NAK
3.607232500,3844,0x40,0x7C,Write,ACK
3.607287500,3844,0x40,0x7C,Write,NAK
3.607617500,3846,0x41,0x89,Read,ACK
3.607672500,3846,0x41,0x89,Read,NAK
3.607927500,3848,0x49,0xC9,Read,ACK
3.607982500,3848,0x49,0xC9,Read,NAK
3.613112500,3850,0x49,0x88,Read,ACK
3.613167500,3850,0x49,0x88,Read,NAK
3.614797500,3852,0x40,0x80,Write,ACK
3.614852500,3852,0x40,0x80,Write,NAK
3.615182500,3854,0x41,0x8E,Read,ACK
3.615237500,3854,0x41,0x8E,Read,NAK
3.615492500,3856,0x49,0xB5,Read,ACK
3.615547500,3856,0x49,0xB5,Read,NAK
3.620677500,3858,0x49,0xD3,Read,ACK
3.620732500,3858,0x49,0xD3,Read,NAK
3.622362500,3860,0x40,0x84,Write,ACK
3.622417500,3860,0x40,0x84,Write,NAK
3.622747500,3862,0x41,0x6D,Read,ACK
3.622802500,3862,0x41,0x6D,Read,NAK
3.623057500,3864,0x49,0xCD,Read,ACK
3.623112500,3864,0x49,0xCD,Read,NAK
3.628242500,3866,0x49,0xCB,Read,ACK
3.628297500,3866,0x49,0xCB,Read,NAK
3.629927500,3868,0x40,0x88,Write,ACK
3.629982500,3868,0x40,0x88,Write,NAK
3.630312500,3870,0x41,0xB3,Read,ACK
3.630367500,3870,0x41,0xB3,Read,NAK
3.630622500,3872,0x49,0x90,Read,ACK
3.630677500,3872,0x49,0x90,Read,NAK
3.635807500,3874,0x49,0xAB,Read,ACK
3.635862500,3874,0x49,0xAB,Read,NAK
3.637492500,3876,0x40,0x8C,Write,ACK
3.637547500,3876,0x40,0x8C,Write,NAK
3.637877500,3878,0x41,0xB4,Read,ACK
3.637932500,3878,0x41,0xB4,Read,NAK
3.638187500,3880,0x49,0xC2,Read,ACK
3.638242500,3880,0x49,0xC2,Read,NAK
3.643372500,3882,0x49,0xBF,Read,ACK
3.643427500,3882,0x49,0xBF,Read,NAK
3.645057500,3884,0x40,0x90,Write,ACK
3.645112500,3884,0x40,0x90,Write,NAK
3.645442500,3886,0x41,0xA1,Read,ACK
3.645497500,3886,0x41,0xA1,Read,NAK
3.645752500,3888,0x49,0xD6,Read,ACK
3.645807500,3888,0x49,0xD6,Read,NAK
3.650937500,3890,0x49,0xEE,Read,ACK
3.650992500,3890,0x49,0xEE,Read,NAK
3.652622500,3892,0x40,0x94,Write,ACK
3.652677500,3892,0x40,0x94,Write,NAK
3.653007500,3894,0x41,0x73,Read,ACK
3.653062500,3894,0x41,0x73,Read,NAK
3.653317500,3896,0x49,0xDF,Read,ACK
3.653372500,3896,0x49,0xDF,Read,NAK
3.658502500,3898,0x49,0xB0,Read,ACK
3.658557500,3898,0x49,0xB0,Read,NAK
3.660187500,3900,0x40,0x98,Write,ACK
3.660242500,3900,0x40,0x98,Write,NAK
3.660572500,3902,0x41,0xA0,Read,ACK
3.660627500,3902,0x41,0xA0,Read,NAK
3.660882500,3904,0x49,0xAA,Read,ACK
3.660937500,3904,0x49,0xAA,Read,NAK
3.666067500,3906,0x49,0xE0,Read,ACK
3.666122500,3906,0x49,0xE0,Read,NAK
3.667752500,3908,0x40,0x9C,Write,ACK
3.667807500,3908,0x40,0x9C,Write,NAK
3.668137500,3910,0x41,0x75,Read,ACK
3.668192500,3910,0x41,0x75,Read,NAK
3.668447500,3912,0x49,0xA8,Read,ACK
3.668502500,3912,0x49,0xA8,Read,NAK
3.673632500,3914,0x49,0x01,Read,ACK
3.673687500,3914,0x49,0x01,Read,NAK
3.675317500,3916,0x40,0xA0,Write,ACK
3.675372500,3916,0x40,0xA0,Write,NAK
3.675702500,3918,0x41,0xC0,Read,ACK
3.675757500,3918,0x41,0xC0,Read,NAK
3.676012500,3920,0x49,0xDC,Read,ACK
3.676067500,3920,0x49,0xDC,Read,NAK
3.681197500,3922,0x49,0xC3,Read,ACK
3.681252500,3922,0x49,0xC3,Read,NAK
3.682882500,3924,0x40,0xA4,Write,ACK
3.682937500,3924,0x40,0xA4,Write,NAK
3.683267500,3926,0x41,0x73,Read,ACK
3.683322500,3926,0x41,0x73,Read,NAK
3.683577500,3928,0x49,0xF6,Read,ACK
3.683632500,3928,0x49,0xF6,Read,NAK
3.688762500,3930,0x49,0xDA,Read,ACK
3.688817500,3930,0x49,0xDA,Read,NAK
3.690447500,3932,0x40,0xA8,Write,ACK
3.690502500,3932,0x40,0xA8,Write,NAK
3.690832500,3934,0x41,0xB1,Read,ACK
3.690887500,3934,0x41,0xB1,Read,NAK
3.691142500,3936,0x49,0xB9,Read,ACK
3.691197500,3936,0x49,0xB9,Read,NAK
3.696327500,3938,0x49,0xEF,Read,ACK
3.696382500,3938,0x49,0xEF,Read,NAK
3.698012500,3940,0x40,0xAC,Write,ACK
3.698067500,3940,0x40,0xAC,Write,NAK
3.698397500,3942,0x41,0xD1,Read,ACK
3.698452500,3942,0x41,0xD1,Read,NAK
3.698707500,3944,0x49,0xDE,Read,ACK
3.698762500,3944,0x49,0xDE,Read,NAK
3.703892500,3946,0x49,0xF3,Read,ACK
3.703947500,3946,0x49,0xF3,Read,NAK
3.705577500,3948,0x40,0xB0,Write,ACK
3.705632500,3948,0x40,0xB0,Write,NAK
3.705962500,3950,0x41,0xA3,Read,ACK
3.706017500,3950,0x41,0xA3,Read,NAK
3.706272500,3952,0x49,0xD9,Read,ACK
3.706327500,3952,0x49,0xD9,Read,NAK
3.711457500,3954,0x49,0xED,Read,ACK
3.711512500,3954,0x49,0xED,Read,NAK
3.713142500,3956,0x40,0xB4,Write,ACK
3.713197500,3956,0x40,0xB4,Write,NAK
3.713527500,3958,0x41,0xD7,Read,ACK
3.713582500,3958,0x41,0xD7,Read,NAK
3.713837500,3960,0x49,0xF5,Read,ACK
3.713892500,3960,0x49,0xF5,Read,NAK
3.719022500,3962,0x49,0xF2,Read,ACK
3.719077500,3962,0x49,0xF2,Read,NAK
3.720707500,3964,0x40,0xB8,Write,ACK
3.720762500,3964,0x40,0xB8,Write,NAK
3.721092500,3966,0x41,0x86,Read,ACK
3.721147500,3966,0x41,0x86,Read,NAK
3.721402500,3968,0x49,0xC3,Read,ACK
3.721457500,3968,0x49,0xC3,Read,NAK
3.726587500,3970,0x49,0xDF,Read,ACK
3.726642500,3970,0x49,0xDF,Read,NAK
3.728272500,3972,0x40,0xBC,Write,ACK
3.728327500,3972,0x40,0xBC,Write,NAK
3.728657500,3974,0x41,0xB1,Read,ACK
3.728712500,3974,0x41,0xB1,Read,NAK
3.728967500,3976,0x49,0xCD,Read,ACK
3.729022500,3976,0x49,0xCD,Read,NAK
3.734152500,3978,0x49,0xCA,Read,ACK
3.734207500,3978,0x49,0xCA,Read,NAK
3.735837500,3980,0x40,0xC0,Write,ACK
3.735892500,3980,0x40,0xC0,Write,NAK
3.736222500,3982,0x41,0xBB,Read,ACK
3.736277500,3982,0x41,0xBB,Read,NAK
3.736532500,3984,0x49,0xD9,Read,ACK
3.736587500,3984,0x49,0xD9,Read,NAK
3.741717500,3986,0x49,0xFA,Read,ACK
3.741772500,3986,0x49,0xFA,Read,NAK
3.743402500,3988,0x40,0xC4,Write,ACK
3.743457500,3988,0x40,0xC4,Write,NAK
3.743787500,3990,0x41,0xDE,Read,ACK
3.743842500,3990,0x41,0xDE,Read,NAK
3.744097500,3992,0x49,0xEC,Read,ACK
3.744152500,3992,0x49,0xEC,Read,NAK
3.749282500,3994,0x49,0xD4,Read,ACK
3.749337500,3994,0x49,0xD4,Read,NAK
3.750967500,3996,0x40,0xC8,Write,ACK
3.751022500,3996,0x40,0xC8,Write,NAK
3.751352500,3998,0x41,0xE0,Read,ACK
3.751407500,3998,0x41,0xE0,Read,NAK
3.751662500,4000,0x49,0xD8,Read,ACK
3.751717500,4000,0x49,0xD8,Read,NAK
3.756847500,4002,0x49,0xD3,Read,ACK
3.756902500,4002,0x49,0xD3,Read,NAK
3.758532500,4004,0x40,0xCC,Write,ACK
3.758587500,4004,0x40,0xCC,Write,NAK
3.758917500,4006,0x41,0xEC,Read,ACK
3.758972500,4006,0x41,0xEC,Read,NAK
3.759227500,4008,0x49,0x07,Read,ACK
3.759282500,4008,0x49,0x07,Read,NAK
3.764412500,4010,0x49,0xF7,Read,ACK
3.764467500,4010,0x49,0xF7,Read,NAK
3.766097500,4012,0x40,0xD0,Write,ACK
3.766152500,4012,0x40,0xD0,Write,NAK
3.766482500,4014,0x41,0xE2,Read,ACK
3.766537500,4014,0x41,0xE2,Read,NAK
3.766792500,4016,0x49,0xF1,Read,ACK
3.766847500,4016,0x49,0xF1,Read,NAK
3.771977500,4018,0x49,0x34,Read,ACK
3.772032500,4018,0x49,0x34,Read,NAK
3.773662500,4020,0x40,0xD4,Write,ACK
3.773717500,4020,0x40,0xD4,Write,NAK
3.774047500,4022,0x41,0xB0,Read,ACK
3.774102500,4022,0x41,0xB0,Read,NAK
3.774357500,4024,0x49,0xFB,Read,ACK
3.774412500,4024,0x49,0xFB,Read,NAK
3.779542500,4026,0x49,0xEB,Read,ACK
3.779597500,4026,0x49,0xEB,Read,NAK
3.781227500,4028,0x40,0xD8,Write,ACK
3.781282500,4028,0x40,0xD8,Write,NAK
3.781612500,4030,0x41,0xE8,Read,ACK
3.781667500,4030,0x41,0xE8,Read,NAK
3.781922500,4032,0x49,0xFF,Read,ACK
3.781977500,4032,0x49,0xFF,Read,NAK
3.787107500,4034,0x49,0x41,Read,ACK
3.787162500,4034,0x49,0x41,Read,NAK
3.788792500,4036,0x40,0xDC,Write,ACK
3.788847500,4036,0x40,0xDC,Write,NAK
3.789177500,4038,0x41,0xC2,Read,ACK
3.789232500,4038,0x41,0xC2,Read,NAK
3.789487500,4040,0x49,0xD7,Read,ACK
3.789542500,4040,0x49,0xD7,Read,NAK
3.794672500,4042,0x49,0x12,Read,ACK
3.794727500,4042,0x49,0x12,Read,NAK
3.796357500,4044,0x40,0xE0,Write,ACK
3.796412500,4044,0x40,0xE0,Write,NAK
3.796742500,4046,0x41,0x07,Read,ACK
3.796797500,4046,0x41,0x07,Read,NAK
3.797052500,4048,0x49,0x38,Read,ACK
3.797107500,4048,0x49,0x38,Read,NAK
3.802237500,4050,0x49,0x0B,Read,ACK
3.802292500,4050,0x49,0x0B,Read,NAK
3.803922500,4052,0x40,0xE4,Write,ACK
3.803977500,4052,0x40,0xE4,Write,NAK
3.804307500,4054,0x41,0xAE,Read,ACK
3.804362500,4054,0x41,0xAE,Read,NAK
3.804617500,4056,0x49,0x3C,Read,ACK
3.804672500,4056,0x49,0x3C,Read,NAK
3.809802500,4058,0x49,0x2F,Read,ACK
3.809857500,4058,0x49,0x2F,Read,NAK
3.811487500,4060,0x40,0xE8,Write,ACK
3.811542500,4060,0x40,0xE8,Write,NAK
3.811872500,4062,0x41,0xFE,Read,ACK
3.811927500,4062,0x41,0xFE,Read,NAK
3.812182500,4064,0x49,0xF6,Read,ACK
3.812237500,4064,0x49,0xF6,Read,NAK
3.817367500,4066,0x49,0x23,Read,ACK
3.817422500,4066,0x49,0x23,Read,NAK
3.819052500,4068,0x40,0xEC,Write,ACK
3.819107500,4068,0x40,0xEC,Write,NAK
3.819437500,4070,0x41,0x13,Read,ACK
3.819492500,4070,0x41,0x13,Read,NAK
3.819747500,4072,0x49,0x3A,Read,ACK
3.819802500,4072,0x49,0x3A,Read,NAK
3.824932500,4074,0x49,0x51,Read,ACK
3.824987500,4074,0x49,0x51,Read,NAK
3.826617500,4076,0x40,0xF0,Write,ACK
3.826672500,4076,0x40,0xF0,Write,NAK
3.827002500,4078,0x41,0xD9,Read,ACK
3.827057500,4078,0x41,0xD9,Read,NAK
3.827312500,4080,0x49,0x3D,Read,ACK
3.827367500,4080,0x49,0x3D,Read,NAK
3.832497500,4082,0x49,0x46,Read,ACK
3.832552500,4082,0x49,0x46,Read,NAK
3.834182500,4084,0x40,0xF4,Write,ACK
3.834237500,4084,0x40,0xF4,Write,NAK
3.834567500,4086,0x41,0x16,Read,ACK
3.834622500,4086,0x41,0x16,Read,NAK
3.834877500,4088,0x49,0x4A,Read,ACK
3.834932500,4088,0x49,0x4A,Read,NAK
3.840062500,4090,0x49,0x17,Read,ACK
3.840117500,4090,0x49,0x17,Read,NAK
3.841747500,4092,0x40,0xF8,Write,ACK
3.841802500,4092,0x40,0xF8,Write,NAK
3.842132500,4094,0x41,0x23,Read,ACK
3.842187500,4094,0x41,0x23,Read,NAK
3.842442500,4096,0x49,0x08,Read,ACK
3.842497500,4096,0x49,0x08,Read,NAK
3.847627500,4098,0x49,0x4B,Read,ACK
3.847682500,4098,0x49,0x4B,Read,NAK
3.849312500,4100,0x40,0xFC,Write,ACK
3.849367500,4100,0x40,0xFC,Write,NAK
3.849697500,4102,0x41,0x1A,Read,ACK
3.849752500,4102,0x41,0x1A,Read,NAK
3.850007500,4104,0x49,0x3D,Read,ACK
3.850062500,4104,0x49,0x3D,Read,NAK
3.855192500,4106,0x49,0x3D,Read,ACK
3.855247500,4106,0x49,0x3D,Read,NAK
3.856877500,4108,0x40,0x00,Write,ACK
3.856932500,4108,0x40,0x00,Write,NAK
3.857262500,4110,0x41,0xE3,Read,ACK
3.857317500,4110,0x41,0xE3,Read,NAK
3.857572500,4112,0x49,0x25,Read,ACK
3.857627500,4112,0x49,0x25,Read,NAK
3.862757500,4114,0x49,0x09,Read,ACK
3.862812500,4114,0x49,0x09,Read,NAK
3.864442500,4116,0x40,0x04,Write,ACK
3.864497500,4116,0x40,0x04,Write,NAK
3.864827500,4118,0x41,0xFB,Read,ACK
3.864882500,4118,0x41,0xFB,Read,NAK
3.865137500,4120,0x49,0x10,Read,ACK
3.865192500,4120,0x49,0x10,Read,NAK
3.870322500,4122,0x49,0x43,Read,ACK
3.870377500,4122,0x49,0x43,Read,NAK
3.872007500,4124,0x40,0x08,Write,ACK
3.872062500,4124,0x40,0x08,Write,NAK
3.872392500,4126,0x41,0x00,Read,ACK
3.872447500,4126,0x41,0x00,Read,NAK
3.872702500,4128,0x49,0x06,Read,ACK
3.872757500,4128,0x49,0x06,Read,NAK
3.877887500,4130,0x49,0x66,Read,ACK
3.877942500,4130,0x49,0x66,Read,NAK
3.879572500,4132,0x40,0x0C,Write,ACK
3.879627500,4132,0x40,0x0C,Write,NAK
3.879957500,4134,0x41,0x06,Read,ACK
3.880012500,4134,0x41,0x06,Read,NAK
3.880267500,4136,0x49,0x23,Read,ACK
3.880322500,4136,0x49,0x23,Read,NAK
3.885452500,4138,0x49,0x4D,Read,ACK
3.885507500,4138,0x49,0x4D,Read,NAK
3.887137500,4140,0x40,0x10,Write,ACK
3.887192500,4140,0x40,0x10,Write,NAK
3.887522500,4142,0x41,0xEF,Read,ACK
3.887577500,4142,0x41,0xEF,Read,NAK
3.887832500,4144,0x49,0x5F,Read,ACK
3.887887500,4144,0x49,0x5F,Read,NAK
3.893017500,4146,0x49,0x39,Read,ACK
3.893072500,4146,0x49,0x39,Read,NAK
3.894702500,4148,0x40,0x14,Write,ACK
3.894757500,4148,0x40,0x14,Write,NAK
3.895087500,4150,0x41,0x03,Read,ACK
3.895142500,4150,0x41,0x03,Read,NAK
3.895397500,4152,0x49,0x18,Read,ACK
3.895452500,4152,0x49,0x18,Read,NAK
3.900582500,4154,0x49,0x63,Read,ACK
3.900637500,4154,0x49,0x63,Read,NAK
3.902267500,4156,0x40,0x18,Write,ACK
3.902322500,4156,0x40,0x18,Write,NAK
3.902652500,4158,0x41,0x0B,Read,ACK
3.902707500,4158,0x41,0x0B,Read,NAK
3.902962500,4160,0x49,0x0E,Read,ACK
3.903017500,4160,0x49,0x0E,Read,NAK
3.908147500,4162,0x49,0x5E,Read,ACK
3.908202500,4162,0x49,0x5E,Read,NAK
3.909832500,4164,0x40,0x1C,Write,ACK
3.909887500,4164,0x40,0x1C,Write,NAK
3.910217500,4166,0x41,0x31,Read,ACK
3.910272500,4166,0x41,0x31,Read,NAK
3.910527500,4168,0x49,0x5C,Read,ACK
3.910582500,4168,0x49,0x5C,Read,NAK
3.915712500,4170,0x49,0x59,Read,ACK
3.915767500,4170,0x49,0x59,Read,NAK
3.917342500,,0x24,,Write,NAK
3.917672500,4174,0x40,0x20,Write,ACK
3.917727500,4174,0x40,0x20,Write,NAK
3.918057500,4176,0x41,0xFF,Read,ACK
3.918112500,4176,0x41,0xFF,Read,NAK
3.918367500,4178,0x49,0x4E,Read,ACK
3.918422500,4178,0x49,0x4E,Read,NAK
3.923552500,4180,0x49,0x74,Read,ACK
3.923607500,4180,0x49,0x74,Read,NAK
3.925237500,4182,0x40,0x24,Write,ACK
3.925292500,4182,0x40,0x24,Write,NAK
3.925622500,4184,0x41,0x0C,Read,ACK
3.925677500,4184,0x41,0x0C,Read,NAK
3.925932500,4186,0x49,0x3B,Read,ACK
3.925987500,4186,0x49,0x3B,Read,NAK
3.931117500,4188,0x49,0x86,Read,ACK
3.931172500,4188,0x49,0x86,Read,NAK
3.932802500,4190,0x40,0x28,Write,ACK
3.932857500,4190,0x40,0x28,Write,NAK
3.933187500,4192,0x41,0x4F,Read,ACK
3.933242500,4192,0x41,0x4F,Read,NAK
3.933497500,4194,0x49,0x6C,Read,ACK
3.933552500,4194,0x49,0x6C,Read,NAK
3.938682500,4196,0x49,0x73,Read,ACK
3.938737500,4196,0x49,0x73,Read,NAK
3.940367500,4198,0x40,0x2C,Write,ACK
3.940422500,4198,0x40,0x2C,Write,NAK
3.940752500,4200,0x41,0x36,Read,ACK
3.940807500,4200,0x41,0x36,Read,NAK
3.941062500,4202,0x49,0x70,Read,ACK
3.941117500,4202,0x49,0x70,Read,NAK
3.946247500,4204,0x49,0x7D,Read,ACK
3.946302500,4204,0x49,0x7D,Read,NAK
3.947932500,4206,0x40,0x30,Write,ACK
3.947987500,4206,0x40,0x30,Write,NAK
3.948317500,4208,0x41,0x0E,Read,ACK
3.948372500,4208,0x41,0x0E,Read,NAK
3.948627500,4210,0x49,0x62,Read,ACK
3.948682500,4210,0x49,0x62,Read,NAK
3.953812500,4212,0x49,0x99,Read,ACK
3.953867500,4212,0x49,0x99,Read,NAK
3.955497500,4214,0x40,0x34,Write,ACK
3.955552500,4214,0x40,0x34,Write,NAK
3.955882500,4216,0x41,0x48,Read,ACK
3.955937500,4216,0x41,0x48,Read,NAK
3.956192500,4218,0x49,0x40,Read,ACK
3.956247500,4218,0x49,0x40,Read,NAK
3.961377500,4220,0x49,0x67,Read,ACK
3.961432500,4220,0x49,0x67,Read,NAK
3.963062500,4222,0x40,0x38,Write,ACK
3.963117500,4222,0x40,0x38,Write,NAK
3.963447500,4224,0x41,0x18,Read,ACK
3.963502500,4224,0x41,0x18,Read,NAK
3.963757500,4226,0x49,0x69,Read,ACK
3.963812500,4226,0x49,0x69,Read,NAK
3.968942500,4228,0x49,0x6B,Read,ACK
3.968997500,4228,0x49,0x6B,Read,NAK
3.970627500,4230,0x40,0x3C,Write,ACK
3.970682500,4230,0x40,0x3C,Write,NAK
3.971012500,4232,0x41,0x27,Read,ACK
3.971067500,4232,0x41,0x27,Read,NAK
3.971322500,4234,0x49,0x94,Read,ACK
3.971377500,4234,0x49,0x94,Read,NAK
3.976507500,4236,0x49,0x74,Read,ACK
3.976562500,4236,0x49,0x74,Read,NAK
3.978192500,4238,0x40,0x40,Write,ACK
3.978247500,4238,0x40,0x40,Write,NAK
3.978577500,4240,0x41,0x10,Read,ACK
3.978632500,4240,0x41,0x10,Read,NAK
3.978887500,4242,0x49,0x51,Read,ACK
3.978942500,4242,0x49,0x51,Read,NAK
3.984072500,4244,0x49,0x5F,Read,ACK
3.984127500,4244,0x49,0x5F,Read,NAK
3.985757500,4246,0x40,0x44,Write,ACK
3.985812500,4246,0x40,0x44,Write,NAK
3.986142500,4248,0x41,0x1A,Read,ACK
3.986197500,4248,0x41,0x1A,Read,NAK
3.986452500,4250,0x49,0x49,Read,ACK
3.986507500,4250,0x49,0x49,Read,NAK
3.991637500,4252,0x49,0x8C,Read,ACK
3.991692500,4252,0x49,0x8C,Read,NAK
3.993322500,4254,0x40,0x48,Write,ACK
3.993377500,4254,0x40,0x48,Write,NAK
3.993707500,4256,0x41,0x40,Read,ACK
3.993762500,4256,0x41,0x40,Read,NAK
3.994017500,4258,0x49,0x93,Read,ACK
3.994072500,4258,0x49,0x93,Read,NAK
3.999202500,4260,0x49,0x4F,Read,ACK
3.999257500,4260,0x49,0x4F,Read,NAK
4.000887500,4262,0x40,0x4C,Write,ACK
4.000942500,4262,0x40,0x4C,Write,NAK
4.001272500,4264,0x41,0x26,Read,ACK
4.001327500,4264,0x41,0x26,Read,NAK
4.001582500,4266,0x49,0x5C,Read,ACK
4.001637500,4266,0x49,0x5C,Read,NAK
4.006767500,4268,0x49,0x82,Read,ACK
4.006822500,4268,0x49,0x82,Read,NAK
4.008452500,4270,0x40,0x50,Write,ACK
4.008507500,4270,0x40,0x50,Write,NAK
4.008837500,4272,0x41,0x70,Read,ACK
4.008892500,4272,0x41,0x70,Read,NAK
4.009147500,4274,0x49,0xA7,Read,ACK
4.009202500,4274,0x49,0xA7,Read,NAK
4.014332500,4276,0x49,0xB4,Read,ACK
4.014387500,4276,0x49,0xB4,Read,NAK
4.016017500,4278,0x40,0x54,Write,ACK
4.016072500,4278,0x40,0x54,Write,NAK
4.016402500,4280,0x41,0x32,Read,ACK
4.016457500,4280,0x41,0x32,Read,NAK
4.016712500,4282,0x49,0xA3,Read,ACK
4.016767500,4282,0x49,0xA3,Read,NAK
4.021897500,4284,0x49,0xAB,Read,ACK
4.021952500,4284,0x49,0xAB,Read,NAK
4.023582500,4286,0x40,0x58,Write,ACK
4.023637500,4286,0x40,0x58,Write,NAK
4.023967500,4288,0x41,0x53,Read,ACK
4.024022500,4288,0x41,0x53,Read,NAK
4.024277500,4290,0x49,0x9A,Read,ACK
4.024332500,4290,0x49,0x9A,Read,NAK
4.029462500,4292,0x49,0xBB,Read,ACK
4.029517500,4292,0x49,0xBB,Read,NAK
4.031147500,4294,0x40,0x5C,Write,ACK
4.031202500,4294,0x40,0x5C,Write,NAK
4.031532500,4296,0x41,0x41,Read,ACK
4.031587500,4296,0x41,0x41,Read,NAK
4.031842500,4298,0x49,0xAF,Read,ACK
4.031897500,4298,0x49,0xAF,Read,NAK
4.037027500,4300,0x49,0x8C,Read,ACK
4.037082500,4300,0x49,0x8C,Read,NAK
4.038712500,4302,0x40,0x60,Write,ACK
4.038767500,4302,0x40,0x60,Write,NAK
4.039097500,4304,0x41,0x72,Read,ACK
4.039152500,4304,0x41,0x72,Read,NAK
4.039407500,4306,0x49,0x67,Read,ACK
4.039462500,4306,0x49,0x67,Read,NAK
4.044592500,4308,0x49,0x7D,Read,ACK
4.044647500,4308,0x49,0x7D,Read,NAK
4.046277500,4310,0x40,0x64,Write,ACK
4.046332500,4310,0x40,0x64,Write,NAK
4.046662500,4312,0x41,0x83,Read,ACK
4.046717500,4312,0x41,0x83,Read,NAK
4.046972500,4314,0x49,0x81,Read,ACK
4.047027500,4314,0x49,0x81,Read,NAK
4.052157500,4316,0x49,0xCA,Read,ACK
4.052212500,4316,0x49,0xCA,Read,NAK
4.053842500,4318,0x40,0x68,Write,ACK
4.053897500,4318,0x40,0x68,Write,NAK
4.054227500,4320,0x41,0x4A,Read,ACK
4.054282500,4320,0x41,0x4A,Read,NAK
4.054537500,4322,0x49,0xBD,Read,ACK
4.054592500,4322,0x49,0xBD,Read,NAK
4.059722500,4324,0x49,0xCC,Read,ACK
4.059777500,4324,0x49,0xCC,Read,NAK
4.061352500,,0x24,,Write,NAK
4.061682500,4328,0x40,0x6C,Write,ACK
4.061737500,4328,0x40,0x6C,Write,NAK
4.062067500,4330,0x41,0x4B,Read,ACK
4.062122500,4330,0x41,0x4B,Read,NAK
4.062377500,4332,0x49,0xBE,Read,ACK
4.062432500,4332,0x49,0xBE,Read,NAK
4.067562500,4334,0x49,0x8F,Read,ACK
4.067617500,4334,0x49,0x8F,Read,NAK
4.069247500,4336,0x40,0x70,Write,ACK
4.069302500,4336,0x40,0x70,Write,NAK
4.069632500,4338,0x41,0x93,Read,ACK
4.069687500,4338,0x41,0x93,Read,NAK
4.069942500,4340,0x49,0x7C,Read,ACK
4.069997500,4340,0x49,0x7C,Read,NAK
4.075127500,4342,0x49,0xBE,Read,ACK
4.075182500,4342,0x49,0xBE,Read,NAK
4.076812500,4344,0x40,0x74,Write,ACK
4.076867500,4344,0x40,0x74,Write,NAK
4.077197500,4346,0x41,0x7D,Read,ACK
4.077252500,4346,0x41,0x7D,Read,NAK
4.077507500,4348,0x49,0x6D,Read,ACK
4.077562500,4348,0x49,0x6D,Read,NAK
4.082692500,4350,0x49,0x7F,Read,ACK
4.082747500,4350,0x49,0x7F,Read,NAK
4.084377500,4352,0x40,0x78,Write,ACK
4.084432500,4352,0x40,0x78,Write,NAK
4.084762500,4354,0x41,0x92,Read,ACK
4.084817500,4354,0x41,0x92,Read,NAK
4.085072500,4356,0x49,0x9E,Read,ACK
4.085127500,4356,0x49,0x9E,Read,NAK
4.090257500,4358,0x49,0xE2,Read,ACK
4.090312500,4358,0x49,0xE2,Read,NAK
4.091942500,4360,0x40,0x7C,Write,ACK
4.091997500,4360,0x40,0x7C,Write,NAK
4.092327500,4362,0x41,0x6F,Read,ACK
4.092382500,4362,0x41,0x6F,Read,NAK
4.092637500,4364,0x49,0xCE,Read,ACK
4.092692500,4364,0x49,0xCE,Read,NAK
4.097822500,4366,0x49,0xAF,Read,ACK
4.097877500,4366,0x49,0xAF,Read,NAK
4.099507500,4368,0x40,0x80,Write,ACK
4.099562500,4368,0x40,0x80,Write,NAK
4.099892500,4370,0x41,0x53,Read,ACK
4.099947500,4370,0x41,0x53,Read,NAK
4.100202500,4372,0x49,0x88,Read,ACK
4.100257500,4372,0x49,0x88,Read,NAK
4.105387500,4374,0x49,0xBA,Read,ACK
4.105442500,4374,0x49,0xBA,Read,NAK
4.107072500,4376,0x40,0x84,Write,ACK
4.107127500,4376,0x40,0x84,Write,NAK
4.107457500,4378,0x41,0x57,Read,ACK
4.107512500,4378,0x41,0x57,Read,NAK
4.107767500,4380,0x49,0xA8,Read,ACK
4.107822500,4380,0x49,0xA8,Read,NAK
4.112952500,4382,0x49,0xD8,Read,ACK
4.113007500,4382,0x49,0xD8,Read,NAK
4.114637500,4384,0x40,0x88,Write,ACK
4.114692500,4384,0x40,0x88,Write,NAK
4.115022500,4386,0x41,0xAF,Read,ACK
4.115077500,4386,0x41,0xAF,Read,NAK
4.115332500,4388,0x49,0x94,Read,ACK
4.115387500,4388,0x49,0x94,Read,NAK
4.120517500,4390,0x49,0xA9,Read,ACK
4.120572500,4390,0x49,0xA9,Read,NAK
4.122202500,4392,0x40,0x8C,Write,ACK
4.122257500,4392,0x40,0x8C,Write,NAK
4.122587500,4394,0x41,0x64,Read,ACK
4.122642500,4394,0x41,0x64,Read,NAK
4.122897500,4396,0x49,0x89,Read,ACK
4.122952500,4396,0x49,0x89,Read,NAK
4.128082500,4398,0x49,0xAC,Read,ACK
4.128137500,4398,0x49,0xAC,Read,NAK
4.129767500,4400,0x40,0x90,Write,ACK
4.129822500,4400,0x40,0x90,Write,NAK
4.130152500,4402,0x41,0xAB,Read,ACK
4.130207500,4402,0x41,0xAB,Read,NAK
4.130462500,4404,0x49,0xB6,Read,ACK
4.130517500,4404,0x49,0xB6,Read,NAK
4.135647500,4406,0x49,0xA8,Read,ACK
4.135702500,4406,0x49,0xA8,Read,NAK
4.137332500,4408,0x40,0x94,Write,ACK
4.137387500,4408,0x40,0x94,Write,NAK
4.137717500,4410,0x41,0x92,Read,ACK
4.137772500,4410,0x41,0x92,Read,NAK
4.138027500,4412,0x49,0xD3,Read,ACK
4.138082500,4412,0x49,0xD3,Read,NAK
4.143212500,4414,0x49,0xA4,Read,ACK
4.143267500,4414,0x49,0xA4,Read,NAK
4.144897500,4416,0x40,0x98,Write,ACK
4.144952500,4416,0x40,0x98,Write,NAK
4.145282500,4418,0x41,0xAB,Read,ACK
4.145337500,4418,0x41,0xAB,Read,NAK
4.145592500,4420,0x49,0xCA,Read,ACK
4.145647500,4420,0x49,0xCA,Read,NAK
4.150777500,4422,0x49,0xFE,Read,ACK
4.150832500,4422,0x49,0xFE,Read,NAK
4.152462500,4424,0x40,0x9C,Write,ACK
4.152517500,4424,0x40,0x9C,Write,NAK
4.152847500,4426,0x41,0x9A,Read,ACK
4.152902500,4426,0x41,0x9A,Read,NAK
4.153157500,4428,0x49,0xB9,Read,ACK
4.153212500,4428,0x49,0xB9,Read,NAK
4.158342500,4430,0x49,0xF4,Read,ACK
4.158397500,4430,0x49,0xF4,Read,NAK
4.160027500,4432,0x40,0xA0,Write,ACK
4.160082500,4432,0x40,0xA0,Write,NAK
4.160412500,4434,0x41,0xA4,Read,ACK
4.160467500,4434,0x41,0xA4,Read,NAK
4.160722500,4436,0x49,0xEA,Read,ACK
4.160777500,4436,0x49,0xEA,Read,NAK
4.165907500,4438,0x49,0xAF,Read,ACK
4.165962500,4438,0x49,0xAF,Read,NAK
4.167592500,4440,0x40,0xA4,Write,ACK
4.167647500,4440,0x40,0xA4,Write,NAK
4.167977500,4442,0x41,0xC0,Read,ACK
4.168032500,4442,0x41,0xC0,Read,NAK
4.168287500,4444,0x49,0xEF,Read,ACK
4.168342500,4444,0x49,0xEF,Read,NAK
4.173472500,4446,0x49,0xE0,Read,ACK
4.173527500,4446,0x49,0xE0,Read,NAK
4.175157500,4448,0x40,0xA8,Write,ACK
4.175212500,4448,0x40,0xA8,Write,NAK
4.175542500,4450,0x41,0x7A,Read,ACK
4.175597500,4450,0x41,0x7A,Read,NAK
4.175852500,4452,0x49,0xBE,Read,ACK
4.175907500,4452,0x49,0xBE,Read,NAK
4.181037500,4454,0x49,0x0C,Read,ACK
4.181092500,4454,0x49,0x0C,Read,NAK
4.182722500,4456,0x40,0xAC,Write,ACK
4.182777500,4456,0x40,0xAC,Write,NAK
4.183107500,4458,0x41,0x9D,Read,ACK
4.183162500,4458,0x41,0x9D,Read,NAK
4.183417500,4460,0x49,0xE8,Read,ACK
4.183472500,4460,0x49,0xE8,Read,NAK
4.188602500,4462,0x49,0x05,Read,ACK
4.188657500,4462,0x49,0x05,Read,NAK
4.190232500,,0x24,,Write,NAK
4.190562500,4466,0x40,0xB0,Write,ACK
4.190617500,4466,0x40,0xB0,Write,NAK
4.190947500,4468,0x41,0x8C,Read,ACK
4.191002500,4468,0x41,0x8C,Read,NAK
4.191257500,4470,0x49,0xDA,Read,ACK
4.191312500,4470,0x49,0xDA,Read,NAK
4.196442500,4472,0x49,0xC7,Read,ACK
4.196497500,4472,0x49,0xC7,Read,NAK
4.198127500,4474,0x40,0xB4,Write,ACK
4.198182500,4474,0x40,0xB4,Write,NAK
4.198512500,4476,0x41,0xCB,Read,ACK
4.198567500,4476,0x41,0xCB,Read,NAK
4.198822500,4478,0x49,0xC3,Read,ACK
4.198877500,4478,0x49,0xC3,Read,NAK
4.204007500,4480,0x49,0xC1,Read,ACK
4.204062500,4480,0x49,0xC1,Read,NAK
4.205692500,4482,0x40,0xB8,Write,ACK
4.205747500,4482,0x40,0xB8,Write,NAK
4.206077500,4484,0x41,0xD7,Read,ACK
4.206132500,4484,0x41,0xD7,Read,NAK
4.206387500,4486,0x49,0xAF,Read,ACK
4.206442500,4486,0x49,0xAF,Read,NAK
4.211572500,4488,0x49,0xD1,Read,ACK
4.211627500,4488,0x49,0xD1,Read,NAK
4.213257500,4490,0x40,0xBC,Write,ACK
4.213312500,4490,0x40,0xBC,Write,NAK
4.213642500,4492,0x41,0xE3,Read,ACK
4.213697500,4492,0x41,0xE3,Read,NAK
4.213952500,4494,0x49,0xE5,Read,ACK
4.214007500,4494,0x49,0xE5,Read,NAK
4.219137500,4496,0x49,0xF6,Read,ACK
4.219192500,4496,0x49,0xF6,Read,NAK
4.220822500,4498,0x40,0xC0,Write,ACK
4.220877500,4498,0x40,0xC0,Write,NAK
4.221207500,4500,0x41,0xAD,Read,ACK
4.221262500,4500,0x41,0xAD,Read,NAK
4.221517500,4502,0x49,0xC1,Read,ACK
4.221572500,4502,0x49,0xC1,Read,NAK
4.226702500,4504,0x49,0xDD,Read,ACK
4.226757500,4504,0x49,0xDD,Read,NAK
4.228387500,4506,0x40,0xC4,Write,ACK
4.228442500,4506,0x40,0xC4,Write,NAK
4.228772500,4508,0x41,0xEE,Read,ACK
4.228827500,4508,0x41,0xEE,Read,NAK
4.229082500,4510,0x49,0xD6,Read,ACK
4.229137500,4510,0x49,0xD6,Read,NAK
4.234267500,4512,0x49,0xFB,Read,ACK
4.234322500,4512,0x49,0xFB,Read,NAK
4.235952500,4514,0x40,0xC8,Write,ACK
4.236007500,4514,0x40,0xC8,Write,NAK
4.236337500,4516,0x41,0x9E,Read,ACK
4.236392500,4516,0x41,0x9E,Read,NAK
4.236647500,4518,0x49,0xE7,Read,ACK
4.236702500,4518,0x49,0xE7,Read,NAK
4.241832500,4520,0x49,0x22,Read,ACK
4.241887500,4520,0x49,0x22,Read,NAK
4.243517500,4522,0x40,0xCC,Write,ACK
4.243572500,4522,0x40,0xCC,Write,NAK
4.243902500,4524,0x41,0xA1,Read,ACK
4.243957500,4524,0x41,0xA1,Read,NAK
4.244212500,4526,0x49,0x03,Read,ACK
4.244267500,4526,0x49,0x03,Read,NAK
4.249397500,4528,0x49,0xEA,Read,ACK
4.249452500,4528,0x49,0xEA,Read,NAK
4.251082500,4530,0x40,0xD0,Write,ACK
4.251137500,4530,0x40,0xD0,Write,NAK
4.251467500,4532,0x41,0xAB,Read,ACK
4.251522500,4532,0x41,0xAB,Read,NAK
4.251777500,4534,0x49,0x21,Read,ACK
4.251832500,4534,0x49,0x21,Read,NAK
4.256962500,4536,0x49,0xDB,Read,ACK
4.257017500,4536,0x49,0xDB,Read,NAK
4.258647500,4538,0x40,0xD4,Write,ACK
4.258702500,4538,0x40,0xD4,Write,NAK
4.259032500,4540,0x41,0xAF,Read,ACK
4.259087500,4540,0x41,0xAF,Read,NAK
4.259342500,4542,0x49,0x08,Read,ACK
4.259397500,4542,0x49,0x08,Read,NAK
4.264527500,4544,0x49,0x09,Read,ACK
4.264582500,4544,0x49,0x09,Read,NAK
4.266212500,4546,0x40,0xD8,Write,ACK
4.266267500,4546,0x40,0xD8,Write,NAK
4.266597500,4548,0x41,0xB2,Read,ACK
4.266652500,4548,0x41,0xB2,Read,NAK
4.266907500,4550,0x49,0xDE,Read,ACK
4.266962500,4550,0x49,0xDE,Read,NAK
4.272092500,4552,0x49,0x0B,Read,ACK
4.272147500,4552,0x49,0x0B,Read,NAK
4.273777500,4554,0x40,0xDC,Write,ACK
4.273832500,4554,0x40,0xDC,Write,NAK
4.274162500,4556,0x41,0xE9,Read,ACK
4.274217500,4556,0x41,0xE9,Read,NAK
4.274472500,4558,0x49,0x01,Read,ACK
4.274527500,4558,0x49,0x01,Read,NAK
4.279657500,4560,0x49,0x23,Read,ACK
4.279712500,4560,0x49,0x23,Read,NAK
4.281342500,4562,0x40,0xE0,Write,ACK
4.281397500,4562,0x40,0xE0,Write,NAK
4.281727500,4564,0x41,0xE4,Read,ACK
4.281782500,4564,0x41,0xE4,Read,NAK
4.282037500,4566,0x49,0x2C,Read,ACK
4.282092500,4566,0x49,0x2C,Read,NAK
4.287222500,4568,0x49,0xFE,Read,ACK
4.287277500,4568,0x49,0xFE,Read,NAK
4.288907500,4570,0x40,0xE4,Write,ACK
4.288962500,4570,0x40,0xE4,Write,NAK
4.289292500,4572,0x41,0xBC,Read,ACK
4.289347500,4572,0x41,0xBC,Read,NAK
4.289602500,4574,0x49,0x21,Read,ACK
4.289657500,4574,0x49,0x21,Read,NAK
4.294787500,4576,0x49,0xFA,Read,ACK
4.294842500,4576,0x49,0xFA,Read,NAK
4.296472500,4578,0x40,0xE8,Write,ACK
4.296527500,4578,0x40,0xE8,Write,NAK
4.296857500,4580,0x41,0xF2,Read,ACK
4.296912500,4580,0x41,0xF2,Read,NAK
4.297167500,4582,0x49,0x40,Read,ACK
4.297222500,4582,0x49,0x40,Read,NAK
4.302352500,4584,0x49,0x0C,Read,ACK
4.302407500,4584,0x49,0x0C,Read,NAK
4.304037500,4586,0x40,0xEC,Write,ACK
4.304092500,4586,0x40,0xEC,Write,NAK
4.304422500,4588,0x41,0xF5,Read,ACK
4.304477500,4588,0x41,0xF5,Read,NAK
4.304732500,4590,0x49,0xE6,Read,ACK
4.304787500,4590,0x49,0xE6,Read,NAK
4.309917500,4592,0x49,0xFB,Read,ACK
4.309972500,4592,0x49,0xFB,Read,NAK
4.311602500,4594,0x40,0xF0,Write,ACK
4.311657500,4594,0x40,0xF0,Write,NAK
4.311987500,4596,0x41,0x1A,Read,ACK
4.312042500,4596,0x41,0x1A,Read,NAK
4.312297500,4598,0x49,0x26,Read,ACK
4.312352500,4598,0x49,0x26,Read,NAK
4.317482500,4600,0x49,0x47,Read,ACK
4.317537500,4600,0x49,0x47,Read,NAK
4.319167500,4602,0x40,0xF4,Write,ACK
4.319222500,4602,0x40,0xF4,Write,NAK
4.319552500,4604,0x41,0x0D,Read,ACK
4.319607500,4604,0x41,0x0D,Read,NAK
4.319862500,4606,0x49,0x04,Read,ACK
4.319917500,4606,0x49,0x04,Read,NAK
4.325047500,4608,0x49,0x42,Read,ACK
4.325102500,4608,0x49,0x42,Read,NAK
4.326732500,4610,0x40,0xF8,Write,ACK
4.326787500,4610,0x40,0xF8,Write,NAK
4.327117500,4612,0x41,0x20,Read,ACK
4.327172500,4612,0x41,0x20,Read,NAK
4.327427500,4614,0x49,0xFD,Read,ACK
4.327482500,4614,0x49,0xFD,Read,NAK
4.332612500,4616,0x49,0x37,Read,ACK
4.332667500,4616,0x49,0x37,Read,NAK
4.334297500,4618,0x40,0xFC,Write,ACK
4.334352500,4618,0x40,0xFC,Write,NAK
4.334682500,4620,0x41,0xD4,Read,ACK
4.334737500,4620,0x41,0xD4,Read,NAK
4.334992500,4622,0x49,0x3A,Read,ACK
4.335047500,4622,0x49,0x3A,Read,NAK
4.340177500,4624,0x49,0x12,Read,ACK
4.340232500,4624,0x49,0x12,Read,NAK
4.341862500,4626,0x40,0x00,Write,ACK
4.341917500,4626,0x40,0x00,Write,NAK
4.342247500,4628,0x41,0x04,Read,ACK
4.342302500,4628,0x41,0x04,Read,NAK
4.342557500,4630,0x49,0x50,Read,ACK
4.342612500,4630,0x49,0x50,Read,NAK
4.347742500,4632,0x49,0x5A,Read,ACK
4.347797500,4632,0x49,0x5A,Read,NAK
4.349427500,4634,0x40,0x04,Write,ACK
4.349482500,4634,0x40,0x04,Write,NAK
4.349812500,4636,0x41,0x0B,Read,ACK
4.349867500,4636,0x41,0x0B,Read,NAK
4.350122500,4638,0x49,0x5C,Read,ACK
4.350177500,4638,0x49,0x5C,Read,NAK
4.355307500,4640,0x49,0x0E,Read,ACK
4.355362500,4640,0x49,0x0E,Read,NAK
4.356992500,4642,0x40,0x08,Write,ACK
4.357047500,4642,0x40,0x08,Write,NAK
4.357377500,4644,0x41,0x02,Read,ACK
4.357432500,4644,0x41,0x02,Read,NAK
4.357687500,4646,0x49,0x53,Read,ACK
4.357742500,4646,0x49,0x53,Read,NAK
4.362872500,4648,0x49,0x13,Read,ACK
4.362927500,4648,0x49,0x13,Read,NAK
4.364557500,4650,0x40,0x0C,Write,ACK
4.364612500,4650,0x40,0x0C,Write,NAK
4.364942500,4652,0x41,0xFF,Read,ACK
4.364997500,4652,0x41,0xFF,Read,NAK
4.365252500,4654,0x49,0x42,Read,ACK
4.365307500,4654,0x49,0x42,Read,NAK
4.370437500,4656,0x49,0x73,Read,ACK
4.370492500,4656,0x49,0x73,Read,NAK
4.372122500,4658,0x40,0x10,Write,ACK
4.372177500,4658,0x40,0x10,Write,NAK
4.372507500,4660,0x41,0x2B,Read,ACK
4.372562500,4660,0x41,0x2B,Read,NAK
4.372817500,4662,0x49,0x52,Read,ACK
4.372872500,4662,0x49,0x52,Read,NAK
4.378002500,4664,0x49,0x4D,Read,ACK
4.378057500,4664,0x49,0x4D,Read,NAK
4.379632500,,0x24,,Write,NAK
4.379962500,4668,0x40,0x14,Write,ACK
4.380017500,4668,0x40,0x14,Write,NAK
4.380347500,4670,0x41,0x14,Read,ACK
4.380402500,4670,0x41,0x14,Read,NAK
4.380657500,4672,0x49,0x58,Read,ACK
4.380712500,4672,0x49,0x58,Read,NAK
4.385842500,4674,0x49,0x22,Read,ACK
4.385897500,4674,0x49,0x22,Read,NAK
4.387527500,4676,0x40,0x18,Write,ACK
4.387582500,4676,0x40,0x18,Write,NAK
4.387912500,4678,0x41,0x0F,Read,ACK
4.387967500,4678,0x41,0x0F,Read,NAK
4.388222500,4680,0x49,0x1D,Read,ACK
4.388277500,4680,0x49,0x1D,Read,NAK
4.393407500,4682,0x49,0x28,Read,ACK
4.393462500,4682,0x49,0x28,Read,NAK
4.395037500,,0x24,,Write,NAK
4.395367500,4686,0x40,0x1C,Write,ACK
4.395422500,4686,0x40,0x1C,Write,NAK
4.395752500,4688,0x41,0x3D,Read,ACK
4.395807500,4688,0x41,0x3D,Read,NAK
4.396062500,4690,0x49,0x2A,Read,ACK
4.396117500,4690,0x49,0x2A,Read,NAK
4.401247500,4692,0x49,0x47,Read,ACK
4.401302500,4692,0x49,0x47,Read,NAK
4.402932500,4694,0x40,0x20,Write,ACK
4.402987500,4694,0x40,0x20,Write,NAK
4.403317500,4696,0x41,0xF8,Read,ACK
4.403372500,4696,0x41,0xF8,Read,NAK
4.403627500,4698,0x49,0x29,Read,ACK
4.403682500,4698,0x49,0x29,Read,NAK
4.408812500,4700,0x49,0x3D,Read,ACK
4.408867500,4700,0x49,0x3D,Read,NAK
4.410497500,4702,0x40,0x24,Write,ACK
4.410552500,4702,0x40,0x24,Write,NAK
4.410882500,4704,0x41,0x33,Read,ACK
4.410937500,4704,0x41,0x33,Read,NAK
4.411192500,4706,0x49,0x68,Read,ACK
4.411247500,4706,0x49,0x68,Read,NAK
4.416377500,4708,0x49,0x2F,Read,ACK
4.416432500,4708,0x49,0x2F,Read,NAK
4.418062500,4710,0x40,0x28,Write,ACK
4.418117500,4710,0x40,0x28,Write,NAK
4.418447500,4712,0x41,0x01,Read,ACK
4.418502500,4712,0x41,0x01,Read,NAK
4.418757500,4714,0x49,0x5A,Read,ACK
4.418812500,4714,0x49,0x5A,Read,NAK
4.423942500,4716,0x49,0x80,Read,ACK
4.423997500,4716,0x49,0x80,Read,NAK
4.425627500,4718,0x40,0x2C,Write,ACK
4.425682500,4718,0x40,0x2C,Write,NAK
4.426012500,4720,0x41,0x43,Read,ACK
4.426067500,4720,0x41,0x43,Read,NAK
4.426322500,4722,0x49,0x3F,Read,ACK
4.426377500,4722,0x49,0x3F,Read,NAK
4.431507500,4724,0x49,0x61,Read,ACK
4.431562500,4724,0x49,0x61,Read,NAK
4.433192500,4726,0x40,0x30,Write,ACK
4.433247500,4726,0x40,0x30,Write,NAK
4.433577500,4728,0x41,0x00,Read,ACK
4.433632500,4728,0x41,0x00,Read,NAK
4.433887500,4730,0x49,0x5A,Read,ACK
4.433942500,4730,0x49,0x5A,Read,NAK
4.439072500,4732,0x49,0x7D,Read,ACK
4.439127500,4732,0x49,0x7D,Read,NAK
4.440702500,,0x24,,Write,NAK
4.441032500,4736,0x40,0x34,Write,ACK
4.441087500,4736,0x40,0x34,Write,NAK
4.441417500,4738,0x41,0x1C,Read,ACK
4.441472500,4738,0x41,0x1C,Read,NAK
4.441727500,4740,0x49,0x77,Read,ACK
4.441782500,4740,0x49,0x77,Read,NAK
4.446912500,4742,0x49,0x44,Read,ACK
4.446967500,4742,0x49,0x44,Read,NAK
4.448597500,4744,0x40,0x38,Write,ACK
4.448652500,4744,0x40,0x38,Write,NAK
4.448982500,4746,0x41,0x5E,Read,ACK
4.449037500,4746,0x41,0x5E,Read,NAK
4.449292500,4748,0x49,0x74,Read,ACK
4.449347500,4748,0x49,0x74,Read,NAK
4.454477500,4750,0x49,0x97,Read,ACK
4.454532500,4750,0x49,0x97,Read,NAK
4.456162500,4752,0x40,0x3C,Write,ACK
4.456217500,4752,0x40,0x3C,Write,NAK
4.456547500,4754,0x41,0x35,Read,ACK
4.456602500,4754,0x41,0x35,Read,NAK
4.456857500,4756,0x49,0x4A,Read,ACK
4.456912500,4756,0x49,0x4A,Read,NAK
4.462042500,4758,0x49,0x5F,Read,ACK
4.462097500,4758,0x49,0x5F,Read,NAK
4.463727500,4760,0x40,0x40,Write,ACK
4.463782500,4760,0x40,0x40,Write,NAK
4.464112500,4762,0x41,0x6A,Read,ACK
4.464167500,4762,0x41,0x6A,Read,NAK
4.464422500,4764,0x49,0x39,Read,ACK
4.464477500,4764,0x49,0x39,Read,NAK
4.469607500,4766,0x49,0x70,Read,ACK
4.469662500,4766,0x49,0x70,Read,NAK
4.471292500,4768,0x40,0x44,Write,ACK
4.471347500,4768,0x40,0x44,Write,NAK
4.471677500,4770,0x41,0x5F,Read,ACK
4.471732500,4770,0x41,0x5F,Read,NAK
4.471987500,4772,0x49,0x9B,Read,ACK
4.472042500,4772,0x49,0x9B,Read,NAK
4.477172500,4774,0x49,0x6E,Read,ACK
4.477227500,4774,0x49,0x6E,Read,NAK
4.478857500,4776,0x40,0x48,Write,ACK
4.478912500,4776,0x40,0x48,Write,NAK
4.479242500,4778,0x41,0x4C,Read,ACK
4.479297500,4778,0x41,0x4C,Read,NAK
4.479552500,4780,0x49,0x82,Read,ACK
4.479607500,4780,0x49,0x82,Read,NAK
4.484737500,4782,0x49,0x53,Read,ACK
4.484792500,4782,0x49,0x53,Read,NAK
4.486422500,4784,0x40,0x4C,Write,ACK
4.486477500,4784,0x40,0x4C,Write,NAK
4.486807500,4786,0x41,0x77,Read,ACK
4.486862500,4786,0x41,0x77,Read,NAK
4.487117500,4788,0x49,0x44,Read,ACK
4.487172500,4788,0x49,0x44,Read,NAK
4.492302500,4790,0x49,0x80,Read,ACK
4.492357500,4790,0x49,0x80,Read,NAK
4.493987500,4792,0x40,0x50,Write,ACK
4.494042500,4792,0x40,0x50,Write,NAK
4.494372500,4794,0x41,0x51,Read,ACK
4.494427500,4794,0x41,0x51,Read,NAK
4.494682500,4796,0x49,0x55,Read,ACK
4.494737500,4796,0x49,0x55,Read,NAK
4.499867500,4798,0x49,0x67,Read,ACK
4.499922500,4798,0x49,0x67,Read,NAK
4.501552500,4800,0x40,0x54,Write,ACK
4.501607500,4800,0x40,0x54,Write,NAK
4.501937500,4802,0x41,0x7A,Read,ACK
4.501992500,4802,0x41,0x7A,Read,NAK
4.502247500,4804,0x49,0x97,Read,ACK
4.502302500,4804,0x49,0x97,Read,NAK
4.507432500,4806,0x49,0x68,Read,ACK
4.507487500,4806,0x49,0x68,Read,NAK
4.509117500,4808,0x40,0x58,Write,ACK
4.509172500,4808,0x40,0x58,Write,NAK
4.509502500,4810,0x41,0x85,Read,ACK
4.509557500,4810,0x41,0x85,Read,NAK
4.509812500,4812,0x49,0x83,Read,ACK
4.509867500,4812,0x49,0x83,Read,NAK
4.514997500,4814,0x49,0xA2,Read,ACK
4.515052500,4814,0x49,0xA2,Read,NAK
4.516682500,4816,0x40,0x5C,Write,ACK
4.516737500,4816,0x40,0x5C,Write,NAK
4.517067500,4818,0x41,0x74,Read,ACK
4.517122500,4818,0x41,0x74,Read,NAK
4.517377500,4820,0x49,0x81,Read,ACK
4.517432500,4820,0x49,0x81,Read,NAK
4.522562500,4822,0x49,0x9F,Read,ACK
4.522617500,4822,0x49,0x9F,Read,NAK
4.524247500,4824,0x40,0x60,Write,ACK
4.524302500,4824,0x40,0x60,Write,NAK
4.524632500,4826,0x41,0x5C,Read,ACK
4.524687500,4826,0x41,0x5C,Read,NAK
4.524942500,4828,0x49,0x57,Read,ACK
4.524997500,4828,0x49,0x57,Read,NAK
4.530127500,4830,0x49,0x92,Read,ACK
4.530182500,4830,0x49,0x92,Read,NAK
4.531812500,4832,0x40,0x64,Write,ACK
4.531867500,4832,0x40,0x64,Write,NAK
4.532197500,4834,0x41,0x90,Read,ACK
4.532252500,4834,0x41,0x90,Read,NAK
4.532507500,4836,0x49,0xA8,Read,ACK
4.532562500,4836,0x49,0xA8,Read,NAK
4.537692500,4838,0x49,0x8A,Read,ACK
4.537747500,4838,0x49,0x8A,Read,NAK
4.539377500,4840,0x40,0x68,Write,ACK
4.539432500,4840,0x40,0x68,Write,NAK
4.539762500,4842,0x41,0x94,Read,ACK
4.539817500,4842,0x41,0x94,Read,NAK
4.540072500,4844,0x49,0x82,Read,ACK
4.540127500,4844,0x49,0x82,Read,NAK
4.545257500,4846,0x49,0xCE,Read,ACK
4.545312500,4846,0x49,0xCE,Read,NAK
4.546942500,4848,0x40,0x6C,Write,ACK
4.546997500,4848,0x40,0x6C,Write,NAK
4.547327500,4850,0x41,0x90,Read,ACK
4.547382500,4850,0x41,0x90,Read,NAK
4.547637500,4852,0x49,0xBE,Read,ACK
4.547692500,4852,0x49,0xBE,Read,NAK
4.552822500,4854,0x49,0xA6,Read,ACK
4.552877500,4854,0x49,0xA6,Read,NAK
4.554507500,4856,0x40,0x70,Write,ACK
4.554562500,4856,0x40,0x70,Write,NAK
4.554892500,4858,0x41,0x41,Read,ACK
4.554947500,4858,0x41,0x41,Read,NAK
4.555202500,4860,0x49,0x79,Read,ACK
4.555257500,4860,0x49,0x79,Read,NAK
4.560387500,4862,0x49,0x9A,Read,ACK
4.560442500,4862,0x49,0x9A,Read,NAK
4.562072500,4864,0x40,0x74,Write,ACK
4.562127500,4864,0x40,0x74,Write,NAK
4.562457500,4866,0x41,0x9E,Read,ACK
4.562512500,4866,0x41,0x9E,Read,NAK
4.562767500,4868,0x49,0x6A,Read,ACK
4.562822500,4868,0x49,0x6A,Read,NAK
4.567952500,4870,0x49,0xA2,Read,ACK
4.568007500,4870,0x49,0xA2,Read,NAK
4.569637500,4872,0x40,0x78,Write,ACK
4.569692500,4872,0x40,0x78,Write,NAK
4.570022500,4874,0x41,0x78,Read,ACK
4.570077500,4874,0x41,0x78,Read,NAK
4.570332500,4876,0x49,0xA8,Read,ACK
4.570387500,4876,0x49,0xA8,Read,NAK
4.575517500,4878,0x49,0xA9,Read,ACK
4.575572500,4878,0x49,0xA9,Read,NAK
4.577202500,4880,0x40,0x7C,Write,ACK
4.577257500,4880,0x40,0x7C,Write,NAK
4.577587500,4882,0x41,0x4C,Read,ACK
4.577642500,4882,0x41,0x4C,Read,NAK
4.577897500,4884,0x49,0xA8,Read,ACK
4.577952500,4884,0x49,0xA8,Read,NAK
4.583082500,4886,0x49,0x8D,Read,ACK
4.583137500,4886,0x49,0x8D,Read,NAK
4.584767500,4888,0x40,0x80,Write,ACK
4.584822500,4888,0x40,0x80,Write,NAK
4.585152500,4890,0x41,0x81,Read,ACK
4.585207500,4890,0x41,0x81,Read,NAK
4.585462500,4892,0x49,0xAB,Read,ACK
4.585517500,4892,0x49,0xAB,Read,NAK
4.590647500,4894,0x49,0xE3,Read,ACK
4.590702500,4894,0x49,0xE3,Read,NAK
4.592332500,4896,0x40,0x84,Write,ACK
4.592387500,4896,0x40,0x84,Write,NAK
4.592717500,4898,0x41,0xA2,Read,ACK
4.592772500,4898,0x41,0xA2,Read,NAK
4.593027500,4900,0x49,0x91,Read,ACK
4.593082500,4900,0x49,0x91,Read,NAK
4.598212500,4902,0x49,0xCD,Read,ACK
4.598267500,4902,0x49,0xCD,Read,NAK
4.599897500,4904,0x40,0x88,Write,ACK
4.599952500,4904,0x40,0x88,Write,NAK
4.600282500,4906,0x41,0x5D,Read,ACK
4.600337500,4906,0x41,0x5D,Read,NAK
4.600592500,4908,0x49,0x8C,Read,ACK
4.600647500,4908,0x49,0x8C,Read,NAK
4.605777500,4910,0x49,0xAD,Read,ACK
4.605832500,4910,0x49,0xAD,Read,NAK
4.607462500,4912,0x40,0x8C,Write,ACK
4.607517500,4912,0x40,0x8C,Write,NAK
4.607847500,4914,0x41,0x5C,Read,ACK
4.607902500,4914,0x41,0x5C,Read,NAK
4.608157500,4916,0x49,0xD4,Read,ACK
4.608212500,4916,0x49,0xD4,Read,NAK
4.613342500,4918,0x49,0xF6,Read,ACK
4.613397500,4918,0x49,0xF6,Read,NAK
4.615027500,4920,0x40,0x90,Write,ACK
4.615082500,4920,0x40,0x90,Write,NAK
4.615412500,4922,0x41,0x8F,Read,ACK
4.615467500,4922,0x41,0x8F,Read,NAK
4.615722500,4924,0x49,0xA8,Read,ACK
4.615777500,4924,0x49,0xA8,Read,NAK
4.620907500,4926,0x49,0xA8,Read,ACK
4.620962500,4926,0x49,0xA8,Read,NAK
4.622592500,4928,0x40,0x94,Write,ACK
4.622647500,4928,0x40,0x94,Write,NAK
4.622977500,4930,0x41,0x81,Read,ACK
4.623032500,4930,0x41,0x81,Read,NAK
4.623287500,4932,0x49,0xC3,Read,ACK
4.623342500,4932,0x49,0xC3,Read,NAK
4.628472500,4934,0x49,0xFD,Read,ACK
4.628527500,4934,0x49,0xFD,Read,NAK
4.630157500,4936,0x40,0x98,Write,ACK
4.630212500,4936,0x40,0x98,Write,NAK
4.630542500,4938,0x41,0x71,Read,ACK
4.630597500,4938,0x41,0x71,Read,NAK
4.630852500,4940,0x49,0xEA,Read,ACK
4.630907500,4940,0x49,0xEA,Read,NAK
4.636037500,4942,0x49,0xB8,Read,ACK
4.636092500,4942,0x49,0xB8,Read,NAK
4.637722500,4944,0x40,0x9C,Write,ACK
4.637777500,4944,0x40,0x9C,Write,NAK
4.638107500,4946,0x41,0x95,Read,ACK
4.638162500,4946,0x41,0x95,Read,NAK
4.638417500,4948,0x49,0xE9,Read,ACK
4.638472500,4948,0x49,0xE9,Read,NAK
4.643602500,4950,0x49,0xC1,Read,ACK
4.643657500,4950,0x49,0xC1,Read,NAK
4.645287500,4952,0x40,0xA0,Write,ACK
4.645342500,4952,0x40,0xA0,Write,NAK
4.645672500,4954,0x41,0x92,Read,ACK
4.645727500,4954,0x41,0x92,Read,NAK
4.645982500,4956,0x49,0xAC,Read,ACK
4.646037500,4956,0x49,0xAC,Read,NAK
4.651167500,4958,0x49,0xE3,Read,ACK
4.651222500,4958,0x49,0xE3,Read,NAK
4.652852500,4960,0x40,0xA4,Write,ACK
4.652907500,4960,0x40,0xA4,Write,NAK
4.653237500,4962,0x41,0x9B,Read,ACK
4.653292500,4962,0x41,0x9B,Read,NAK
4.653547500,4964,0x49,0xB5,Read,ACK
4.653602500,4964,0x49,0xB5,Read,NAK
4.658732500,4966,0x49,0xB6,Read,ACK
4.658787500,4966,0x49,0xB6,Read,NAK
4.660417500,4968,0x40,0xA8,Write,ACK
4.660472500,4968,0x40,0xA8,Write,NAK
4.660802500,4970,0x41,0xCF,Read,ACK
4.660857500,4970,0x41,0xCF,Read,NAK
4.661112500,4972,0x49,0xC7,Read,ACK
4.661167500,4972,0x49,0xC7,Read,NAK
4.666297500,4974,0x49,0xBA,Read,ACK
4.666352500,4974,0x49,0xBA,Read,NAK
4.667982500,4976,0x40,0xAC,Write,ACK
4.668037500,4976,0x40,0xAC,Write,NAK
4.668367500,4978,0x41,0xC1,Read,ACK
4.668422500,4978,0x41,0xC1,Read,NAK
4.668677500,4980,0x49,0xAC,Read,ACK
4.668732500,4980,0x49,0xAC,Read,NAK
4.673862500,4982,0x49,0xC0,Read,ACK
4.673917500,4982,0x49,0xC0,Read,NAK
4.675547500,4984,0x40,0xB0,Write,ACK
4.675602500,4984,0x40,0xB0,Write,NAK
4.675932500,4986,0x41,0xDB,Read,ACK
4.675987500,4986,0x41,0xDB,Read,NAK
4.676242500,4988,0x49,0xF9,Read,ACK
4.676297500,4988,0x49,0xF9,Read,NAK
4.681427500,4990,0x49,0xD6,Read,ACK
4.681482500,4990,0x49,0xD6,Read,NAK
4.683112500,4992,0x40,0xB4,Write,ACK
4.683167500,4992,0x40,0xB4,Write,NAK
4.683497500,4994,0x41,0xA6,Read,ACK
4.683552500,4994,0x41,0xA6,Read,NAK
4.683807500,4996,0x49,0xFB,Read,ACK
4.683862500,4996,0x49,0xFB,Read,NAK
4.688992500,4998,0x49,0x04,Read,ACK
4.689047500,4998,0x49,0x04,Read,NAK
4.690677500,5000,0x40,0xB8,Write,ACK
4.690732500,5000,0x40,0xB8,Write,NAK
4.691062500,5002,0x41,0xCB,Read,ACK
4.691117500,5002,0x41,0xCB,Read,NAK
4.691372500,5004,0x49,0xE0,Read,ACK
4.691427500,5004,0x49,0xE0,Read,NAK
4.696557500,5006,0x49,0x10,Read,ACK
4.696612500,5006,0x49,0x10,Read,NAK
4.698187500,,0x24,,Write,NAK
4.698517500,5010,0x40,0xBC,Write,ACK
4.698572500,5010,0x40,0xBC,Write,NAK
4.698902500,5012,0x41,0xAB,Read,ACK
4.698957500,5012,0x41,0xAB,Read,NAK
4.699212500,5014,0x49,0xBD,Read,ACK
4.699267500,5014,0x49,0xBD,Read,NAK
4.704397500,5016,0x49,0x0E,Read,ACK
4.704452500,5016,0x49,0x0E,Read,NAK
4.706082500,5018,0x40,0xC0,Write,ACK
4.706137500,5018,0x40,0xC0,Write,NAK
4.706467500,5020,0x41,0xDF,Read,ACK
4.706522500,5020,0x41,0xDF,Read,NAK
4.706777500,5022,0x49,0x0D,Read,ACK
4.706832500,5022,0x49,0x0D,Read,NAK
4.711962500,5024,0x49,0x01,Read,ACK
4.712017500,5024,0x49,0x01,Read,NAK
4.713647500,5026,0x40,0xC4,Write,ACK
4.713702500,5026,0x40,0xC4,Write,NAK
4.714032500,5028,0x41,0xD0,Read,ACK
4.714087500,5028,0x41,0xD0,Read,NAK
4.714342500,5030,0x49,0xFF,Read,ACK
4.714397500,5030,0x49,0xFF,Read,NAK
4.719527500,5032,0x49,0x26,Read,ACK
4.719582500,5032,0x49,0x26,Read,NAK
4.721212500,5034,0x40,0xC8,Write,ACK
4.721267500,5034,0x40,0xC8,Write,NAK
4.721597500,5036,0x41,0xD0,Read,ACK
4.721652500,5036,0x41,0xD0,Read,NAK
4.721907500,5038,0x49,0xC0,Read,ACK
4.721962500,5038,0x49,0xC0,Read,NAK
4.727092500,5040,0x49,0x0A,Read,ACK
4.727147500,5040,0x49,0x0A,Read,NAK
4.728777500,5042,0x40,0xCC,Write,ACK
4.728832500,5042,0x40,0xCC,Write,NAK
4.729162500,5044,0x41,0xD7,Read,ACK
4.729217500,5044,0x41,0xD7,Read,NAK
4.729472500,5046,0x49,0xDA,Read,ACK
4.729527500,5046,0x49,0xDA,Read,NAK
4.734657500,5048,0x49,0x1A,Read,ACK
4.734712500,5048,0x49,0x1A,Read,NAK
4.736342500,5050,0x40,0xD0,Write,ACK
4.736397500,5050,0x40,0xD0,Write,NAK
4.736727500,5052,0x41,0xA1,Read,ACK
4.736782500,5052,0x41,0xA1,Read,NAK
4.737037500,5054,0x49,0xFC,Read,ACK
4.737092500,5054,0x49,0xFC,Read,NAK
4.742222500,5056,0x49,0x05,Read,ACK
4.742277500,5056,0x49,0x05,Read,NAK
4.743907500,5058,0x40,0xD4,Write,ACK
4.743962500,5058,0x40,0xD4,Write,NAK
4.744292500,5060,0x41,0xC1,Read,ACK
4.744347500,5060,0x41,0xC1,Read,NAK
4.744602500,5062,0x49,0xDD,Read,ACK
4.744657500,5062,0x49,0xDD,Read,NAK
4.749787500,5064,0x49,0xE2,Read,ACK
4.749842500,5064,0x49,0xE2,Read,NAK
4.751472500,5066,0x40,0xD8,Write,ACK
4.751527500,5066,0x40,0xD8,Write,NAK
4.751857500,5068,0x41,0xB7,Read,ACK
4.751912500,5068,0x41,0xB7,Read,NAK
4.752167500,5070,0x49,0x26,Read,ACK
4.752222500,5070,0x49,0x26,Read,NAK
4.757352500,5072,0x49,0x30,Read,ACK
4.757407500,5072,0x49,0x30,Read,NAK
4.759037500,5074,0x40,0xDC,Write,ACK
4.759092500,5074,0x40,0xDC,Write,NAK
4.759422500,5076,0x41,0x09,Read,ACK
4.759477500,5076,0x41,0x09,Read,NAK
4.759732500,5078,0x49,0xDA,Read,ACK
4.759787500,5078,0x49,0xDA,Read,NAK
4.764917500,5080,0x49,0x0A,Read,ACK
4.764972500,5080,0x49,0x0A,Read,NAK
4.766602500,5082,0x40,0xE0,Write,ACK
4.766657500,5082,0x40,0xE0,Write,NAK
4.766987500,5084,0x41,0x09,Read,ACK
4.767042500,5084,0x41,0x09,Read,NAK
4.767297500,5086,0x49,0x37,Read,ACK
4.767352500,5086,0x49,0x37,Read,NAK
4.772482500,5088,0x49,0xF9,Read,ACK
4.772537500,5088,0x49,0xF9,Read,NAK
4.774167500,5090,0x40,0xE4,Write,ACK
4.774222500,5090,0x40,0xE4,Write,NAK
4.774552500,5092,0x41,0xF0,Read,ACK
4.774607500,5092,0x41,0xF0,Read,NAK
4.774862500,5094,0x49,0xE4,Read,ACK
4.774917500,5094,0x49,0xE4,Read,NAK
4.780047500,5096,0x49,0x34,Read,ACK
4.780102500,5096,0x49,0x34,Read,NAK
4.781732500,5098,0x40,0xE8,Write,ACK
4.781787500,5098,0x40,0xE8,Write,NAK
4.782117500,5100,0x41,0xF2,Read,ACK
4.782172500,5100,0x41,0xF2,Read,NAK
4.782427500,5102,0x49,0xFE,Read,ACK
4.782482500,5102,0x49,0xFE,Read,NAK
4.787612500,5104,0x49,0x06,Read,ACK
4.787667500,5104,0x49,0x06,Read,NAK
4.789297500,5106,0x40,0xEC,Write,ACK
4.789352500,5106,0x40,0xEC,Write,NAK
4.789682500,5108,0x41,0xBF,Read,ACK
4.789737500,5108,0x41,0xBF,Read,NAK
4.789992500,5110,0x49,0x40,Read,ACK
4.790047500,5110,0x49,0x40,Read,NAK
4.795177500,5112,0x49,0x1E,Read,ACK
4.795232500,5112,0x49,0x1E,Read,NAK
4.796862500,5114,0x40,0xF0,Write,ACK
4.796917500,5114,0x40,0xF0,Write,NAK
4.797247500,5116,0x41,0xBA,Read,ACK
4.797302500,5116,0x41,0xBA,Read,NAK
4.797557500,5118,0x49,0x3F,Read,ACK
4.797612500,5118,0x49,0x3F,Read,NAK
4.802742500,5120,0x49,0x07,Read,ACK
4.802797500,5120,0x49,0x07,Read,NAK
4.804427500,5122,0x40,0xF4,Write,ACK
4.804482500,5122,0x40,0xF4,Write,NAK
4.804812500,5124,0x41,0xFA,Read,ACK
4.804867500,5124,0x41,0xFA,Read,NAK
4.805122500,5126,0x49,0x35,Read,ACK
4.805177500,5126,0x49,0x35,Read,NAK
4.810307500,5128,0x49,0x5A,Read,ACK
4.810362500,5128,0x49,0x5A,Read,NAK
4.811992500,5130,0x40,0xF8,Write,ACK
4.812047500,5130,0x40,0xF8,Write,NAK
4.812377500,5132,0x41,0x01,Read,ACK
4.812432500,5132,0x41,0x01,Read,NAK
4.812687500,5134,0x49,0x0A,Read,ACK
4.812742500,5134,0x49,0x0A,Read,NAK
4.817872500,5136,0x49,0x5A,Read,ACK
4.817927500,5136,0x49,0x5A,Read,NAK
4.819557500,5138,0x40,0xFC,Write,ACK
4.819612500,5138,0x40,0xFC,Write,NAK
4.819942500,5140,0x41,0xEA,Read,ACK
4.819997500,5140,0x41,0xEA,Read,NAK
4.820252500,5142,0x49,0x11,Read,ACK
4.820307500,5142,0x49,0x11,Read,NAK
4.825437500,5144,0x49,0x35,Read,ACK
4.825492500,5144,0x49,0x35,Read,NAK
4.827122500,5146,0x40,0x00,Write,ACK
4.827177500,5146,0x40,0x00,Write,NAK
4.827507500,5148,0x41,0xE6,Read,ACK
4.827562500,5148,0x41,0xE6,Read,NAK
4.827817500,5150,0x49,0x3A,Read,ACK
4.827872500,5150,0x49,0x3A,Read,NAK
4.833002500,5152,0x49,0x69,Read,ACK
4.833057500,5152,0x49,0x69,Read,NAK
4.834687500,5154,0x40,0x04,Write,ACK
4.834742500,5154,0x40,0x04,Write,NAK
4.835072500,5156,0x41,0xEC,Read,ACK
4.835127500,5156,0x41,0xEC,Read,NAK
4.835382500,5158,0x49,0x41,Read,ACK
4.835437500,5158,0x49,0x41,Read,NAK
4.840567500,5160,0x49,0x5B,Read,ACK
4.840622500,5160,0x49,0x5B,Read,NAK
4.842252500,5162,0x40,0x08,Write,ACK
4.842307500,5162,0x40,0x08,Write,NAK
4.842637500,5164,0x41,0x0A,Read,ACK
4.842692500,5164,0x41,0x0A,Read,NAK
4.842947500,5166,0x49,0x01,Read,ACK
4.843002500,5166,0x49,0x01,Read,NAK
4.848132500,5168,0x49,0x5B,Read,ACK
4.848187500,5168,0x49,0x5B,Read,NAK
4.849817500,5170,0x40,0x0C,Write,ACK
4.849872500,5170,0x40,0x0C,Write,NAK
4.850202500,5172,0x41,0x07,Read,ACK
4.850257500,5172,0x41,0x07,Read,NAK
4.850512500,5174,0x49,0x16,Read,ACK
4.850567500,5174,0x49,0x16,Read,NAK
4.855697500,5176,0x49,0x34,Read,ACK
4.855752500,5176,0x49,0x34,Read,NAK
4.857382500,5178,0x40,0x10,Write,ACK
4.857437500,5178,0x40,0x10,Write,NAK
4.857767500,5180,0x41,0xE3,Read,ACK
4.857822500,5180,0x41,0xE3,Read,NAK
4.858077500,5182,0x49,0x37,Read,ACK
4.858132500,5182,0x49,0x37,Read,NAK
4.863262500,5184,0x49,0x6B,Read,ACK
4.863317500,5184,0x49,0x6B,Read,NAK
4.864947500,5186,0x40,0x14,Write,ACK
4.865002500,5186,0x40,0x14,Write,NAK
4.865332500,5188,0x41,0x2A,Read,ACK
4.865387500,5188,0x41,0x2A,Read,NAK
4.865642500,5190,0x49,0x29,Read,ACK
4.865697500,5190,0x49,0x29,Read,NAK
4.870827500,5192,0x49,0x1E,Read,ACK
4.870882500,5192,0x49,0x1E,Read,NAK
4.872512500,5194,0x40,0x18,Write,ACK
4.872567500,5194,0x40,0x18,Write,NAK
4.872897500,5196,0x41,0x1E,Read,ACK
4.872952500,5196,0x41,0x1E,Read,NAK
4.873207500,5198,0x49,0x3D,Read,ACK
4.873262500,5198,0x49,0x3D,Read,NAK
4.878392500,5200,0x49,0x24,Read,ACK
4.878447500,5200,0x49,0x24,Read,NAK
4.880077500,5202,0x40,0x1C,Write,ACK
4.880132500,5202,0x40,0x1C,Write,NAK
4.880462500,5204,0x41,0x34,Read,ACK
4.880517500,5204,0x41,0x34,Read,NAK
4.880772500,5206,0x49,0x49,Read,ACK
4.880827500,5206,0x49,0x49,Read,NAK
4.885957500,5208,0x49,0x43,Read,ACK
4.886012500,5208,0x49,0x43,Read,NAK
4.887642500,5210,0x40,0x20,Write,ACK
4.887697500,5210,0x40,0x20,Write,NAK
4.888027500,5212,0x41,0x36,Read,ACK
4.888082500,5212,0x41,0x36,Read,NAK
4.888337500,5214,0x49,0x68,Read,ACK
4.888392500,5214,0x49,0x68,Read,NAK
4.893522500,5216,0x49,0x60,Read,ACK
4.893577500,5216,0x49,0x60,Read,NAK
4.895207500,5218,0x40,0x24,Write,ACK
4.895262500,5218,0x40,0x24,Write,NAK
4.895592500,5220,0x41,0x24,Read,ACK
4.895647500,5220,0x41,0x24,Read,NAK
4.895902500,5222,0x49,0x3F,Read,ACK
4.895957500,5222,0x49,0x3F,Read,NAK
4.901087500,5224,0x49,0x60,Read,ACK
4.901142500,5224,0x49,0x60,Read,NAK
4.902772500,5226,0x40,0x28,Write,ACK
4.902827500,5226,0x40,0x28,Write,NAK
4.903157500,5228,0x41,0x1A,Read,ACK
4.903212500,5228,0x41,0x1A,Read,NAK
4.903467500,5230,0x49,0x70,Read,ACK
4.903522500,5230,0x49,0x70,Read,NAK
4.908652500,5232,0x49,0x4A,Read,ACK
4.908707500,5232,0x49,0x4A,Read,NAK
4.910337500,5234,0x40,0x2C,Write,ACK
4.910392500,5234,0x40,0x2C,Write,NAK
4.910722500,5236,0x41,0x2C,Read,ACK
4.910777500,5236,0x41,0x2C,Read,NAK
4.911032500,5238,0x49,0x5E,Read,ACK
4.911087500,5238,0x49,0x5E,Read,NAK
4.916217500,5240,0x49,0x59,Read,ACK
4.916272500,5240,0x49,0x59,Read,NAK
4.917902500,5242,0x40,0x30,Write,ACK
4.917957500,5242,0x40,0x30,Write,NAK
4.918287500,5244,0x41,0x38,Read,ACK
4.918342500,5244,0x41,0x38,Read,NAK
4.918597500,5246,0x49,0x70,Read,ACK
4.918652500,5246,0x49,0x70,Read,NAK
4.923782500,5248,0x49,0x5C,Read,ACK
4.923837500,5248,0x49,0x5C,Read,NAK
4.925467500,5250,0x40,0x34,Write,ACK
4.925522500,5250,0x40,0x34,Write,NAK
4.925852500,5252,0x41,0x38,Read,ACK
4.925907500,5252,0x41,0x38,Read,NAK
4.926162500,5254,0x49,0x87,Read,ACK
4.926217500,5254,0x49,0x87,Read,NAK
4.931347500,5256,0x49,0x59,Read,ACK
4.931402500,5256,0x49,0x59,Read,NAK
4.933032500,5258,0x40,0x38,Write,ACK
4.933087500,5258,0x40,0x38,Write,NAK
4.933417500,5260,0x41,0x2A,Read,ACK
4.933472500,5260,0x41,0x2A,Read,NAK
4.933727500,5262,0x49,0x51,Read,ACK
4.933782500,5262,0x49,0x51,Read,NAK
4.938912500,5264,0x49,0x51,Read,ACK
4.938967500,5264,0x49,0x51,Read,NAK
4.940597500,5266,0x40,0x3C,Write,ACK
4.940652500,5266,0x40,0x3C,Write,NAK
4.940982500,5268,0x41,0x31,Read,ACK
4.941037500,5268,0x41,0x31,Read,NAK
4.941292500,5270,0x49,0x35,Read,ACK
4.941347500,5270,0x49,0x35,Read,NAK
4.946477500,5272,0x49,0x5F,Read,ACK
4.946532500,5272,0x49,0x5F,Read,NAK
4.948162500,5274,0x40,0x40,Write,ACK
4.948217500,5274,0x40,0x40,Write,NAK
4.948547500,5276,0x41,0x5F,Read,ACK
4.948602500,5276,0x41,0x5F,Read,NAK
4.948857500,5278,0x49,0x8C,Read,ACK
4.948912500,5278,0x49,0x8C,Read,NAK
4.954042500,5280,0x49,0x64,Read,ACK
4.954097500,5280,0x49,0x64,Read,NAK
4.955727500,5282,0x40,0x44,Write,ACK
4.955782500,5282,0x40,0x44,Write,NAK
4.956112500,5284,0x41,0x25,Read,ACK
4.956167500,5284,0x41,0x25,Read,NAK
4.956422500,5286,0x49,0x5D,Read,ACK
4.956477500,5286,0x49,0x5D,Read,NAK
4.961607500,5288,0x49,0x80,Read,ACK
4.961662500,5288,0x49,0x80,Read,NAK
4.963292500,5290,0x40,0x48,Write,ACK
4.963347500,5290,0x40,0x48,Write,NAK
4.963677500,5292,0x41,0x23,Read,ACK
4.963732500,5292,0x41,0x23,Read,NAK
4.963987500,5294,0x49,0x5E,Read,ACK
4.964042500,5294,0x49,0x5E,Read,NAK
4.969172500,5296,0x49,0x54,Read,ACK
4.969227500,5296,0x49,0x54,Read,NAK
4.970857500,5298,0x40,0x4C,Write,ACK
4.970912500,5298,0x40,0x4C,Write,NAK
4.971242500,5300,0x41,0x73,Read,ACK
4.971297500,5300,0x41,0x73,Read,NAK
4.971552500,5302,0x49,0xA2,Read,ACK
4.971607500,5302,0x49,0xA2,Read,NAK
4.976737500,5304,0x49,0xA9,Read,ACK
4.976792500,5304,0x49,0xA9,Read,NAK
4.978422500,5306,0x40,0x50,Write,ACK
4.978477500,5306,0x40,0x50,Write,NAK
4.978807500,5308,0x41,0x30,Read,ACK
4.978862500,5308,0x41,0x30,Read,NAK
4.979117500,5310,0x49,0x92,Read,ACK
4.979172500,5310,0x49,0x92,Read,NAK
4.984302500,5312,0x49,0x84,Read,ACK
4.984357500,5312,0x49,0x84,Read,NAK
4.985932500,,0x24,,Write,NAK
4.986262500,5316,0x40,0x54,Write,ACK
4.986317500,5316,0x40,0x54,Write,NAK
4.986647500,5318,0x41,0x63,Read,ACK
4.986702500,5318,0x41,0x63,Read,NAK
4.986957500,5320,0x49,0x95,Read,ACK
4.987012500,5320,0x49,0x95,Read,NAK
4.992142500,5322,0x49,0x8D,Read,ACK
4.992197500,5322,0x49,0x8D,Read,NAK
4.993827500,5324,0x40,0x58,Write,ACK
4.993882500,5324,0x40,0x58,Write,NAK
4.994212500,5326,0x41,0x61,Read,ACK
4.994267500,5326,0x41,0x61,Read,NAK
4.994522500,5328,0x49,0x63,Read,ACK
4.994577500,5328,0x49,0x63,Read,NAK
4.999707500,5330,0x49,0xAE,Read,ACK
4.999762500,5330,0x49,0xAE,Read,NAK
5.001392500,5332,0x40,0x5C,Write,ACK
5.001447500,5332,0x40,0x5C,Write,NAK
5.001777500,5334,0x41,0x3E,Read,ACK
5.001832500,5334,0x41,0x3E,Read,NAK
5.002087500,5336,0x49,0x8D,Read,ACK
5.002142500,5336,0x49,0x8D,Read,NAK
5.007272500,5338,0x49,0xB0,Read,ACK
5.007327500,5338,0x49,0xB0,Read,NAK
5.008957500,5340,0x40,0x60,Write,ACK
5.009012500,5340,0x40,0x60,Write,NAK
5.009342500,5342,0x41,0x57,Read,ACK
5.009397500,5342,0x41,0x57,Read,NAK
5.009652500,5344,0x49,0x90,Read,ACK
5.009707500,5344,0x49,0x90,Read,NAK
5.014837500,5346,0x49,0x6C,Read,ACK
5.014892500,5346,0x49,0x6C,Read,NAK
5.016522500,5348,0x40,0x64,Write,ACK
5.016577500,5348,0x40,0x64,Write,NAK
5.016907500,5350,0x41,0x8B,Read,ACK
5.016962500,5350,0x41,0x8B,Read,NAK
5.017217500,5352,0x49,0x64,Read,ACK
5.017272500,5352,0x49,0x64,Read,NAK
5.022402500,5354,0x49,0x90,Read,ACK
5.022457500,5354,0x49,0x90,Read,NAK
5.024087500,5356,0x40,0x68,Write,ACK
5.024142500,5356,0x40,0x68,Write,NAK
5.024472500,5358,0x41,0x5D,Read,ACK
5.024527500,5358,0x41,0x5D,Read,NAK
5.024782500,5360,0x49,0xBC,Read,ACK
5.024837500,5360,0x49,0xBC,Read,NAK
5.029967500,5362,0x49,0x90,Read,ACK
5.030022500,5362,0x49,0x90,Read,NAK
5.031652500,5364,0x40,0x6C,Write,ACK
5.031707500,5364,0x40,0x6C,Write,NAK
5.032037500,5366,0x41,0x60,Read,ACK
5.032092500,5366,0x41,0x60,Read,NAK
5.032347500,5368,0x49,0xAA,Read,ACK
5.032402500,5368,0x49,0xAA,Read,NAK
5.037532500,5370,0x49,0xD2,Read,ACK
5.037587500,5370,0x49,0xD2,Read,NAK
5.039217500,5372,0x40,0x70,Write,ACK
5.039272500,5372,0x40,0x70,Write,NAK
5.039602500,5374,0x41,0x6A,Read,ACK
5.039657500,5374,0x41,0x6A,Read,NAK
5.039912500,5376,0x49,0x8E,Read,ACK
5.039967500,5376,0x49,0x8E,Read,NAK
5.045097500,5378,0x49,0xA4,Read,ACK
5.045152500,5378,0x49,0xA4,Read,NAK
5.046782500,5380,0x40,0x74,Write,ACK
5.046837500,5380,0x40,0x74,Write,NAK
5.047167500,5382,0x41,0x82,Read,ACK
5.047222500,5382,0x41,0x82,Read,NAK
5.047477500,5384,0x49,0x9A,Read,ACK
5.047532500,5384,0x49,0x9A,Read,NAK
5.052662500,5386,0x49,0xC9,Read,ACK
5.052717500,5386,0x49,0xC9,Read,NAK
5.054347500,5388,0x40,0x78,Write,ACK
5.054402500,5388,0x40,0x78,Write,NAK
5.054732500,5390,0x41,0x87,Read,ACK
5.054787500,5390,0x41,0x87,Read,NAK
5.055042500,5392,0x49,0x77,Read,ACK
5.055097500,5392,0x49,0x77,Read,NAK
5.060227500,5394,0x49,0xA8,Read,ACK
5.060282500,5394,0x49,0xA8,Read,NAK
5.061912500,5396,0x40,0x7C,Write,ACK
5.061967500,5396,0x40,0x7C,Write,NAK
5.062297500,5398,0x41,0x5A,Read,ACK
5.062352500,5398,0x41,0x5A,Read,NAK
5.062607500,5400,0x49,0xB8,Read,ACK
5.062662500,5400,0x49,0xB8,Read,NAK
5.067792500,5402,0x49,0x89,Read,ACK
5.067847500,5402,0x49,0x89,Read,NAK
5.069477500,5404,0x40,0x80,Write,ACK
5.069532500,5404,0x40,0x80,Write,NAK
5.069862500,5406,0x41,0x66,Read,ACK
5.069917500,5406,0x41,0x66,Read,NAK
5.070172500,5408,0x49,0x81,Read,ACK
5.070227500,5408,0x49,0x81,Read,NAK
5.075357500,5410,0x49,0xAE,Read,ACK
5.075412500,5410,0x49,0xAE,Read,NAK
5.077042500,5412,0x40,0x84,Write,ACK
5.077097500,5412,0x40,0x84,Write,NAK
5.077427500,5414,0x41,0x64,Read,ACK
5.077482500,5414,0x41,0x64,Read,NAK
5.077737500,5416,0x49,0x96,Read,ACK
5.077792500,5416,0x49,0x96,Read,NAK
5.082922500,5418,0x49,0xDF,Read,ACK
5.082977500,5418,0x49,0xDF,Read,NAK
5.084607500,5420,0x40,0x88,Write,ACK
5.084662500,5420,0x40,0x88,Write,NAK
5.084992500,5422,0x41,0x9C,Read,ACK
5.085047500,5422,0x41,0x9C,Read,NAK
5.085302500,5424,0x49,0xC4,Read,ACK
5.085357500,5424,0x49,0xC4,Read,NAK
5.090487500,5426,0x49,0xC4,Read,ACK
5.090542500,5426,0x49,0xC4,Read,NAK
5.092172500,5428,0x40,0x8C,Write,ACK
5.092227500,5428,0x40,0x8C,Write,NAK
5.092557500,5430,0x41,0xB4,Read,ACK
5.092612500,5430,0x41,0xB4,Read,NAK
5.092867500,5432,0x49,0x82,Read,ACK
5.092922500,5432,0x49,0x82,Read,NAK
5.098052500,5434,0x49,0xE5,Read,ACK
5.098107500,5434,0x49,0xE5,Read,NAK
5.099737500,5436,0x40,0x90,Write,ACK
5.099792500,5436,0x40,0x90,Write,NAK
5.100122500,5438,0x41,0xB6,Read,ACK
5.100177500,5438,0x41,0xB6,Read,NAK
5.100432500,5440,0x49,0xD5,Read,ACK
5.100487500,5440,0x49,0xD5,Read,NAK
5.105617500,5442,0x49,0xD6,Read,ACK
5.105672500,5442,0x49,0xD6,Read,NAK
5.107302500,5444,0x40,0x94,Write,ACK
5.107357500,5444,0x40,0x94,Write,NAK
5.107687500,5446,0x41,0x79,Read,ACK
5.107742500,5446,0x41,0x79,Read,NAK
5.107997500,5448,0x49,0xE7,Read,ACK
5.108052500,5448,0x49,0xE7,Read,NAK
5.113182500,5450,0x49,0xFA,Read,ACK
5.113237500,5450,0x49,0xFA,Read,NAK
5.114867500,5452,0x40,0x98,Write,ACK
5.114922500,5452,0x40,0x98,Write,NAK
5.115252500,5454,0x41,0x98,Read,ACK
5.115307500,5454,0x41,0x98,Read,NAK
5.115562500,5456,0x49,0xB2,Read,ACK
5.115617500,5456,0x49,0xB2,Read,NAK
5.120747500,5458,0x49,0xC8,Read,ACK
5.120802500,5458,0x49,0xC8,Read,NAK
5.122432500,5460,0x40,0x9C,Write,ACK
5.122487500,5460,0x40,0x9C,Write,NAK
5.122817500,5462,0x41,0x6C,Read,ACK
5.122872500,5462,0x41,0x6C,Read,NAK
5.123127500,5464,0x49,0xC2,Read,ACK
5.123182500,5464,0x49,0xC2,Read,NAK
5.128312500,5466,0x49,0xFF,Read,ACK
5.128367500,5466,0x49,0xFF,Read,NAK
5.129997500,5468,0x40,0xA0,Write,ACK
5.130052500,5468,0x40,0xA0,Write,NAK
5.130382500,5470,0x41,0xA5,Read,ACK
5.130437500,5470,0x41,0xA5,Read,NAK
5.130692500,5472,0x49,0xE9,Read,ACK
5.130747500,5472,0x49,0xE9,Read,NAK
5.135877500,5474,0x49,0xB0,Read,ACK
5.135932500,5474,0x49,0xB0,Read,NAK
5.137562500,5476,0x40,0xA4,Write,ACK
5.137617500,5476,0x40,0xA4,Write,NAK
5.137947500,5478,0x41,0x79,Read,ACK
5.138002500,5478,0x41,0x79,Read,NAK
5.138257500,5480,0x49,0xC7,Read,ACK
5.138312500,5480,0x49,0xC7,Read,NAK
5.143442500,5482,0x49,0xDD,Read,ACK
5.143497500,5482,0x49,0xDD,Read,NAK
5.145127500,5484,0x40,0xA8,Write,ACK
5.145182500,5484,0x40,0xA8,Write,NAK
5.145512500,5486,0x41,0xB5,Read,ACK
5.145567500,5486,0x41,0xB5,Read,NAK
5.145822500,5488,0x49,0xD5,Read,ACK
5.145877500,5488,0x49,0xD5,Read,NAK
5.151007500,5490,0x49,0xE6,Read,ACK
5.151062500,5490,0x49,0xE6,Read,NAK
5.152692500,5492,0x40,0xAC,Write,ACK
5.152747500,5492,0x40,0xAC,Write,NAK
5.153077500,5494,0x41,0xAD,Read,ACK
5.153132500,5494,0x41,0xAD,Read,NAK
5.153387500,5496,0x49,0xC7,Read,ACK
5.153442500,5496,0x49,0xC7,Read,NAK
5.158572500,5498,0x49,0xEA,Read,ACK
5.158627500,5498,0x49,0xEA,Read,NAK
5.160257500,5500,0x40,0xB0,Write,ACK
5.160312500,5500,0x40,0xB0,Write,NAK
5.160642500,5502,0x41,0x8A,Read,ACK
5.160697500,5502,0x41,0x8A,Read,NAK
5.160952500,5504,0x49,0xEC,Read,ACK
5.161007500,5504,0x49,0xEC,Read,NAK
5.166137500,5506,0x49,0xF3,Read,ACK
5.166192500,5506,0x49,0xF3,Read,NAK
5.167822500,5508,0x40,0xB4,Write,ACK
5.167877500,5508,0x40,0xB4,Write,NAK
5.168207500,5510,0x41,0xBD,Read,ACK
5.168262500,5510,0x41,0xBD,Read,NAK
5.168517500,5512,0x49,0xE2,Read,ACK
5.168572500,5512,0x49,0xE2,Read,NAK
5.173702500,5514,0x49,0x17,Read,ACK
5.173757500,5514,0x49,0x17,Read,NAK
5.175387500,5516,0x40,0xB8,Write,ACK
5.175442500,5516,0x40,0xB8,Write,NAK
5.175772500,5518,0x41,0xAE,Read,ACK
5.175827500,5518,0x41,0xAE,Read,NAK
5.176082500,5520,0x49,0xD0,Read,ACK
5.176137500,5520,0x49,0xD0,Read,NAK
5.181267500,5522,0x49,0xEB,Read,ACK
5.181322500,5522,0x49,0xEB,Read,NAK
5.182952500,5524,0x40,0xBC,Write,ACK
5.183007500,5524,0x40,0xBC,Write,NAK
5.183337500,5526,0x41,0xD8,Read,ACK
5.183392500,5526,0x41,0xD8,Read,NAK
5.183647500,5528,0x49,0xD6,Read,ACK
5.183702500,5528,0x49,0xD6,Read,NAK
5.188832500,5530,0x49,0x1D,Read,ACK
5.188887500,5530,0x49,0x1D,Read,NAK
5.190517500,5532,0x40,0xC0,Write,ACK
5.190572500,5532,0x40,0xC0,Write,NAK
5.190902500,5534,0x41,0xD2,Read,ACK
5.190957500,5534,0x41,0xD2,Read,NAK
5.191212500,5536,0x49,0xE9,Read,ACK
5.191267500,5536,0x49,0xE9,Read,NAK
5.196397500,5538,0x49,0x16,Read,ACK
5.196452500,5538,0x49,0x16,Read,NAK
5.198082500,5540,0x40,0xC4,Write,ACK
5.198137500,5540,0x40,0xC4,Write,NAK
5.198467500,5542,0x41,0xEE,Read,ACK
5.198522500,5542,0x41,0xEE,Read,NAK
5.198777500,5544,0x49,0xD7,Read,ACK
5.198832500,5544,0x49,0xD7,Read,NAK
5.203962500,5546,0x49,0xE0,Read,ACK
5.204017500,5546,0x49,0xE0,Read,NAK
5.205647500,5548,0x40,0xC8,Write,ACK
5.205702500,5548,0x40,0xC8,Write,NAK
5.206032500,5550,0x41,0xB7,Read,ACK
5.206087500,5550,0x41,0xB7,Read,NAK
5.206342500,5552,0x49,0x0A,Read,ACK
5.206397500,5552,0x49,0x0A,Read,NAK
5.211527500,5554,0x49,0xEC,Read,ACK
5.211582500,5554,0x49,0xEC,Read,NAK
5.213212500,5556,0x40,0xCC,Write,ACK
5.213267500,5556,0x40,0xCC,Write,NAK
5.213597500,5558,0x41,0xD7,Read,ACK
5.213652500,5558,0x41,0xD7,Read,NAK
5.213907500,5560,0x49,0xE7,Read,ACK
5.213962500,5560,0x49,0xE7,Read,NAK
5.219092500,5562,0x49,0xFB,Read,ACK
5.219147500,5562,0x49,0xFB,Read,NAK
5.220777500,5564,0x40,0xD0,Write,ACK
5.220832500,5564,0x40,0xD0,Write,NAK
5.221162500,5566,0x41,0xA1,Read,ACK
5.221217500,5566,0x41,0xA1,Read,NAK
5.221472500,5568,0x49,0xFB,Read,ACK
5.221527500,5568,0x49,0xFB,Read,NAK
5.226657500,5570,0x49,0xF5,Read,ACK
5.226712500,5570,0x49,0xF5,Read,NAK
5.228342500,5572,0x40,0xD4,Write,ACK
5.228397500,5572,0x40,0xD4,Write,NAK
5.228727500,5574,0x41,0xDB,Read,ACK
5.228782500,5574,0x41,0xDB,Read,NAK
5.229037500,5576,0x49,0xE0,Read,ACK
5.229092500,5576,0x49,0xE0,Read,NAK
5.234222500,5578,0x49,0x37,Read,ACK
5.234277500,5578,0x49,0x37,Read,NAK
5.235907500,5580,0x40,0xD8,Write,ACK
5.235962500,5580,0x40,0xD8,Write,NAK
5.236292500,5582,0x41,0xDA,Read,ACK
5.236347500,5582,0x41,0xDA,Read,NAK
5.236602500,5584,0x49,0xF2,Read,ACK
5.236657500,5584,0x49,0xF2,Read,NAK
5.241787500,5586,0x49,0xE7,Read,ACK
5.241842500,5586,0x49,0xE7,Read,NAK
5.243472500,5588,0x40,0xDC,Write,ACK
5.243527500,5588,0x40,0xDC,Write,NAK
5.243857500,5590,0x41,0xBF,Read,ACK
5.243912500,5590,0x41,0xBF,Read,NAK
5.244167500,5592,0x49,0x04,Read,ACK
5.244222500,5592,0x49,0x04,Read,NAK
5.249352500,5594,0x49,0x07,Read,ACK
5.249407500,5594,0x49,0x07,Read,NAK
5.251037500,5596,0x40,0xE0,Write,ACK
5.251092500,5596,0x40,0xE0,Write,NAK
5.251422500,5598,0x41,0xAB,Read,ACK
5.251477500,5598,0x41,0xAB,Read,NAK
5.251732500,5600,0x49,0x19,Read,ACK
5.251787500,5600,0x49,0x19,Read,NAK
5.256917500,5602,0x49,0x07,Read,ACK
5.256972500,5602,0x49,0x07,Read,NAK
5.258602500,5604,0x40,0xE4,Write,ACK
5.258657500,5604,0x40,0xE4,Write,NAK
5.258987500,5606,0x41,0xDE,Read,ACK
5.259042500,5606,0x41,0xDE,Read,NAK
5.259297500,5608,0x49,0xE0,Read,ACK
5.259352500,5608,0x49,0xE0,Read,NAK
5.264482500,5610,0x49,0x2D,Read,ACK
5.264537500,5610,0x49,0x2D,Read,NAK
5.266167500,5612,0x40,0xE8,Write,ACK
5.266222500,5612,0x40,0xE8,Write,NAK
5.266552500,5614,0x41,0xD4,Read,ACK
5.266607500,5614,0x41,0xD4,Read,NAK
5.266862500,5616,0x49,0x3D,Read,ACK
5.266917500,5616,0x49,0x3D,Read,NAK
5.272047500,5618,0x49,0x3D,Read,ACK
5.272102500,5618,0x49,0x3D,Read,NAK
5.273677500,,0x24,,Write,NAK
5.274007500,5622,0x40,0xEC,Write,ACK
5.274062500,5622,0x40,0xEC,Write,NAK
5.274392500,5624,0x41,0xD6,Read,ACK
5.274447500,5624,0x41,0xD6,Read,NAK
5.274702500,5626,0x49,0x28,Read,ACK
5.274757500,5626,0x49,0x28,Read,NAK
5.279887500,5628,0x49,0x15,Read,ACK
5.279942500,5628,0x49,0x15,Read,NAK
5.281572500,5630,0x40,0xF0,Write,ACK
5.281627500,5630,0x40,0xF0,Write,NAK
5.281957500,5632,0x41,0xD1,Read,ACK
5.282012500,5632,0x41,0xD1,Read,NAK
5.282267500,5634,0x49,0x26,Read,ACK
5.282322500,5634,0x49,0x26,Read,NAK
5.287452500,5636,0x49,0x06,Read,ACK
5.287507500,5636,0x49,0x06,Read,NAK
5.289137500,5638,0x40,0xF4,Write,ACK
5.289192500,5638,0x40,0xF4,Write,NAK
5.289522500,5640,0x41,0xE4,Read,ACK
5.289577500,5640,0x41,0xE4,Read,NAK
5.289832500,5642,0x49,0xF1,Read,ACK
5.289887500,5642,0x49,0xF1,Read,NAK
5.295017500,5644,0x49,0x25,Read,ACK
5.295072500,5644,0x49,0x25,Read,NAK
5.296702500,5646,0x40,0xF8,Write,ACK
5.296757500,5646,0x40,0xF8,Write,NAK
5.297087500,5648,0x41,0x22,Read,ACK
5.297142500,5648,0x41,0x22,Read,NAK
5.297397500,5650,0x49,0xF0,Read,ACK
5.297452500,5650,0x49,0xF0,Read,NAK
5.302582500,5652,0x49,0x58,Read,ACK
5.302637500,5652,0x49,0x58,Read,NAK
5.304267500,5654,0x40,0xFC,Write,ACK
5.304322500,5654,0x40,0xFC,Write,NAK
5.304652500,5656,0x41,0xFB,Read,ACK
5.304707500,5656,0x41,0xFB,Read,NAK
5.304962500,5658,0x49,0x3F,Read,ACK
5.305017500,5658,0x49,0x3F,Read,NAK
5.310147500,5660,0x49,0x15,Read,ACK
5.310202500,5660,0x49,0x15,Read,NAK
5.311832500,5662,0x40,0x00,Write,ACK
5.311887500,5662,0x40,0x00,Write,NAK
5.312217500,5664,0x41,0xF6,Read,ACK
5.312272500,5664,0x41,0xF6,Read,NAK
5.312527500,5666,0x49,0x28,Read,ACK
5.312582500,5666,0x49,0x28,Read,NAK
5.317712500,5668,0x49,0x3F,Read,ACK
5.317767500,5668,0x49,0x3F,Read,NAK
5.319397500,5670,0x40,0x04,Write,ACK
5.319452500,5670,0x40,0x04,Write,NAK
5.319782500,5672,0x41,0x06,Read,ACK
5.319837500,5672,0x41,0x06,Read,NAK
5.320092500,5674,0x49,0x10,Read,ACK
5.320147500,5674,0x49,0x10,Read,NAK
5.325277500,5676,0x49,0x29,Read,ACK
5.325332500,5676,0x49,0x29,Read,NAK
5.326962500,5678,0x40,0x08,Write,ACK
5.327017500,5678,0x40,0x08,Write,NAK
5.327347500,5680,0x41,0x18,Read,ACK
5.327402500,5680,0x41,0x18,Read,NAK
5.327657500,5682,0x49,0x3A,Read,ACK
5.327712500,5682,0x49,0x3A,Read,NAK
5.332842500,5684,0x49,0x3A,Read,ACK
5.332897500,5684,0x49,0x3A,Read,NAK
5.334527500,5686,0x40,0x0C,Write,ACK
5.334582500,5686,0x40,0x0C,Write,NAK
5.334912500,5688,0x41,0xF5,Read,ACK
5.334967500,5688,0x41,0xF5,Read,NAK
5.335222500,5690,0x49,0x1F,Read,ACK
5.335277500,5690,0x49,0x1F,Read,NAK
5.340407500,5692,0x49,0x75,Read,ACK
5.340462500,5692,0x49,0x75,Read,NAK
5.342092500,5694,0x40,0x10,Write,ACK
5.342147500,5694,0x40,0x10,Write,NAK
5.342477500,5696,0x41,0x07,Read,ACK
5.342532500,5696,0x41,0x07,Read,NAK
5.342787500,5698,0x49,0x13,Read,ACK
5.342842500,5698,0x49,0x13,Read,NAK
5.347972500,5700,0x49,0x42,Read,ACK
5.348027500,5700,0x49,0x42,Read,NAK
5.349657500,5702,0x40,0x14,Write,ACK
5.349712500,5702,0x40,0x14,Write,NAK
5.350042500,5704,0x41,0x27,Read,ACK
5.350097500,5704,0x41,0x27,Read,NAK
5.350352500,5706,0x49,0x5F,Read,ACK
5.350407500,5706,0x49,0x5F,Read,NAK
5.355537500,5708,0x49,0x39,Read,ACK
5.355592500,5708,0x49,0x39,Read,NAK
5.357222500,5710,0x40,0x18,Write,ACK
5.357277500,5710,0x40,0x18,Write,NAK
5.357607500,5712,0x41,0x39,Read,ACK
5.357662500,5712,0x41,0x39,Read,NAK
5.357917500,5714,0x49,0x22,Read,ACK
5.357972500,5714,0x49,0x22,Read,NAK
5.363102500,5716,0x49,0x79,Read,ACK
5.363157500,5716,0x49,0x79,Read,NAK
5.364787500,5718,0x40,0x1C,Write,ACK
5.364842500,5718,0x40,0x1C,Write,NAK
5.365172500,5720,0x41,0x17,Read,ACK
5.365227500,5720,0x41,0x17,Read,NAK
5.365482500,5722,0x49,0x4E,Read,ACK
5.365537500,5722,0x49,0x4E,Read,NAK
5.370667500,5724,0x49,0x52,Read,ACK
5.370722500,5724,0x49,0x52,Read,NAK
5.372352500,5726,0x40,0x20,Write,ACK
5.372407500,5726,0x40,0x20,Write,NAK
5.372737500,5728,0x41,0xF4,Read,ACK
5.372792500,5728,0x41,0xF4,Read,NAK
5.373047500,5730,0x49,0x4D,Read,ACK
5.373102500,5730,0x49,0x4D,Read,NAK
5.378232500,5732,0x49,0x4E,Read,ACK
5.378287500,5732,0x49,0x4E,Read,NAK
5.379917500,5734,0x40,0x24,Write,ACK
5.379972500,5734,0x40,0x24,Write,NAK
5.380302500,5736,0x41,0x0C,Read,ACK
5.380357500,5736,0x41,0x0C,Read,NAK
5.380612500,5738,0x49,0x5F,Read,ACK
5.380667500,5738,0x49,0x5F,Read,NAK
5.385797500,5740,0x49,0x69,Read,ACK
5.385852500,5740,0x49,0x69,Read,NAK
5.387427500,,0x24,,Write,NAK
5.387757500,5744,0x40,0x28,Write,ACK
5.387812500,5744,0x40,0x28,Write,NAK
5.388142500,5746,0x41,0x10,Read,ACK
5.388197500,5746,0x41,0x10,Read,NAK
5.388452500,5748,0x49,0x57,Read,ACK
5.388507500,5748,0x49,0x57,Read,NAK
5.393637500,5750,0x49,0x35,Read,ACK
5.393692500,5750,0x49,0x35,Read,NAK
5.395322500,5752,0x40,0x2C,Write,ACK
5.395377500,5752,0x40,0x2C,Write,NAK
5.395707500,5754,0x41,0x4C,Read,ACK
5.395762500,5754,0x41,0x4C,Read,NAK
5.396017500,5756,0x49,0x27,Read,ACK
5.396072500,5756,0x49,0x27,Read,NAK
5.401202500,5758,0x49,0x46,Read,ACK
5.401257500,5758,0x49,0x46,Read,NAK
5.402887500,5760,0x40,0x30,Write,ACK
5.402942500,5760,0x40,0x30,Write,NAK
5.403272500,5762,0x41,0x40,Read,ACK
5.403327500,5762,0x41,0x40,Read,NAK
5.403582500,5764,0x49,0x64,Read,ACK
5.403637500,5764,0x49,0x64,Read,NAK
5.408767500,5766,0x49,0x79,Read,ACK
5.408822500,5766,0x49,0x79,Read,NAK
5.410452500,5768,0x40,0x34,Write,ACK
5.410507500,5768,0x40,0x34,Write,NAK
5.410837500,5770,0x41,0x61,Read,ACK
5.410892500,5770,0x41,0x61,Read,NAK
5.411147500,5772,0x49,0x8B,Read,ACK
5.411202500,5772,0x49,0x8B,Read,NAK
5.416332500,5774,0x49,0x47,Read,ACK
5.416387500,5774,0x49,0x47,Read,NAK
5.418017500,5776,0x40,0x38,Write,ACK
5.418072500,5776,0x40,0x38,Write,NAK
5.418402500,5778,0x41,0x47,Read,ACK
5.418457500,5778,0x41,0x47,Read,NAK
5.418712500,5780,0x49,0x64,Read,ACK
5.418767500,5780,0x49,0x64,Read,NAK
5.423897500,5782,0x49,0x8E,Read,ACK
5.423952500,5782,0x49,0x8E,Read,NAK
5.425582500,5784,0x40,0x3C,Write,ACK
5.425637500,5784,0x40,0x3C,Write,NAK
5.425967500,5786,0x41,0x14,Read,ACK
5.426022500,5786,0x41,0x14,Read,NAK
5.426277500,5788,0x49,0x80,Read,ACK
5.426332500,5788,0x49,0x80,Read,NAK
5.431462500,5790,0x49,0x83,Read,ACK
5.431517500,5790,0x49,0x83,Read,NAK
5.433147500,5792,0x40,0x40,Write,ACK
5.433202500,5792,0x40,0x40,Write,NAK
5.433532500,5794,0x41,0x60,Read,ACK
5.433587500,5794,0x41,0x60,Read,NAK
5.433842500,5796,0x49,0x39,Read,ACK
5.433897500,5796,0x49,0x39,Read,NAK
5.439027500,5798,0x49,0xA7,Read,ACK
5.439082500,5798,0x49,0xA7,Read,NAK
5.440712500,5800,0x40,0x44,Write,ACK
5.440767500,5800,0x40,0x44,Write,NAK
5.441097500,5802,0x41,0x27,Read,ACK
5.441152500,5802,0x41,0x27,Read,NAK
5.441407500,5804,0x49,0x44,Read,ACK
5.441462500,5804,0x49,0x44,Read,NAK
5.446592500,5806,0x49,0x8F,Read,ACK
5.446647500,5806,0x49,0x8F,Read,NAK
5.448277500,5808,0x40,0x48,Write,ACK
5.448332500,5808,0x40,0x48,Write,NAK
5.448662500,5810,0x41,0x55,Read,ACK
5.448717500,5810,0x41,0x55,Read,NAK
5.448972500,5812,0x49,0x88,Read,ACK
5.449027500,5812,0x49,0x88,Read,NAK
5.454157500,5814,0x49,0x63,Read,ACK
5.454212500,5814,0x49,0x63,Read,NAK
5.455842500,5816,0x40,0x4C,Write,ACK
5.455897500,5816,0x40,0x4C,Write,NAK
5.456227500,5818,0x41,0x35,Read,ACK
5.456282500,5818,0x41,0x35,Read,NAK
5.456537500,5820,0x49,0x9D,Read,ACK
5.456592500,5820,0x49,0x9D,Read,NAK
5.461722500,5822,0x49,0x77,Read,ACK
5.461777500,5822,0x49,0x77,Read,NAK
5.463407500,5824,0x40,0x50,Write,ACK
5.463462500,5824,0x40,0x50,Write,NAK
5.463792500,5826,0x41,0x20,Read,ACK
5.463847500,5826,0x41,0x20,Read,NAK
5.464102500,5828,0x49,0x7C,Read,ACK
5.464157500,5828,0x49,0x7C,Read,NAK
5.469287500,5830,0x49,0xB8,Read,ACK
5.469342500,5830,0x49,0xB8,Read,NAK
5.470972500,5832,0x40,0x54,Write,ACK
5.471027500,5832,0x40,0x54,Write,NAK
5.471357500,5834,0x41,0x21,Read,ACK
5.471412500,5834,0x41,0x21,Read,NAK
5.471667500,5836,0x49,0x54,Read,ACK
5.471722500,5836,0x49,0x54,Read,NAK
5.476852500,5838,0x49,0x87,Read,ACK
5.476907500,5838,0x49,0x87,Read,NAK
5.478537500,5840,0x40,0x58,Write,ACK
5.478592500,5840,0x40,0x58,Write,NAK
5.478922500,5842,0x41,0x62,Read,ACK
5.478977500,5842,0x41,0x62,Read,NAK
5.479232500,5844,0x49,0x9A,Read,ACK
5.479287500,5844,0x49,0x9A,Read,NAK
5.484417500,5846,0x49,0x8A,Read,ACK
5.484472500,5846,0x49,0x8A,Read,NAK
5.486102500,5848,0x40,0x5C,Write,ACK
5.486157500,5848,0x40,0x5C,Write,NAK
5.486487500,5850,0x41,0x2C,Read,ACK
5.486542500,5850,0x41,0x2C,Read,NAK
5.486797500,5852,0x49,0x59,Read,ACK
5.486852500,5852,0x49,0x59,Read,NAK
5.491982500,5854,0x49,0x9B,Read,ACK
5.492037500,5854,0x49,0x9B,Read,NAK
5.493667500,5856,0x40,0x60,Write,ACK
5.493722500,5856,0x40,0x60,Write,NAK
5.494052500,5858,0x41,0x69,Read,ACK
5.494107500,5858,0x41,0x69,Read,NAK
5.494362500,5860,0x49,0x5A,Read,ACK
5.494417500,5860,0x49,0x5A,Read,NAK
5.499547500,5862,0x49,0x6F,Read,ACK
5.499602500,5862,0x49,0x6F,Read,NAK
5.501177500,,0x24,,Write,NAK
5.501507500,5866,0x40,0x64,Write,ACK
5.501562500,5866,0x40,0x64,Write,NAK
5.501892500,5868,0x41,0x3C,Read,ACK
5.501947500,5868,0x41,0x3C,Read,NAK
5.502202500,5870,0x49,0x76,Read,ACK
5.502257500,5870,0x49,0x76,Read,NAK
5.507387500,5872,0x49,0x9A,Read,ACK
5.507442500,5872,0x49,0x9A,Read,NAK
5.509072500,5874,0x40,0x68,Write,ACK
5.509127500,5874,0x40,0x68,Write,NAK
5.509457500,5876,0x41,0x69,Read,ACK
5.509512500,5876,0x41,0x69,Read,NAK
5.509767500,5878,0x49,0x71,Read,ACK
5.509822500,5878,0x49,0x71,Read,NAK
5.514952500,5880,0x49,0x95,Read,ACK
5.515007500,5880,0x49,0x95,Read,NAK
5.516637500,5882,0x40,0x6C,Write,ACK
5.516692500,5882,0x40,0x6C,Write,NAK
5.517022500,5884,0x41,0x40,Read,ACK
5.517077500,5884,0x41,0x40,Read,NAK
5.517332500,5886,0x49,0x7C,Read,ACK
5.517387500,5886,0x49,0x7C,Read,NAK
5.522517500,5888,0x49,0x9B,Read,ACK
5.522572500,5888,0x49,0x9B,Read,NAK
5.524202500,5890,0x40,0x70,Write,ACK
5.524257500,5890,0x40,0x70,Write,NAK
5.524587500,5892,0x41,0x8A,Read,ACK
5.524642500,5892,0x41,0x8A,Read,NAK
5.524897500,5894,0x49,0x8C,Read,ACK
5.524952500,5894,0x49,0x8C,Read,NAK
5.530082500,5896,0x49,0xC1,Read,ACK
5.530137500,5896,0x49,0xC1,Read,NAK
5.531767500,5898,0x40,0x74,Write,ACK
5.531822500,5898,0x40,0x74,Write,NAK
5.532152500,5900,0x41,0x3E,Read,ACK
5.532207500,5900,0x41,0x3E,Read,NAK
5.532462500,5902,0x49,0xB0,Read,ACK
5.532517500,5902,0x49,0xB0,Read,NAK
5.537647500,5904,0x49,0x83,Read,ACK
5.537702500,5904,0x49,0x83,Read,NAK
5.539332500,5906,0x40,0x78,Write,ACK
5.539387500,5906,0x40,0x78,Write,NAK
5.539717500,5908,0x41,0xA4,Read,ACK
5.539772500,5908,0x41,0xA4,Read,NAK
5.540027500,5910,0x49,0x71,Read,ACK
5.540082500,5910,0x49,0x71,Read,NAK
5.545212500,5912,0x49,0xAE,Read,ACK
5.545267500,5912,0x49,0xAE,Read,NAK
5.546897500,5914,0x40,0x7C,Write,ACK
5.546952500,5914,0x40,0x7C,Write,NAK
5.547282500,5916,0x41,0x51,Read,ACK
5.547337500,5916,0x41,0x51,Read,NAK
5.547592500,5918,0x49,0x75,Read,ACK
5.547647500,5918,0x49,0x75,Read,NAK
5.552777500,5920,0x49,0xB4,Read,ACK
5.552832500,5920,0x49,0xB4,Read,NAK
5.554462500,5922,0x40,0x80,Write,ACK
5.554517500,5922,0x40,0x80,Write,NAK
5.554847500,5924,0x41,0x85,Read,ACK
5.554902500,5924,0x41,0x85,Read,NAK
5.555157500,5926,0x49,0x80,Read,ACK
5.555212500,5926,0x49,0x80,Read,NAK
5.560342500,5928,0x49,0xC9,Read,ACK
5.560397500,5928,0x49,0xC9,Read,NAK
5.562027500,5930,0x40,0x84,Write,ACK
5.562082500,5930,0x40,0x84,Write,NAK
5.562412500,5932,0x41,0x74,Read,ACK
5.562467500,5932,0x41,0x74,Read,NAK
5.562722500,5934,0x49,0xBB,Read,ACK
5.562777500,5934,0x49,0xBB,Read,NAK
5.567907500,5936,0x49,0xC5,Read,ACK
5.567962500,5936,0x49,0xC5,Read,NAK
5.569592500,5938,0x40,0x88,Write,ACK
5.569647500,5938,0x40,0x88,Write,NAK
5.569977500,5940,0x41,0xA6,Read,ACK
5.570032500,5940,0x41,0xA6,Read,NAK
5.570287500,5942,0x49,0xAE,Read,ACK
5.570342500,5942,0x49,0xAE,Read,NAK
5.575472500,5944,0x49,0xAF,Read,ACK
5.575527500,5944,0x49,0xAF,Read,NAK
5.577157500,5946,0x40,0x8C,Write,ACK
5.577212500,5946,0x40,0x8C,Write,NAK
5.577542500,5948,0x41,0xA0,Read,ACK
5.577597500,5948,0x41,0xA0,Read,NAK
5.577852500,5950,0x49,0x9A,Read,ACK
5.577907500,5950,0x49,0x9A,Read,NAK
5.583037500,5952,0x49,0xA2,Read,ACK
5.583092500,5952,0x49,0xA2,Read,NAK
5.584722500,5954,0x40,0x90,Write,ACK
5.584777500,5954,0x40,0x90,Write,NAK
5.585107500,5956,0x41,0x98,Read,ACK
5.585162500,5956,0x41,0x98,Read,NAK
5.585417500,5958,0x49,0xAF,Read,ACK
5.585472500,5958,0x49,0xAF,Read,NAK
5.590602500,5960,0x49,0xC2,Read,ACK
5.590657500,5960,0x49,0xC2,Read,NAK
5.592287500,5962,0x40,0x94,Write,ACK
5.592342500,5962,0x40,0x94,Write,NAK
5.592672500,5964,0x41,0x9D,Read,ACK
5.592727500,5964,0x41,0x9D,Read,NAK
5.592982500,5966,0x49,0x8D,Read,ACK
5.593037500,5966,0x49,0x8D,Read,NAK
5.598167500,5968,0x49,0xBA,Read,ACK
5.598222500,5968,0x49,0xBA,Read,NAK
5.599852500,5970,0x40,0x98,Write,ACK
5.599907500,5970,0x40,0x98,Write,NAK
5.600237500,5972,0x41,0x69,Read,ACK
5.600292500,5972,0x41,0x69,Read,NAK
5.600547500,5974,0x49,0xDC,Read,ACK
5.600602500,5974,0x49,0xDC,Read,NAK
5.605732500,5976,0x49,0xB2,Read,ACK
5.605787500,5976,0x49,0xB2,Read,NAK
5.607417500,5978,0x40,0x9C,Write,ACK
5.607472500,5978,0x40,0x9C,Write,NAK
5.607802500,5980,0x41,0x88,Read,ACK
5.607857500,5980,0x41,0x88,Read,NAK
5.608112500,5982,0x49,0xA6,Read,ACK
5.608167500,5982,0x49,0xA6,Read,NAK
5.613297500,5984,0x49,0x03,Read,ACK
5.613352500,5984,0x49,0x03,Read,NAK
5.614982500,5986,0x40,0xA0,Write,ACK
5.615037500,5986,0x40,0xA0,Write,NAK
5.615367500,5988,0x41,0x88,Read,ACK
5.615422500,5988,0x41,0x88,Read,NAK
5.615677500,5990,0x49,0xA4,Read,ACK
5.615732500,5990,0x49,0xA4,Read,NAK
5.620862500,5992,0x49,0xEE,Read,ACK
5.620917500,5992,0x49,0xEE,Read,NAK
5.622547500,5994,0x40,0xA4,Write,ACK
5.622602500,5994,0x40,0xA4,Write,NAK
5.622932500,5996,0x41,0xBD,Read,ACK
5.622987500,5996,0x41,0xBD,Read,NAK
5.623242500,5998,0x49,0xB7,Read,ACK
5.623297500,5998,0x49,0xB7,Read,NAK
5.628427500,6000,0x49,0xED,Read,ACK
5.628482500,6000,0x49,0xED,Read,NAK
5.630112500,6002,0x40,0xA8,Write,ACK
5.630167500,6002,0x40,0xA8,Write,NAK
5.630497500,6004,0x41,0xC0,Read,ACK
5.630552500,6004,0x41,0xC0,Read,NAK
5.630807500,6006,0x49,0xD0,Read,ACK
5.630862500,6006,0x49,0xD0,Read,NAK
5.635992500,6008,0x49,0xEC,Read,ACK
5.636047500,6008,0x49,0xEC,Read,NAK
5.637677500,6010,0x40,0xAC,Write,ACK
5.637732500,6010,0x40,0xAC,Write,NAK
5.638062500,6012,0x41,0xC1,Read,ACK
5.638117500,6012,0x41,0xC1,Read,NAK
5.638372500,6014,0x49,0xEE,Read,ACK
5.638427500,6014,0x49,0xEE,Read,NAK
5.643557500,6016,0x49,0xF2,Read,ACK
5.643612500,6016,0x49,0xF2,Read,NAK
5.645242500,6018,0x40,0xB0,Write,ACK
5.645297500,6018,0x40,0xB0,Write,NAK
5.645627500,6020,0x41,0xBF,Read,ACK
5.645682500,6020,0x41,0xBF,Read,NAK
5.645937500,6022,0x49,0xAC,Read,ACK
5.645992500,6022,0x49,0xAC,Read,NAK
5.651122500,6024,0x49,0xBB,Read,ACK
5.651177500,6024,0x49,0xBB,Read,NAK
5.652807500,6026,0x40,0xB4,Write,ACK
5.652862500,6026,0x40,0xB4,Write,NAK
5.653192500,6028,0x41,0x88,Read,ACK
5.653247500,6028,0x41,0x88,Read,NAK
5.653502500,6030,0x49,0x01,Read,ACK
5.653557500,6030,0x49,0x01,Read,NAK
5.658687500,6032,0x49,0xEA,Read,ACK
5.658742500,6032,0x49,0xEA,Read,NAK
5.660372500,6034,0x40,0xB8,Write,ACK
5.660427500,6034,0x40,0xB8,Write,NAK
5.660757500,6036,0x41,0x93,Read,ACK
5.660812500,6036,0x41,0x93,Read,NAK
5.661067500,6038,0x49,0xF0,Read,ACK
5.661122500,6038,0x49,0xF0,Read,NAK
5.666252500,6040,0x49,0xE6,Read,ACK
5.666307500,6040,0x49,0xE6,Read,NAK
5.667937500,6042,0x40,0xBC,Write,ACK
5.667992500,6042,0x40,0xBC,Write,NAK
5.668322500,6044,0x41,0xAC,Read,ACK
5.668377500,6044,0x41,0xAC,Read,NAK
5.668632500,6046,0x49,0xD5,Read,ACK
5.668687500,6046,0x49,0xD5,Read,NAK
5.673817500,6048,0x49,0x24,Read,ACK
5.673872500,6048,0x49,0x24,Read,NAK
5.675502500,6050,0x40,0xC0,Write,ACK
5.675557500,6050,0x40,0xC0,Write,NAK
5.675887500,6052,0x41,0x8B,Read,ACK
5.675942500,6052,0x41,0x8B,Read,NAK
5.676197500,6054,0x49,0xFA,Read,ACK
5.676252500,6054,0x49,0xFA,Read,NAK
5.681382500,6056,0x49,0xF1,Read,ACK
5.681437500,6056,0x49,0xF1,Read,NAK
5.683012500,,0x24,,Write,NAK
5.683342500,6060,0x40,0xC4,Write,ACK
5.683397500,6060,0x40,0xC4,Write,NAK
5.683727500,6062,0x41,0xBF,Read,ACK
5.683782500,6062,0x41,0xBF,Read,NAK
5.684037500,6064,0x49,0xF6,Read,ACK
5.684092500,6064,0x49,0xF6,Read,NAK
5.689222500,6066,0x49,0x2A,Read,ACK
5.689277500,6066,0x49,0x2A,Read,NAK
5.690907500,6068,0x40,0xC8,Write,ACK
5.690962500,6068,0x40,0xC8,Write,NAK
5.691292500,6070,0x41,0x9D,Read,ACK
5.691347500,6070,0x41,0x9D,Read,NAK
5.691602500,6072,0x49,0xC6,Read,ACK
5.691657500,6072,0x49,0xC6,Read,NAK
5.696787500,6074,0x49,0x23,Read,ACK
5.696842500,6074,0x49,0x23,Read,NAK
5.698472500,6076,0x40,0xCC,Write,ACK
5.698527500,6076,0x40,0xCC,Write,NAK
5.698857500,6078,0x41,0xBB,Read,ACK
5.698912500,6078,0x41,0xBB,Read,NAK
5.699167500,6080,0x49,0x25,Read,ACK
5.699222500,6080,0x49,0x25,Read,NAK
5.704352500,6082,0x49,0xEE,Read,ACK
5.704407500,6082,0x49,0xEE,Read,NAK
5.706037500,6084,0x40,0xD0,Write,ACK
5.706092500,6084,0x40,0xD0,Write,NAK
5.706422500,6086,0x41,0xD4,Read,ACK
5.706477500,6086,0x41,0xD4,Read,NAK
5.706732500,6088,0x49,0x19,Read,ACK
5.706787500,6088,0x49,0x19,Read,NAK
5.711917500,6090,0x49,0x32,Read,ACK
5.711972500,6090,0x49,0x32,Read,NAK
5.713602500,6092,0x40,0xD4,Write,ACK
5.713657500,6092,0x40,0xD4,Write,NAK
5.713987500,6094,0x41,0xE4,Read,ACK
5.714042500,6094,0x41,0xE4,Read,NAK
5.714297500,6096,0x49,0x24,Read,ACK
5.714352500,6096,0x49,0x24,Read,NAK
5.719482500,6098,0x49,0x00,Read,ACK
5.719537500,6098,0x49,0x00,Read,NAK
5.721167500,6100,0x40,0xD8,Write,ACK
5.721222500,6100,0x40,0xD8,Write,NAK
5.721552500,6102,0x41,0xDA,Read,ACK
5.721607500,6102,0x41,0xDA,Read,NAK
5.721862500,6104,0x49,0x1A,Read,ACK
5.721917500,6104,0x49,0x1A,Read,NAK
5.727047500,6106,0x49,0x3A,Read,ACK
5.727102500,6106,0x49,0x3A,Read,NAK
5.728732500,6108,0x40,0xDC,Write,ACK
5.728787500,6108,0x40,0xDC,Write,NAK
5.729117500,6110,0x41,0xE5,Read,ACK
5.729172500,6110,0x41,0xE5,Read,NAK
5.729427500,6112,0x49,0x2A,Read,ACK
5.729482500,6112,0x49,0x2A,Read,NAK
5.734612500,6114,0x49,0x27,Read,ACK
5.734667500,6114,0x49,0x27,Read,NAK
5.736297500,6116,0x40,0xE0,Write,ACK
5.736352500,6116,0x40,0xE0,Write,NAK
5.736682500,6118,0x41,0xB2,Read,ACK
5.736737500,6118,0x41,0xB2,Read,NAK
5.736992500,6120,0x49,0xE0,Read,ACK
5.737047500,6120,0x49,0xE0,Read,NAK
5.742177500,6122,0x49,0x47,Read,ACK
5.742232500,6122,0x49,0x47,Read,NAK
5.743862500,6124,0x40,0xE4,Write,ACK
5.743917500,6124,0x40,0xE4,Write,NAK
5.744247500,6126,0x41,0xC4,Read,ACK
5.744302500,6126,0x41,0xC4,Read,NAK
5.744557500,6128,0x49,0x05,Read,ACK
5.744612500,6128,0x49,0x05,Read,NAK
5.749742500,6130,0x49,0x44,Read,ACK
5.749797500,6130,0x49,0x44,Read,NAK
5.751427500,6132,0x40,0xE8,Write,ACK
5.751482500,6132,0x40,0xE8,Write,NAK
5.751812500,6134,0x41,0xB5,Read,ACK
5.751867500,6134,0x41,0xB5,Read,NAK
5.752122500,6136,0x49,0x27,Read,ACK
5.752177500,6136,0x49,0x27,Read,NAK
5.757307500,6138,0x49,0x36,Read,ACK
5.757362500,6138,0x49,0x36,Read,NAK
5.758937500,,0x24,,Write,NAK
5.759267500,6142,0x40,0xEC,Write,ACK
5.759322500,6142,0x40,0xEC,Write,NAK
5.759652500,6144,0x41,0xCF,Read,ACK
5.759707500,6144,0x41,0xCF,Read,NAK
5.759962500,6146,0x49,0x15,Read,ACK
5.760017500,6146,0x49,0x15,Read,NAK
5.765147500,6148,0x49,0x56,Read,ACK
5.765202500,6148,0x49,0x56,Read,NAK
5.766832500,6150,0x40,0xF0,Write,ACK
5.766887500,6150,0x40,0xF0,Write,NAK
5.767217500,6152,0x41,0xDC,Read,ACK
5.767272500,6152,0x41,0xDC,Read,NAK
5.767527500,6154,0x49,0x10,Read,ACK
5.767582500,6154,0x49,0x10,Read,NAK
5.772712500,6156,0x49,0xFA,Read,ACK
5.772767500,6156,0x49,0xFA,Read,NAK
5.774397500,6158,0x40,0xF4,Write,ACK
5.774452500,6158,0x40,0xF4,Write,NAK
5.774782500,6160,0x41,0xDF,Read,ACK
5.774837500,6160,0x41,0xDF,Read,NAK
5.775092500,6162,0x49,0x46,Read,ACK
5.775147500,6162,0x49,0x46,Read,NAK
5.780277500,6164,0x49,0x28,Read,ACK
5.780332500,6164,0x49,0x28,Read,NAK
5.781962500,6166,0x40,0xF8,Write,ACK
5.782017500,6166,0x40,0xF8,Write,NAK
5.782347500,6168,0x41,0xD6,Read,ACK
5.782402500,6168,0x41,0xD6,Read,NAK
5.782657500,6170,0x49,0x12,Read,ACK
5.782712500,6170,0x49,0x12,Read,NAK
5.787842500,6172,0x49,0x57,Read,ACK
5.787897500,6172,0x49,0x57,Read,NAK
5.789527500,6174,0x40,0xFC,Write,ACK
5.789582500,6174,0x40,0xFC,Write,NAK
5.789912500,6176,0x41,0x13,Read,ACK
5.789967500,6176,0x41,0x13,Read,NAK
5.790222500,6178,0x49,0x2A,Read,ACK
5.790277500,6178,0x49,0x2A,Read,NAK
5.795407500,6180,0x49,0x66,Read,ACK
5.795462500,6180,0x49,0x66,Read,NAK
5.797092500,6182,0x40,0x00,Write,ACK
5.797147500,6182,0x40,0x00,Write,NAK
5.797477500,6184,0x41,0xDC,Read,ACK
5.797532500,6184,0x41,0xDC,Read,NAK
5.797787500,6186,0x49,0x25,Read,ACK
5.797842500,6186,0x49,0x25,Read,NAK
5.802972500,6188,0x49,0x66,Read,ACK
5.803027500,6188,0x49,0x66,Read,NAK
5.804657500,6190,0x40,0x04,Write,ACK
5.804712500,6190,0x40,0x04,Write,NAK
5.805042500,6192,0x41,0x28,Read,ACK
5.805097500,6192,0x41,0x28,Read,NAK
5.805352500,6194,0x49,0x4F,Read,ACK
5.805407500,6194,0x49,0x4F,Read,NAK
5.810537500,6196,0x49,0x55,Read,ACK
5.810592500,6196,0x49,0x55,Read,NAK
5.812222500,6198,0x40,0x08,Write,ACK
5.812277500,6198,0x40,0x08,Write,NAK
5.812607500,6200,0x41,0xDC,Read,ACK
5.812662500,6200,0x41,0xDC,Read,NAK
5.812917500,6202,0x49,0x60,Read,ACK
5.812972500,6202,0x49,0x60,Read,NAK
5.818102500,6204,0x49,0x65,Read,ACK
5.818157500,6204,0x49,0x65,Read,NAK
5.819787500,6206,0x40,0x0C,Write,ACK
5.819842500,6206,0x40,0x0C,Write,NAK
5.820172500,6208,0x41,0xD7,Read,ACK
5.820227500,6208,0x41,0xD7,Read,NAK
5.820482500,6210,0x49,0x57,Read,ACK
5.820537500,6210,0x49,0x57,Read,NAK
5.825667500,6212,0x49,0x25,Read,ACK
5.825722500,6212,0x49,0x25,Read,NAK
5.827352500,6214,0x40,0x10,Write,ACK
5.827407500,6214,0x40,0x10,Write,NAK
5.827737500,6216,0x41,0xF5,Read,ACK
5.827792500,6216,0x41,0xF5,Read,NAK
5.828047500,6218,0x49,0x1B,Read,ACK
5.828102500,6218,0x49,0x1B,Read,NAK
5.833232500,6220,0x49,0x73,Read,ACK
5.833287500,6220,0x49,0x73,Read,NAK
5.834917500,6222,0x40,0x14,Write,ACK
5.834972500,6222,0x40,0x14,Write,NAK
5.835302500,6224,0x41,0xEB,Read,ACK
5.835357500,6224,0x41,0xEB,Read,NAK
5.835612500,6226,0x49,0x63,Read,ACK
5.835667500,6226,0x49,0x63,Read,NAK
5.840797500,6228,0x49,0x51,Read,ACK
5.840852500,6228,0x49,0x51,Read,NAK
5.842482500,6230,0x40,0x18,Write,ACK
5.842537500,6230,0x40,0x18,Write,NAK
5.842867500,6232,0x41,0xFC,Read,ACK
5.842922500,6232,0x41,0xFC,Read,NAK
5.843177500,6234,0x49,0x38,Read,ACK
5.843232500,6234,0x49,0x38,Read,NAK
5.848362500,6236,0x49,0x63,Read,ACK
5.848417500,6236,0x49,0x63,Read,NAK
5.850047500,6238,0x40,0x1C,Write,ACK
5.850102500,6238,0x40,0x1C,Write,NAK
5.850432500,6240,0x41,0x49,Read,ACK
5.850487500,6240,0x41,0x49,Read,NAK
5.850742500,6242,0x49,0x25,Read,ACK
5.850797500,6242,0x49,0x25,Read,NAK
5.855927500,6244,0x49,0x4B,Read,ACK
5.855982500,6244,0x49,0x4B,Read,NAK
5.857612500,6246,0x40,0x20,Write,ACK
5.857667500,6246,0x40,0x20,Write,NAK
5.857997500,6248,0x41,0x2C,Read,ACK
5.858052500,6248,0x41,0x2C,Read,NAK
5.858307500,6250,0x49,0x6E,Read,ACK
5.858362500,6250,0x49,0x6E,Read,NAK
5.863492500,6252,0x49,0x31,Read,ACK
5.863547500,6252,0x49,0x31,Read,NAK
5.865177500,6254,0x40,0x24,Write,ACK
5.865232500,6254,0x40,0x24,Write,NAK
5.865562500,6256,0x41,0x37,Read,ACK
5.865617500,6256,0x41,0x37,Read,NAK
5.865872500,6258,0x49,0x6F,Read,ACK
5.865927500,6258,0x49,0x6F,Read,NAK
5.871057500,6260,0x49,0x2D,Read,ACK
5.871112500,6260,0x49,0x2D,Read,NAK
5.872742500,6262,0x40,0x28,Write,ACK
5.872797500,6262,0x40,0x28,Write,NAK
5.873127500,6264,0x41,0x15,Read,ACK
5.873182500,6264,0x41,0x15,Read,NAK
5.873437500,6266,0x49,0x76,Read,ACK
5.873492500,6266,0x49,0x76,Read,NAK
5.878622500,6268,0x49,0x76,Read,ACK
5.878677500,6268,0x49,0x76,Read,NAK
5.880307500,6270,0x40,0x2C,Write,ACK
5.880362500,6270,0x40,0x2C,Write,NAK
5.880692500,6272,0x41,0x0F,Read,ACK
5.880747500,6272,0x41,0x0F,Read,NAK
5.881002500,6274,0x49,0x4B,Read,ACK
5.881057500,6274,0x49,0x4B,Read,NAK
5.886187500,6276,0x49,0x7E,Read,ACK
5.886242500,6276,0x49,0x7E,Read,NAK
5.887872500,6278,0x40,0x30,Write,ACK
5.887927500,6278,0x40,0x30,Write,NAK
5.888257500,6280,0x41,0x09,Read,ACK
5.888312500,6280,0x41,0x09,Read,NAK
5.888567500,6282,0x49,0x6A,Read,ACK
5.888622500,6282,0x49,0x6A,Read,NAK
5.893752500,6284,0x49,0x48,Read,ACK
5.893807500,6284,0x49,0x48,Read,NAK
5.895382500,,0x24,,Write,NAK
5.895712500,6288,0x40,0x34,Write,ACK
5.895767500,6288,0x40,0x34,Write,NAK
5.896097500,6290,0x41,0x07,Read,ACK
5.896152500,6290,0x41,0x07,Read,NAK
5.896407500,6292,0x49,0x71,Read,ACK
5.896462500,6292,0x49,0x71,Read,NAK
5.901592500,6294,0x49,0x7D,Read,ACK
5.901647500,6294,0x49,0x7D,Read,NAK
5.903277500,6296,0x40,0x38,Write,ACK
5.903332500,6296,0x40,0x38,Write,NAK
5.903662500,6298,0x41,0x43,Read,ACK
5.903717500,6298,0x41,0x43,Read,NAK
5.903972500,6300,0x49,0x84,Read,ACK
5.904027500,6300,0x49,0x84,Read,NAK
5.909157500,6302,0x49,0x99,Read,ACK
5.909212500,6302,0x49,0x99,Read,NAK
5.910842500,6304,0x40,0x3C,Write,ACK
5.910897500,6304,0x40,0x3C,Write,NAK
5.911227500,6306,0x41,0x0C,Read,ACK
5.911282500,6306,0x41,0x0C,Read,NAK
5.911537500,6308,0x49,0x51,Read,ACK
5.911592500,6308,0x49,0x51,Read,NAK
5.916722500,6310,0x49,0x65,Read,ACK
5.916777500,6310,0x49,0x65,Read,NAK
5.918407500,6312,0x40,0x40,Write,ACK
5.918462500,6312,0x40,0x40,Write,NAK
5.918792500,6314,0x41,0x51,Read,ACK
5.918847500,6314,0x41,0x51,Read,NAK
5.919102500,6316,0x49,0x62,Read,ACK
5.919157500,6316,0x49,0x62,Read,NAK
5.924287500,6318,0x49,0x98,Read,ACK
5.924342500,6318,0x49,0x98,Read,NAK
5.925972500,6320,0x40,0x44,Write,ACK
5.926027500,6320,0x40,0x44,Write,NAK
5.926357500,6322,0x41,0x5F,Read,ACK
5.926412500,6322,0x41,0x5F,Read,NAK
5.926667500,6324,0x49,0x8D,Read,ACK
5.926722500,6324,0x49,0x8D,Read,NAK
5.931852500,6326,0x49,0x6A,Read,ACK
5.931907500,6326,0x49,0x6A,Read,NAK
5.933537500,6328,0x40,0x48,Write,ACK
5.933592500,6328,0x40,0x48,Write,NAK
5.933922500,6330,0x41,0x29,Read,ACK
5.933977500,6330,0x41,0x29,Read,NAK
5.934232500,6332,0x49,0x40,Read,ACK
5.934287500,6332,0x49,0x40,Read,NAK
5.939417500,6334,0x49,0x57,Read,ACK
5.939472500,6334,0x49,0x57,Read,NAK
5.941047500,,0x24,,Write,NAK
5.941377500,6338,0x40,0x4C,Write,ACK
5.941432500,6338,0x40,0x4C,Write,NAK
5.941762500,6340,0x41,0x76,Read,ACK
5.941817500,6340,0x41,0x76,Read,NAK
5.942072500,6342,0x49,0x96,Read,ACK
5.942127500,6342,0x49,0x96,Read,NAK
5.947257500,6344,0x49,0x57,Read,ACK
5.947312500,6344,0x49,0x57,Read,NAK
5.948942500,6346,0x40,0x50,Write,ACK
5.948997500,6346,0x40,0x50,Write,NAK
5.949327500,6348,0x41,0x1E,Read,ACK
5.949382500,6348,0x41,0x1E,Read,NAK
5.949637500,6350,0x49,0x5B,Read,ACK
5.949692500,6350,0x49,0x5B,Read,NAK
5.954822500,6352,0x49,0x82,Read,ACK
5.954877500,6352,0x49,0x82,Read,NAK
5.956507500,6354,0x40,0x54,Write,ACK
5.956562500,6354,0x40,0x54,Write,NAK
5.956892500,6356,0x41,0x4A,Read,ACK
5.956947500,6356,0x41,0x4A,Read,NAK
5.957202500,6358,0x49,0x53,Read,ACK
5.957257500,6358,0x49,0x53,Read,NAK
5.962387500,6360,0x49,0x5C,Read,ACK
5.962442500,6360,0x49,0x5C,Read,NAK
5.964072500,6362,0x40,0x58,Write,ACK
5.964127500,6362,0x40,0x58,Write,NAK
5.964457500,6364,0x41,0x82,Read,ACK
5.964512500,6364,0x41,0x82,Read,NAK
5.964767500,6366,0x49,0xA9,Read,ACK
5.964822500,6366,0x49,0xA9,Read,NAK
5.969952500,6368,0x49,0x79,Read,ACK
5.970007500,6368,0x49,0x79,Read,NAK
5.971637500,6370,0x40,0x5C,Write,ACK
5.971692500,6370,0x40,0x5C,Write,NAK
5.972022500,6372,0x41,0x70,Read,ACK
5.972077500,6372,0x41,0x70,Read,NAK
5.972332500,6374,0x49,0x5E,Read,ACK
5.972387500,6374,0x49,0x5E,Read,NAK
5.977517500,6376,0x49,0x7D,Read,ACK
5.977572500,6376,0x49,0x7D,Read,NAK
5.979202500,6378,0x40,0x60,Write,ACK
5.979257500,6378,0x40,0x60,Write,NAK
5.979587500,6380,0x41,0x33,Read,ACK
5.979642500,6380,0x41,0x33,Read,NAK
5.979897500,6382,0x49,0x5D,Read,ACK
5.979952500,6382,0x49,0x5D,Read,NAK
5.985082500,6384,0x49,0x90,Read,ACK
5.985137500,6384,0x49,0x90,Read,NAK
5.986767500,6386,0x40,0x64,Write,ACK
5.986822500,6386,0x40,0x64,Write,NAK
5.987152500,6388,0x41,0x58,Read,ACK
5.987207500,6388,0x41,0x58,Read,NAK
5.987462500,6390,0x49,0xA3,Read,ACK
5.987517500,6390,0x49,0xA3,Read,NAK
5.992647500,6392,0x49,0xAA,Read,ACK
5.992702500,6392,0x49,0xAA,Read,NAK
5.994332500,6394,0x40,0x68,Write,ACK
5.994387500,6394,0x40,0x68,Write,NAK
5.994717500,6396,0x41,0x4D,Read,ACK
5.994772500,6396,0x41,0x4D,Read,NAK
5.995027500,6398,0x49,0xA5,Read,ACK
5.995082500,6398,0x49,0xA5,Read,NAK
6.000212500,6400,0x49,0x80,Read,ACK
6.000267500,6400,0x49,0x80,Read,NAK
6.001897500,6402,0x40,0x6C,Write,ACK
6.001952500,6402,0x40,0x6C,Write,NAK
6.002282500,6404,0x41,0x6D,Read,ACK
6.002337500,6404,0x41,0x6D,Read,NAK
6.002592500,6406,0x49,0x78,Read,ACK
6.002647500,6406,0x49,0x78,Read,NAK
6.007777500,6408,0x49,0xC9,Read,ACK
6.007832500,6408,0x49,0xC9,Read,NAK
6.009462500,6410,0x40,0x70,Write,ACK
6.009517500,6410,0x40,0x70,Write,NAK
6.009847500,6412,0x41,0x99,Read,ACK
6.009902500,6412,0x41,0x99,Read,NAK
6.010157500,6414,0x49,0xB8,Read,ACK
6.010212500,6414,0x49,0xB8,Read,NAK
6.015342500,6416,0x49,0xC0,Read,ACK
6.015397500,6416,0x49,0xC0,Read,NAK
6.017027500,6418,0x40,0x74,Write,ACK
6.017082500,6418,0x40,0x74,Write,NAK
6.017412500,6420,0x41,0x99,Read,ACK
6.017467500,6420,0x41,0x99,Read,NAK
6.017722500,6422,0x49,0xB4,Read,ACK
6.017777500,6422,0x49,0xB4,Read,NAK
6.022907500,6424,0x49,0x7D,Read,ACK
6.022962500,6424,0x49,0x7D,Read,NAK
6.024592500,6426,0x40,0x78,Write,ACK
6.024647500,6426,0x40,0x78,Write,NAK
6.024977500,6428,0x41,0x53,Read,ACK
6.025032500,6428,0x41,0x53,Read,NAK
6.025287500,6430,0x49,0xBE,Read,ACK
6.025342500,6430,0x49,0xBE,Read,NAK
6.030472500,6432,0x49,0xDC,Read,ACK
6.030527500,6432,0x49,0xDC,Read,NAK
6.032157500,6434,0x40,0x7C,Write,ACK
6.032212500,6434,0x40,0x7C,Write,NAK
6.032542500,6436,0x41,0x73,Read,ACK
6.032597500,6436,0x41,0x73,Read,NAK
6.032852500,6438,0x49,0xBA,Read,ACK
6.032907500,6438,0x49,0xBA,Read,NAK
6.038037500,6440,0x49,0xDC,Read,ACK
6.038092500,6440,0x49,0xDC,Read,NAK
6.039722500,6442,0x40,0x80,Write,ACK
6.039777500,6442,0x40,0x80,Write,NAK
6.040107500,6444,0x41,0x69,Read,ACK
6.040162500,6444,0x41,0x69,Read,NAK
6.040417500,6446,0x49,0x95,Read,ACK
6.040472500,6446,0x49,0x95,Read,NAK
6.045602500,6448,0x49,0xB7,Read,ACK
6.045657500,6448,0x49,0xB7,Read,NAK
6.047287500,6450,0x40,0x84,Write,ACK
6.047342500,6450,0x40,0x84,Write,NAK
6.047672500,6452,0x41,0x52,Read,ACK
6.047727500,6452,0x41,0x52,Read,NAK
6.047982500,6454,0x49,0x85,Read,ACK
6.048037500,6454,0x49,0x85,Read,NAK
6.053167500,6456,0x49,0xB6,Read,ACK
6.053222500,6456,0x49,0xB6,Read,NAK
6.054852500,6458,0x40,0x88,Write,ACK
6.054907500,6458,0x40,0x88,Write,NAK
6.055237500,6460,0x41,0xA5,Read,ACK
6.055292500,6460,0x41,0xA5,Read,NAK
6.055547500,6462,0x49,0xBB,Read,ACK
6.055602500,6462,0x49,0xBB,Read,NAK
6.060732500,6464,0x49,0x96,Read,ACK
6.060787500,6464,0x49,0x96,Read,NAK
6.062417500,6466,0x40,0x8C,Write,ACK
6.062472500,6466,0x40,0x8C,Write,NAK
6.062802500,6468,0x41,0x79,Read,ACK
6.062857500,6468,0x41,0x79,Read,NAK
6.063112500,6470,0x49,0xAF,Read,ACK
6.063167500,6470,0x49,0xAF,Read,NAK
6.068297500,6472,0x49,0xC5,Read,ACK
6.068352500,6472,0x49,0xC5,Read,NAK
6.069982500,6474,0x40,0x90,Write,ACK
6.070037500,6474,0x40,0x90,Write,NAK
6.070367500,6476,0x41,0x75,Read,ACK
6.070422500,6476,0x41,0x75,Read,NAK
6.070677500,6478,0x49,0xD1,Read,ACK
6.070732500,6478,0x49,0xD1,Read,NAK
6.075862500,6480,0x49,0xE1,Read,ACK
6.075917500,6480,0x49,0xE1,Read,NAK
6.077547500,6482,0x40,0x94,Write,ACK
6.077602500,6482,0x40,0x94,Write,NAK
6.077932500,6484,0x41,0x5F,Read,ACK
6.077987500,6484,0x41,0x5F,Read,NAK
6.078242500,6486,0x49,0xA6,Read,ACK
6.078297500,6486,0x49,0xA6,Read,NAK
6.083427500,6488,0x49,0xD9,Read,ACK
6.083482500,6488,0x49,0xD9,Read,NAK
6.085112500,6490,0x40,0x98,Write,ACK
6.085167500,6490,0x40,0x98,Write,NAK
6.085497500,6492,0x41,0x6B,Read,ACK
6.085552500,6492,0x41,0x6B,Read,NAK
6.085807500,6494,0x49,0x96,Read,ACK
6.085862500,6494,0x49,0x96,Read,NAK
6.090992500,6496,0x49,0xDD,Read,ACK
6.091047500,6496,0x49,0xDD,Read,NAK
6.092677500,6498,0x40,0x9C,Write,ACK
6.092732500,6498,0x40,0x9C,Write,NAK
6.093062500,6500,0x41,0xB6,Read,ACK
6.093117500,6500,0x41,0xB6,Read,NAK
6.093372500,6502,0x49,0xC6,Read,ACK
6.093427500,6502,0x49,0xC6,Read,NAK
6.098557500,6504,0x49,0xDF,Read,ACK
6.098612500,6504,0x49,0xDF,Read,NAK
6.100242500,6506,0x40,0xA0,Write,ACK
6.100297500,6506,0x40,0xA0,Write,NAK
6.100627500,6508,0x41,0xBD,Read,ACK
6.100682500,6508,0x41,0xBD,Read,NAK
6.100937500,6510,0x49,0x9E,Read,ACK
6.100992500,6510,0x49,0x9E,Read,NAK
6.106122500,6512,0x49,0xCC,Read,ACK
6.106177500,6512,0x49,0xCC,Read,NAK
6.107807500,6514,0x40,0xA4,Write,ACK
6.107862500,6514,0x40,0xA4,Write,NAK
6.108192500,6516,0x41,0xB6,Read,ACK
6.108247500,6516,0x41,0xB6,Read,NAK
6.108502500,6518,0x49,0xEB,Read,ACK
6.108557500,6518,0x49,0xEB,Read,NAK
6.113687500,6520,0x49,0xC1,Read,ACK
6.113742500,6520,0x49,0xC1,Read,NAK
6.115372500,6522,0x40,0xA8,Write,ACK
6.115427500,6522,0x40,0xA8,Write,NAK
6.115757500,6524,0x41,0x9C,Read,ACK
6.115812500,6524,0x41,0x9C,Read,NAK
6.116067500,6526,0x49,0xBB,Read,ACK
6.116122500,6526,0x49,0xBB,Read,NAK
6.121252500,6528,0x49,0xDC,Read,ACK
6.121307500,6528,0x49,0xDC,Read,NAK
6.122937500,6530,0x40,0xAC,Write,ACK
6.122992500,6530,0x40,0xAC,Write,NAK
6.123322500,6532,0x41,0x91,Read,ACK
6.123377500,6532,0x41,0x91,Read,NAK
6.123632500,6534,0x49,0xD1,Read,ACK
6.123687500,6534,0x49,0xD1,Read,NAK
6.128817500,6536,0x49,0xEE,Read,ACK
6.128872500,6536,0x49,0xEE,Read,NAK
6.130502500,6538,0x40,0xB0,Write,ACK
6.130557500,6538,0x40,0xB0,Write,NAK
6.130887500,6540,0x41,0x90,Read,ACK
6.130942500,6540,0x41,0x90,Read,NAK
6.131197500,6542,0x49,0xFC,Read,ACK
6.131252500,6542,0x49,0xFC,Read,NAK
6.136382500,6544,0x49,0xD4,Read,ACK
6.136437500,6544,0x49,0xD4,Read,NAK
6.138067500,6546,0x40,0xB4,Write,ACK
6.138122500,6546,0x40,0xB4,Write,NAK
6.138452500,6548,0x41,0x8C,Read,ACK
6.138507500,6548,0x41,0x8C,Read,NAK
6.138762500,6550,0x49,0x06,Read,ACK
6.138817500,6550,0x49,0x06,Read,NAK
6.143947500,6552,0x49,0x19,Read,ACK
6.144002500,6552,0x49,0x19,Read,NAK
6.145632500,6554,0x40,0xB8,Write,ACK
6.145687500,6554,0x40,0xB8,Write,NAK
6.146017500,6556,0x41,0xB6,Read,ACK
6.146072500,6556,0x41,0xB6,Read,NAK
6.146327500,6558,0x49,0xE6,Read,ACK
6.146382500,6558,0x49,0xE6,Read,NAK
6.151512500,6560,0x49,0xDC,Read,ACK
6.151567500,6560,0x49,0xDC,Read,NAK
6.153197500,6562,0x40,0xBC,Write,ACK
6.153252500,6562,0x40,0xBC,Write,NAK
6.153582500,6564,0x41,0x8E,Read,ACK
6.153637500,6564,0x41,0x8E,Read,NAK
6.153892500,6566,0x49,0xDB,Read,ACK
6.153947500,6566,0x49,0xDB,Read,NAK
6.159077500,6568,0x49,0x22,Read,ACK
6.159132500,6568,0x49,0x22,Read,NAK
6.160762500,6570,0x40,0xC0,Write,ACK
6.160817500,6570,0x40,0xC0,Write,NAK
6.161147500,6572,0x41,0x8C,Read,ACK
6.161202500,6572,0x41,0x8C,Read,NAK
6.161457500,6574,0x49,0xD7,Read,ACK
6.161512500,6574,0x49,0xD7,Read,NAK
6.166642500,6576,0x49,0x19,Read,ACK
6.166697500,6576,0x49,0x19,Read,NAK
6.168327500,6578,0x40,0xC4,Write,ACK
6.168382500,6578,0x40,0xC4,Write,NAK
6.168712500,6580,0x41,0x9C,Read,ACK
6.168767500,6580,0x41,0x9C,Read,NAK
6.169022500,6582,0x49,0xBF,Read,ACK
6.169077500,6582,0x49,0xBF,Read,NAK
6.174207500,6584,0x49,0x1C,Read,ACK
6.174262500,6584,0x49,0x1C,Read,NAK
6.175892500,6586,0x40,0xC8,Write,ACK
6.175947500,6586,0x40,0xC8,Write,NAK
6.176277500,6588,0x41,0xE8,Read,ACK
6.176332500,6588,0x41,0xE8,Read,NAK
6.176587500,6590,0x49,0x0C,Read,ACK
6.176642500,6590,0x49,0x0C,Read,NAK
6.181772500,6592,0x49,0xF4,Read,ACK
6.181827500,6592,0x49,0xF4,Read,NAK
6.183457500,6594,0x40,0xCC,Write,ACK
6.183512500,6594,0x40,0xCC,Write,NAK
6.183842500,6596,0x41,0xB0,Read,ACK
6.183897500,6596,0x41,0xB0,Read,NAK
6.184152500,6598,0x49,0xF2,Read,ACK
6.184207500,6598,0x49,0xF2,Read,NAK
6.189337500,6600,0x49,0xE7,Read,ACK
6.189392500,6600,0x49,0xE7,Read,NAK
6.190967500,,0x24,,Write,NAK
6.191297500,6604,0x40,0xD0,Write,ACK
6.191352500,6604,0x40,0xD0,Write,NAK
6.191682500,6606,0x41,0xBC,Read,ACK
6.191737500,6606,0x41,0xBC,Read,NAK
6.191992500,6608,0x49,0xF7,Read,ACK
6.192047500,6608,0x49,0xF7,Read,NAK
6.197177500,6610,0x49,0x23,Read,ACK
6.197232500,6610,0x49,0x23,Read,NAK
6.198862500,6612,0x40,0xD4,Write,ACK
6.198917500,6612,0x40,0xD4,Write,NAK
6.199247500,6614,0x41,0xFB,Read,ACK
6.199302500,6614,0x41,0xFB,Read,NAK
6.199557500,6616,0x49,0x10,Read,ACK
6.199612500,6616,0x49,0x10,Read,NAK
6.204742500,6618,0x49,0xF3,Read,ACK
6.204797500,6618,0x49,0xF3,Read,NAK
6.206427500,6620,0x40,0xD8,Write,ACK
6.206482500,6620,0x40,0xD8,Write,NAK
6.206812500,6622,0x41,0xBC,Read,ACK
6.206867500,6622,0x41,0xBC,Read,NAK
6.207122500,6624,0x49,0xD4,Read,ACK
6.207177500,6624,0x49,0xD4,Read,NAK
6.212307500,6626,0x49,0xFC,Read,ACK
6.212362500,6626,0x49,0xFC,Read,NAK
6.213992500,6628,0x40,0xDC,Write,ACK
6.214047500,6628,0x40,0xDC,Write,NAK
6.214377500,6630,0x41,0x09,Read,ACK
6.214432500,6630,0x41,0x09,Read,NAK
6.214687500,6632,0x49,0xEB,Read,ACK
6.214742500,6632,0x49,0xEB,Read,NAK
6.219872500,6634,0x49,0x31,Read,ACK
6.219927500,6634,0x49,0x31,Read,NAK
6.221557500,6636,0x40,0xE0,Write,ACK
6.221612500,6636,0x40,0xE0,Write,NAK
6.221942500,6638,0x41,0xE4,Read,ACK
6.221997500,6638,0x41,0xE4,Read,NAK
6.222252500,6640,0x49,0xE3,Read,ACK
6.222307500,6640,0x49,0xE3,Read,NAK
6.227437500,6642,0x49,0x02,Read,ACK
6.227492500,6642,0x49,0x02,Read,NAK
6.229122500,6644,0x40,0xE4,Write,ACK
6.229177500,6644,0x40,0xE4,Write,NAK
6.229507500,6646,0x41,0xC0,Read,ACK
6.229562500,6646,0x41,0xC0,Read,NAK
6.229817500,6648,0x49,0x16,Read,ACK
6.229872500,6648,0x49,0x16,Read,NAK
6.235002500,6650,0x49,0x3F,Read,ACK
6.235057500,6650,0x49,0x3F,Read,NAK
6.236687500,6652,0x40,0xE8,Write,ACK
6.236742500,6652,0x40,0xE8,Write,NAK
6.237072500,6654,0x41,0x0D,Read,ACK
6.237127500,6654,0x41,0x0D,Read,NAK
6.237382500,6656,0x49,0x27,Read,ACK
6.237437500,6656,0x49,0x27,Read,NAK
6.242567500,6658,0x49,0x01,Read,ACK
6.242622500,6658,0x49,0x01,Read,NAK
6.244252500,6660,0x40,0xEC,Write,ACK
6.244307500,6660,0x40,0xEC,Write,NAK
6.244637500,6662,0x41,0xFF,Read,ACK
6.244692500,6662,0x41,0xFF,Read,NAK
6.244947500,6664,0x49,0x3C,Read,ACK
6.245002500,6664,0x49,0x3C,Read,NAK
6.250132500,6666,0x49,0x38,Read,ACK
6.250187500,6666,0x49,0x38,Read,NAK
6.251762500,,0x24,,Write,NAK
6.252092500,6670,0x40,0xF0,Write,ACK
6.252147500,6670,0x40,0xF0,Write,NAK
6.252477500,6672,0x41,0x15,Read,ACK
6.252532500,6672,0x41,0x15,Read,NAK
6.252787500,6674,0x49,0x13,Read,ACK
6.252842500,6674,0x49,0x13,Read,NAK
6.257972500,6676,0x49,0x00,Read,ACK
6.258027500,6676,0x49,0x00,Read,NAK
6.259657500,6678,0x40,0xF4,Write,ACK
6.259712500,6678,0x40,0xF4,Write,NAK
6.260042500,6680,0x41,0xCD,Read,ACK
6.260097500,6680,0x41,0xCD,Read,NAK
6.260352500,6682,0x49,0x3F,Read,ACK
6.260407500,6682,0x49,0x3F,Read,NAK
6.265537500,6684,0x49,0x4D,Read,ACK
6.265592500,6684,0x49,0x4D,Read,NAK
6.267222500,6686,0x40,0xF8,Write,ACK
6.267277500,6686,0x40,0xF8,Write,NAK
6.267607500,6688,0x41,0x1D,Read,ACK
6.267662500,6688,0x41,0x1D,Read,NAK
6.267917500,6690,0x49,0xFA,Read,ACK
6.267972500,6690,0x49,0xFA,Read,NAK
6.273102500,6692,0x49,0x50,Read,ACK
6.273157500,6692,0x49,0x50,Read,NAK
6.274787500,6694,0x40,0xFC,Write,ACK
6.274842500,6694,0x40,0xFC,Write,NAK
6.275172500,6696,0x41,0x1F,Read,ACK
6.275227500,6696,0x41,0x1F,Read,NAK
6.275482500,6698,0x49,0xFD,Read,ACK
6.275537500,6698,0x49,0xFD,Read,NAK
6.280667500,6700,0x49,0x2F,Read,ACK
6.280722500,6700,0x49,0x2F,Read,NAK
6.282352500,6702,0x40,0x00,Write,ACK
6.282407500,6702,0x40,0x00,Write,NAK
6.282737500,6704,0x41,0xE2,Read,ACK
6.282792500,6704,0x41,0xE2,Read,NAK
6.283047500,6706,0x49,0x0E,Read,ACK
6.283102500,6706,0x49,0x0E,Read,NAK
6.288232500,6708,0x49,0x52,Read,ACK
6.288287500,6708,0x49,0x52,Read,NAK
6.289917500,6710,0x40,0x04,Write,ACK
6.289972500,6710,0x40,0x04,Write,NAK
6.290302500,6712,0x41,0x22,Read,ACK
6.290357500,6712,0x41,0x22,Read,NAK
6.290612500,6714,0x49,0x35,Read,ACK
6.290667500,6714,0x49,0x35,Read,NAK
6.295797500,6716,0x49,0x3A,Read,ACK
6.295852500,6716,0x49,0x3A,Read,NAK
6.297482500,6718,0x40,0x08,Write,ACK
6.297537500,6718,0x40,0x08,Write,NAK
6.297867500,6720,0x41,0x26,Read,ACK
6.297922500,6720,0x41,0x26,Read,NAK
6.298177500,6722,0x49,0x0F,Read,ACK
6.298232500,6722,0x49,0x0F,Read,NAK
6.303362500,6724,0x49,0x6F,Read,ACK
6.303417500,6724,0x49,0x6F,Read,NAK
6.305047500,6726,0x40,0x0C,Write,ACK
6.305102500,6726,0x40,0x0C,Write,NAK
6.305432500,6728,0x41,0x11,Read,ACK
6.305487500,6728,0x41,0x11,Read,NAK
6.305742500,6730,0x49,0x44,Read,ACK
6.305797500,6730,0x49,0x44,Read,NAK
6.310927500,6732,0x49,0x24,Read,ACK
6.310982500,6732,0x49,0x24,Read,NAK
6.312612500,6734,0x40,0x10,Write,ACK
6.312667500,6734,0x40,0x10,Write,NAK
6.312997500,6736,0x41,0x19,Read,ACK
6.313052500,6736,0x41,0x19,Read,NAK
6.313307500,6738,0x49,0x54,Read,ACK
6.313362500,6738,0x49,0x54,Read,NAK
6.318492500,6740,0x49,0x6E,Read,ACK
6.318547500,6740,0x49,0x6E,Read,NAK
6.320177500,6742,0x40,0x14,Write,ACK
6.320232500,6742,0x40,0x14,Write,NAK
6.320562500,6744,0x41,0xEE,Read,ACK
6.320617500,6744,0x41,0xEE,Read,NAK
6.320872500,6746,0x49,0x20,Read,ACK
6.320927500,6746,0x49,0x20,Read,NAK
6.326057500,6748,0x49,0x34,Read,ACK
6.326112500,6748,0x49,0x34,Read,NAK
6.327742500,6750,0x40,0x18,Write,ACK
6.327797500,6750,0x40,0x18,Write,NAK
6.328127500,6752,0x41,0x38,Read,ACK
6.328182500,6752,0x41,0x38,Read,NAK
6.328437500,6754,0x49,0x14,Read,ACK
6.328492500,6754,0x49,0x14,Read,NAK
6.333622500,6756,0x49,0x21,Read,ACK
6.333677500,6756,0x49,0x21,Read,NAK
6.335307500,6758,0x40,0x1C,Write,ACK
6.335362500,6758,0x40,0x1C,Write,NAK
6.335692500,6760,0x41,0xF7,Read,ACK
6.335747500,6760,0x41,0xF7,Read,NAK
6.336002500,6762,0x49,0x41,Read,ACK
6.336057500,6762,0x49,0x41,Read,NAK
6.341187500,6764,0x49,0x6D,Read,ACK
6.341242500,6764,0x49,0x6D,Read,NAK
6.342872500,6766,0x40,0x20,Write,ACK
6.342927500,6766,0x40,0x20,Write,NAK
6.343257500,6768,0x41,0x01,Read,ACK
6.343312500,6768,0x41,0x01,Read,NAK
6.343567500,6770,0x49,0x47,Read,ACK
6.343622500,6770,0x49,0x47,Read,NAK
6.348752500,6772,0x49,0x4B,Read,ACK
6.348807500,6772,0x49,0x4B,Read,NAK
6.350437500,6774,0x40,0x24,Write,ACK
6.350492500,6774,0x40,0x24,Write,NAK
6.350822500,6776,0x41,0x2A,Read,ACK
6.350877500,6776,0x41,0x2A,Read,NAK
6.351132500,6778,0x49,0x3D,Read,ACK
6.351187500,6778,0x49,0x3D,Read,NAK
6.356317500,6780,0x49,0x82,Read,ACK
6.356372500,6780,0x49,0x82,Read,NAK
6.358002500,6782,0x40,0x28,Write,ACK
6.358057500,6782,0x40,0x28,Write,NAK
6.358387500,6784,0x41,0x26,Read,ACK
6.358442500,6784,0x41,0x26,Read,NAK
6.358697500,6786,0x49,0x71,Read,ACK
6.358752500,6786,0x49,0x71,Read,NAK
6.363882500,6788,0x49,0x64,Read,ACK
6.363937500,6788,0x49,0x64,Read,NAK
6.365567500,6790,0x40,0x2C,Write,ACK
6.365622500,6790,0x40,0x2C,Write,NAK
6.365952500,6792,0x41,0xF7,Read,ACK
6.366007500,6792,0x41,0xF7,Read,NAK
6.366262500,6794,0x49,0x69,Read,ACK
6.366317500,6794,0x49,0x69,Read,NAK
6.371447500,6796,0x49,0x75,Read,ACK
6.371502500,6796,0x49,0x75,Read,NAK
6.373132500,6798,0x40,0x30,Write,ACK
6.373187500,6798,0x40,0x30,Write,NAK
6.373517500,6800,0x41,0xFB,Read,ACK
6.373572500,6800,0x41,0xFB,Read,NAK
6.373827500,6802,0x49,0x2B,Read,ACK
6.373882500,6802,0x49,0x2B,Read,NAK
6.379012500,6804,0x49,0x97,Read,ACK
6.379067500,6804,0x49,0x97,Read,NAK
6.380697500,6806,0x40,0x34,Write,ACK
6.380752500,6806,0x40,0x34,Write,NAK
6.381082500,6808,0x41,0x19,Read,ACK
6.381137500,6808,0x41,0x19,Read,NAK
6.381392500,6810,0x49,0x73,Read,ACK
6.381447500,6810,0x49,0x73,Read,NAK
6.386577500,6812,0x49,0x88,Read,ACK
6.386632500,6812,0x49,0x88,Read,NAK
6.388262500,6814,0x40,0x38,Write,ACK
6.388317500,6814,0x40,0x38,Write,NAK
6.388647500,6816,0x41,0x51,Read,ACK
6.388702500,6816,0x41,0x51,Read,NAK
6.388957500,6818,0x49,0x7D,Read,ACK
6.389012500,6818,0x49,0x7D,Read,NAK
6.394142500,6820,0x49,0x67,Read,ACK
6.394197500,6820,0x49,0x67,Read,NAK
6.395827500,6822,0x40,0x3C,Write,ACK
6.395882500,6822,0x40,0x3C,Write,NAK
6.396212500,6824,0x41,0x54,Read,ACK
6.396267500,6824,0x41,0x54,Read,NAK
6.396522500,6826,0x49,0x74,Read,ACK
6.396577500,6826,0x49,0x74,Read,NAK
6.401707500,6828,0x49,0x6D,Read,ACK
6.401762500,6828,0x49,0x6D,Read,NAK
6.403392500,6830,0x40,0x40,Write,ACK
6.403447500,6830,0x40,0x40,Write,NAK
6.403777500,6832,0x41,0x4D,Read,ACK
6.403832500,6832,0x41,0x4D,Read,NAK
6.404087500,6834,0x49,0x85,Read,ACK
6.404142500,6834,0x49,0x85,Read,NAK
6.409272500,6836,0x49,0x84,Read,ACK
6.409327500,6836,0x49,0x84,Read,NAK
6.410957500,6838,0x40,0x44,Write,ACK
6.411012500,6838,0x40,0x44,Write,NAK
6.411342500,6840,0x41,0x1C,Read,ACK
6.411397500,6840,0x41,0x1C,Read,NAK
6.411652500,6842,0x49,0x6A,Read,ACK
6.411707500,6842,0x49,0x6A,Read,NAK
6.416837500,6844,0x49,0x62,Read,ACK
6.416892500,6844,0x49,0x62,Read,NAK
6.418522500,6846,0x40,0x48,Write,ACK
6.418577500,6846,0x40,0x48,Write,NAK
6.418907500,6848,0x41,0x65,Read,ACK
6.418962500,6848,0x41,0x65,Read,NAK
6.419217500,6850,0x49,0x5B,Read,ACK
6.419272500,6850,0x49,0x5B,Read,NAK
6.424402500,6852,0x49,0xA1,Read,ACK
6.424457500,6852,0x49,0xA1,Read,NAK
6.426087500,6854,0x40,0x4C,Write,ACK
6.426142500,6854,0x40,0x4C,Write,NAK
6.426472500,6856,0x41,0x16,Read,ACK
6.426527500,6856,0x41,0x16,Read,NAK
6.426782500,6858,0x49,0x72,Read,ACK
6.426837500,6858,0x49,0x72,Read,NAK
6.431967500,6860,0x49,0x85,Read,ACK
6.432022500,6860,0x49,0x85,Read,NAK
6.433652500,6862,0x40,0x50,Write,ACK
6.433707500,6862,0x40,0x50,Write,NAK
6.434037500,6864,0x41,0x50,Read,ACK
6.434092500,6864,0x41,0x50,Read,NAK
6.434347500,6866,0x49,0xA8,Read,ACK
6.434402500,6866,0x49,0xA8,Read,NAK
6.439532500,6868,0x49,0x9E,Read,ACK
6.439587500,6868,0x49,0x9E,Read,NAK
6.441217500,6870,0x40,0x54,Write,ACK
6.441272500,6870,0x40,0x54,Write,NAK
6.441602500,6872,0x41,0x65,Read,ACK
6.441657500,6872,0x41,0x65,Read,NAK
6.441912500,6874,0x49,0x4A,Read,ACK
6.441967500,6874,0x49,0x4A,Read,NAK
6.447097500,6876,0x49,0xBE,Read,ACK
6.447152500,6876,0x49,0xBE,Read,NAK
6.448782500,6878,0x40,0x58,Write,ACK
6.448837500,6878,0x40,0x58,Write,NAK
6.449167500,6880,0x41,0x71,Read,ACK
6.449222500,6880,0x41,0x71,Read,NAK
6.449477500,6882,0x49,0xA9,Read,ACK
6.449532500,6882,0x49,0xA9,Read,NAK
6.454662500,6884,0x49,0x91,Read,ACK
6.454717500,6884,0x49,0x91,Read,NAK
6.456347500,6886,0x40,0x5C,Write,ACK
6.456402500,6886,0x40,0x5C,Write,NAK
6.456732500,6888,0x41,0x60,Read,ACK
6.456787500,6888,0x41,0x60,Read,NAK
6.457042500,6890,0x49,0xAF,Read,ACK
6.457097500,6890,0x49,0xAF,Read,NAK
6.462227500,6892,0x49,0x6E,Read,ACK
6.462282500,6892,0x49,0x6E,Read,NAK
6.463912500,6894,0x40,0x60,Write,ACK
6.463967500,6894,0x40,0x60,Write,NAK
6.464297500,6896,0x41,0x72,Read,ACK
6.464352500,6896,0x41,0x72,Read,NAK
6.464607500,6898,0x49,0x9E,Read,ACK
6.464662500,6898,0x49,0x9E,Read,NAK
6.469792500,6900,0x49,0x6C,Read,ACK
6.469847500,6900,0x49,0x6C,Read,NAK
6.471477500,6902,0x40,0x64,Write,ACK
6.471532500,6902,0x40,0x64,Write,NAK
6.471862500,6904,0x41,0x76,Read,ACK
6.471917500,6904,0x41,0x76,Read,NAK
6.472172500,6906,0x49,0xAA,Read,ACK
6.472227500,6906,0x49,0xAA,Read,NAK
6.477357500,6908,0x49,0x70,Read,ACK
6.477412500,6908,0x49,0x70,Read,NAK
6.479042500,6910,0x40,0x68,Write,ACK
6.479097500,6910,0x40,0x68,Write,NAK
6.479427500,6912,0x41,0x3B,Read,ACK
6.479482500,6912,0x41,0x3B,Read,NAK
6.479737500,6914,0x49,0xB6,Read,ACK
6.479792500,6914,0x49,0xB6,Read,NAK
6.484922500,6916,0x49,0x98,Read,ACK
6.484977500,6916,0x49,0x98,Read,NAK
6.486607500,6918,0x40,0x6C,Write,ACK
6.486662500,6918,0x40,0x6C,Write,NAK
6.486992500,6920,0x41,0x8E,Read,ACK
6.487047500,6920,0x41,0x8E,Read,NAK
6.487302500,6922,0x49,0x8D,Read,ACK
6.487357500,6922,0x49,0x8D,Read,NAK
6.492487500,6924,0x49,0xB6,Read,ACK
6.492542500,6924,0x49,0xB6,Read,NAK
6.494172500,6926,0x40,0x70,Write,ACK
6.494227500,6926,0x40,0x70,Write,NAK
6.494557500,6928,0x41,0x63,Read,ACK
6.494612500,6928,0x41,0x63,Read,NAK
6.494867500,6930,0x49,0x8C,Read,ACK
6.494922500,6930,0x49,0x8C,Read,NAK
6.500052500,6932,0x49,0x93,Read,ACK
6.500107500,6932,0x49,0x93,Read,NAK
6.501737500,6934,0x40,0x74,Write,ACK
6.501792500,6934,0x40,0x74,Write,NAK
6.502122500,6936,0x41,0x64,Read,ACK
6.502177500,6936,0x41,0x64,Read,NAK
6.502432500,6938,0x49,0x85,Read,ACK
6.502487500,6938,0x49,0x85,Read,NAK
6.507617500,6940,0x49,0x89,Read,ACK
6.507672500,6940,0x49,0x89,Read,NAK
6.509302500,6942,0x40,0x78,Write,ACK
6.509357500,6942,0x40,0x78,Write,NAK
6.509687500,6944,0x41,0x54,Read,ACK
6.509742500,6944,0x41,0x54,Read,NAK
6.509997500,6946,0x49,0xAE,Read,ACK
6.510052500,6946,0x49,0xAE,Read,NAK
6.515182500,6948,0x49,0xCE,Read,ACK
6.515237500,6948,0x49,0xCE,Read,NAK
6.516867500,6950,0x40,0x7C,Write,ACK
6.516922500,6950,0x40,0x7C,Write,NAK
6.517252500,6952,0x41,0x7F,Read,ACK
6.517307500,6952,0x41,0x7F,Read,NAK
6.517562500,6954,0x49,0xCD,Read,ACK
6.517617500,6954,0x49,0xCD,Read,NAK
6.522747500,6956,0x49,0xB9,Read,ACK
6.522802500,6956,0x49,0xB9,Read,NAK
6.524432500,6958,0x40,0x80,Write,ACK
6.524487500,6958,0x40,0x80,Write,NAK
6.524817500,6960,0x41,0x59,Read,ACK
6.524872500,6960,0x41,0x59,Read,NAK
6.525127500,6962,0x49,0x81,Read,ACK
6.525182500,6962,0x49,0x81,Read,NAK
6.530312500,6964,0x49,0xCB,Read,ACK
6.530367500,6964,0x49,0xCB,Read,NAK
6.531997500,6966,0x40,0x84,Write,ACK
6.532052500,6966,0x40,0x84,Write,NAK
6.532382500,6968,0x41,0x79,Read,ACK
6.532437500,6968,0x41,0x79,Read,NAK
6.532692500,6970,0x49,0x93,Read,ACK
6.532747500,6970,0x49,0x93,Read,NAK
6.537877500,6972,0x49,0xEB,Read,ACK
6.537932500,6972,0x49,0xEB,Read,NAK
6.539562500,6974,0x40,0x88,Write,ACK
6.539617500,6974,0x40,0x88,Write,NAK
6.539947500,6976,0x41,0x93,Read,ACK
6.540002500,6976,0x41,0x93,Read,NAK
6.540257500,6978,0x49,0xD7,Read,ACK
6.540312500,6978,0x49,0xD7,Read,NAK
6.545442500,6980,0x49,0xA1,Read,ACK
6.545497500,6980,0x49,0xA1,Read,NAK
6.547127500,6982,0x40,0x8C,Write,ACK
6.547182500,6982,0x40,0x8C,Write,NAK
6.547512500,6984,0x41,0x76,Read,ACK
6.547567500,6984,0x41,0x76,Read,NAK
6.547822500,6986,0x49,0xD7,Read,ACK
6.547877500,6986,0x49,0xD7,Read,NAK
6.553007500,6988,0x49,0xC3,Read,ACK
6.553062500,6988,0x49,0xC3,Read,NAK
6.554692500,6990,0x40,0x90,Write,ACK
6.554747500,6990,0x40,0x90,Write,NAK
6.555077500,6992,0x41,0x71,Read,ACK
6.555132500,6992,0x41,0x71,Read,NAK
6.555387500,6994,0x49,0xD2,Read,ACK
6.555442500,6994,0x49,0xD2,Read,NAK
6.560572500,6996,0x49,0xF0,Read,ACK
6.560627500,6996,0x49,0xF0,Read,NAK
6.562257500,6998,0x40,0x94,Write,ACK
6.562312500,6998,0x40,0x94,Write,NAK
6.562642500,7000,0x41,0x95,Read,ACK
6.562697500,7000,0x41,0x95,Read,NAK
6.562952500,7002,0x49,0xC1,Read,ACK
6.563007500,7002,0x49,0xC1,Read,NAK
6.568137500,7004,0x49,0xEE,Read,ACK
6.568192500,7004,0x49,0xEE,Read,NAK
6.569822500,7006,0x40,0x98,Write,ACK
6.569877500,7006,0x40,0x98,Write,NAK
6.570207500,7008,0x41,0x75,Read,ACK
6.570262500,7008,0x41,0x75,Read,NAK
6.570517500,7010,0x49,0xCC,Read,ACK
6.570572500,7010,0x49,0xCC,Read,NAK
6.575702500,7012,0x49,0xA1,Read,ACK
6.575757500,7012,0x49,0xA1,Read,NAK
6.577387500,7014,0x40,0x9C,Write,ACK
6.577442500,7014,0x40,0x9C,Write,NAK
6.577772500,7016,0x41,0x9B,Read,ACK
6.577827500,7016,0x41,0x9B,Read,NAK
6.578082500,7018,0x49,0x9A,Read,ACK
6.578137500,7018,0x49,0x9A,Read,NAK
6.583267500,7020,0x49,0xAD,Read,ACK
6.583322500,7020,0x49,0xAD,Read,NAK
6.584952500,7022,0x40,0xA0,Write,ACK
6.585007500,7022,0x40,0xA0,Write,NAK
6.585337500,7024,0x41,0xB1,Read,ACK
6.585392500,7024,0x41,0xB1,Read,NAK
6.585647500,7026,0x49,0xB4,Read,ACK
6.585702500,7026,0x49,0xB4,Read,NAK
6.590832500,7028,0x49,0xB0,Read,ACK
6.590887500,7028,0x49,0xB0,Read,NAK
6.592517500,7030,0x40,0xA4,Write,ACK
6.592572500,7030,0x40,0xA4,Write,NAK
6.592902500,7032,0x41,0xA6,Read,ACK
6.592957500,7032,0x41,0xA6,Read,NAK
6.593212500,7034,0x49,0xD3,Read,ACK
6.593267500,7034,0x49,0xD3,Read,NAK
6.598397500,7036,0x49,0xF3,Read,ACK
6.598452500,7036,0x49,0xF3,Read,NAK
6.600082500,7038,0x40,0xA8,Write,ACK
6.600137500,7038,0x40,0xA8,Write,NAK
6.600467500,7040,0x41,0xA0,Read,ACK
6.600522500,7040,0x41,0xA0,Read,NAK
6.600777500,7042,0x49,0xF8,Read,ACK
6.600832500,7042,0x49,0xF8,Read,NAK
6.605962500,7044,0x49,0xCA,Read,ACK
6.606017500,7044,0x49,0xCA,Read,NAK
6.607647500,7046,0x40,0xAC,Write,ACK
6.607702500,7046,0x40,0xAC,Write,NAK
6.608032500,7048,0x41,0xC2,Read,ACK
6.608087500,7048,0x41,0xC2,Read,NAK
6.608342500,7050,0x49,0xBE,Read,ACK
6.608397500,7050,0x49,0xBE,Read,NAK
6.613527500,7052,0x49,0xBA,Read,ACK
6.613582500,7052,0x49,0xBA,Read,NAK
6.615212500,7054,0x40,0xB0,Write,ACK
6.615267500,7054,0x40,0xB0,Write,NAK
6.615597500,7056,0x41,0xB2,Read,ACK
6.615652500,7056,0x41,0xB2,Read,NAK
6.615907500,7058,0x49,0x06,Read,ACK
6.615962500,7058,0x49,0x06,Read,NAK
6.621092500,7060,0x49,0xF8,Read,ACK
6.621147500,7060,0x49,0xF8,Read,NAK
6.622777500,7062,0x40,0xB4,Write,ACK
6.622832500,7062,0x40,0xB4,Write,NAK
6.623162500,7064,0x41,0xB1,Read,ACK
6.623217500,7064,0x41,0xB1,Read,NAK
6.623472500,7066,0x49,0xAA,Read,ACK
6.623527500,7066,0x49,0xAA,Read,NAK
6.628657500,7068,0x49,0xE1,Read,ACK
6.628712500,7068,0x49,0xE1,Read,NAK
6.630342500,7070,0x40,0xB8,Write,ACK
6.630397500,7070,0x40,0xB8,Write,NAK
6.630727500,7072,0x41,0xC0,Read,ACK
6.630782500,7072,0x41,0xC0,Read,NAK
6.631037500,7074,0x49,0x0A,Read,ACK
6.631092500,7074,0x49,0x0A,Read,NAK
6.636222500,7076,0x49,0xC2,Read,ACK
6.636277500,7076,0x49,0xC2,Read,NAK
6.637907500,7078,0x40,0xBC,Write,ACK
6.637962500,7078,0x40,0xBC,Write,NAK
6.638292500,7080,0x41,0x87,Read,ACK
6.638347500,7080,0x41,0x87,Read,NAK
6.638602500,7082,0x49,0xC0,Read,ACK
6.638657500,7082,0x49,0xC0,Read,NAK
6.643787500,7084,0x49,0x1C,Read,ACK
6.643842500,7084,0x49,0x1C,Read,NAK
6.645472500,7086,0x40,0xC0,Write,ACK
6.645527500,7086,0x40,0xC0,Write,NAK
6.645857500,7088,0x41,0xEA,Read,ACK
6.645912500,7088,0x41,0xEA,Read,NAK
6.646167500,7090,0x49,0xE8,Read,ACK
6.646222500,7090,0x49,0xE8,Read,NAK
6.651352500,7092,0x49,0x22,Read,ACK
6.651407500,7092,0x49,0x22,Read,NAK
6.653037500,7094,0x40,0xC4,Write,ACK
6.653092500,7094,0x40,0xC4,Write,NAK
6.653422500,7096,0x41,0xC9,Read,ACK
6.653477500,7096,0x41,0xC9,Read,NAK
6.653732500,7098,0x49,0xF9,Read,ACK
6.653787500,7098,0x49,0xF9,Read,NAK
6.658917500,7100,0x49,0x19,Read,ACK
6.658972500,7100,0x49,0x19,Read,NAK
6.660602500,7102,0x40,0xC8,Write,ACK
6.660657500,7102,0x40,0xC8,Write,NAK
6.660987500,7104,0x41,0xC8,Read,ACK
6.661042500,7104,0x41,0xC8,Read,NAK
6.661297500,7106,0x49,0xF7,Read,ACK
6.661352500,7106,0x49,0xF7,Read,NAK
6.666482500,7108,0x49,0x26,Read,ACK
6.666537500,7108,0x49,0x26,Read,NAK
6.668167500,7110,0x40,0xCC,Write,ACK
6.668222500,7110,0x40,0xCC,Write,NAK
6.668552500,7112,0x41,0xEB,Read,ACK
6.668607500,7112,0x41,0xEB,Read,NAK
6.668862500,7114,0x49,0xF0,Read,ACK
6.668917500,7114,0x49,0xF0,Read,NAK
6.674047500,7116,0x49,0xF4,Read,ACK
6.674102500,7116,0x49,0xF4,Read,NAK
6.675732500,7118,0x40,0xD0,Write,ACK
6.675787500,7118,0x40,0xD0,Write,NAK
6.676117500,7120,0x41,0xF8,Read,ACK
6.676172500,7120,0x41,0xF8,Read,NAK
6.676427500,7122,0x49,0x28,Read,ACK
6.676482500,7122,0x49,0x28,Read,NAK
6.681612500,7124,0x49,0xDD,Read,ACK
6.681667500,7124,0x49,0xDD,Read,NAK
6.683297500,7126,0x40,0xD4,Write,ACK
6.683352500,7126,0x40,0xD4,Write,NAK
6.683682500,7128,0x41,0x00,Read,ACK
6.683737500,7128,0x41,0x00,Read,NAK
6.683992500,7130,0x49,0x2A,Read,ACK
6.684047500,7130,0x49,0x2A,Read,NAK
6.689177500,7132,0x49,0xEE,Read,ACK
6.689232500,7132,0x49,0xEE,Read,NAK
6.690862500,7134,0x40,0xD8,Write,ACK
6.690917500,7134,0x40,0xD8,Write,NAK
6.691247500,7136,0x41,0xFA,Read,ACK
6.691302500,7136,0x41,0xFA,Read,NAK
6.691557500,7138,0x49,0xE5,Read,ACK
6.691612500,7138,0x49,0xE5,Read,NAK
6.696742500,7140,0x49,0x00,Read,ACK
6.696797500,7140,0x49,0x00,Read,NAK
6.698427500,7142,0x40,0xDC,Write,ACK
6.698482500,7142,0x40,0xDC,Write,NAK
6.698812500,7144,0x41,0xFF,Read,ACK
6.698867500,7144,0x41,0xFF,Read,NAK
6.699122500,7146,0x49,0x1C,Read,ACK
6.699177500,7146,0x49,0x1C,Read,NAK
6.704307500,7148,0x49,0x25,Read,ACK
6.704362500,7148,0x49,0x25,Read,NAK
6.705992500,7150,0x40,0xE0,Write,ACK
6.706047500,7150,0x40,0xE0,Write,NAK
6.706377500,7152,0x41,0xC2,Read,ACK
6.706432500,7152,0x41,0xC2,Read,NAK
6.706687500,7154,0x49,0xDF,Read,ACK
6.706742500,7154,0x49,0xDF,Read,NAK
6.711872500,7156,0x49,0x41,Read,ACK
6.711927500,7156,0x49,0x41,Read,NAK
6.713557500,7158,0x40,0xE4,Write,ACK
6.713612500,7158,0x40,0xE4,Write,NAK
6.713942500,7160,0x41,0xF7,Read,ACK
6.713997500,7160,0x41,0xF7,Read,NAK
6.714252500,7162,0x49,0xEE,Read,ACK
6.714307500,7162,0x49,0xEE,Read,NAK
6.719437500,7164,0x49,0x47,Read,ACK
6.719492500,7164,0x49,0x47,Read,NAK
6.721122500,7166,0x40,0xE8,Write,ACK
6.721177500,7166,0x40,0xE8,Write,NAK
6.721507500,7168,0x41,0xFF,Read,ACK
6.721562500,7168,0x41,0xFF,Read,NAK
6.721817500,7170,0x49,0xFD,Read,ACK
6.721872500,7170,0x49,0xFD,Read,NAK
6.727002500,7172,0x49,0x2C,Read,ACK
6.727057500,7172,0x49,0x2C,Read,NAK
6.728687500,7174,0x40,0xEC,Write,ACK
6.728742500,7174,0x40,0xEC,Write,NAK
6.729072500,7176,0x41,0x03,Read,ACK
6.729127500,7176,0x41,0x03,Read,NAK
6.729382500,7178,0x49,0x40,Read,ACK
6.729437500,7178,0x49,0x40,Read,NAK
6.734567500,7180,0x49,0xFC,Read,ACK
6.734622500,7180,0x49,0xFC,Read,NAK
6.736252500,7182,0x40,0xF0,Write,ACK
6.736307500,7182,0x40,0xF0,Write,NAK
6.736637500,7184,0x41,0xE7,Read,ACK
6.736692500,7184,0x41,0xE7,Read,NAK
6.736947500,7186,0x49,0x29,Read,ACK
6.737002500,7186,0x49,0x29,Read,NAK
6.742132500,7188,0x49,0x3B,Read,ACK
6.742187500,7188,0x49,0x3B,Read,NAK
6.743817500,7190,0x40,0xF4,Write,ACK
6.743872500,7190,0x40,0xF4,Write,NAK
6.744202500,7192,0x41,0xFD,Read,ACK
6.744257500,7192,0x41,0xFD,Read,NAK
6.744512500,7194,0x49,0x11,Read,ACK
6.744567500,7194,0x49,0x11,Read,NAK
6.749697500,7196,0x49,0x03,Read,ACK
6.749752500,7196,0x49,0x03,Read,NAK
6.751382500,7198,0x40,0xF8,Write,ACK
6.751437500,7198,0x40,0xF8,Write,NAK
6.751767500,7200,0x41,0xD0,Read,ACK
6.751822500,7200,0x41,0xD0,Read,NAK
6.752077500,7202,0x49,0x17,Read,ACK
6.752132500,7202,0x49,0x17,Read,NAK
6.757262500,7204,0x49,0x60,Read,ACK
6.757317500,7204,0x49,0x60,Read,NAK
6.758947500,7206,0x40,0xFC,Write,ACK
6.759002500,7206,0x40,0xFC,Write,NAK
6.759332500,7208,0x41,0xD5,Read,ACK
6.759387500,7208,0x41,0xD5,Read,NAK
6.759642500,7210,0x49,0x01,Read,ACK
6.759697500,7210,0x49,0x01,Read,NAK
6.764827500,7212,0x49,0x2C,Read,ACK
6.764882500,7212,0x49,0x2C,Read,NAK
6.766512500,7214,0x40,0x00,Write,ACK
6.766567500,7214,0x40,0x00,Write,NAK
6.766897500,7216,0x41,0xE2,Read,ACK
6.766952500,7216,0x41,0xE2,Read,NAK
6.767207500,7218,0x49,0x49,Read,ACK
6.767262500,7218,0x49,0x49,Read,NAK
6.772392500,7220,0x49,0x21,Read,ACK
6.772447500,7220,0x49,0x21,Read,NAK
6.774077500,7222,0x40,0x04,Write,ACK
6.774132500,7222,0x40,0x04,Write,NAK
6.774462500,7224,0x41,0x05,Read,ACK
6.774517500,7224,0x41,0x05,Read,NAK
6.774772500,7226,0x49,0x0C,Read,ACK
6.774827500,7226,0x49,0x0C,Read,NAK
6.779957500,7228,0x49,0x27,Read,ACK
6.780012500,7228,0x49,0x27,Read,NAK
6.781642500,7230,0x40,0x08,Write,ACK
6.781697500,7230,0x40,0x08,Write,NAK
6.782027500,7232,0x41,0x03,Read,ACK
6.782082500,7232,0x41,0x03,Read,NAK
6.782337500,7234,0x49,0x27,Read,ACK
6.782392500,7234,0x49,0x27,Read,NAK
6.787522500,7236,0x49,0x3E,Read,ACK
6.787577500,7236,0x49,0x3E,Read,NAK
6.789207500,7238,0x40,0x0C,Write,ACK
6.789262500,7238,0x40,0x0C,Write,NAK
6.789592500,7240,0x41,0x2E,Read,ACK
6.789647500,7240,0x41,0x2E,Read,NAK
6.789902500,7242,0x49,0x0A,Read,ACK
6.789957500,7242,0x49,0x0A,Read,NAK
6.795087500,7244,0x49,0x14,Read,ACK
6.795142500,7244,0x49,0x14,Read,NAK
6.796772500,7246,0x40,0x10,Write,ACK
6.796827500,7246,0x40,0x10,Write,NAK
6.797157500,7248,0x41,0x25,Read,ACK
6.797212500,7248,0x41,0x25,Read,NAK
6.797467500,7250,0x49,0x1B,Read,ACK
6.797522500,7250,0x49,0x1B,Read,NAK
6.802652500,7252,0x49,0x33,Read,ACK
6.802707500,7252,0x49,0x33,Read,NAK
6.804337500,7254,0x40,0x14,Write,ACK
6.804392500,7254,0x40,0x14,Write,NAK
6.804722500,7256,0x41,0x1B,Read,ACK
6.804777500,7256,0x41,0x1B,Read,NAK
6.805032500,7258,0x49,0x2F,Read,ACK
6.805087500,7258,0x49,0x2F,Read,NAK
6.810217500,7260,0x49,0x49,Read,ACK
6.810272500,7260,0x49,0x49,Read,NAK
6.811902500,7262,0x40,0x18,Write,ACK
6.811957500,7262,0x40,0x18,Write,NAK
6.812287500,7264,0x41,0x30,Read,ACK
6.812342500,7264,0x41,0x30,Read,NAK
6.812597500,7266,0x49,0x39,Read,ACK
6.812652500,7266,0x49,0x39,Read,NAK
6.817782500,7268,0x49,0x72,Read,ACK
6.817837500,7268,0x49,0x72,Read,NAK
6.819467500,7270,0x40,0x1C,Write,ACK
6.819522500,7270,0x40,0x1C,Write,NAK
6.819852500,7272,0x41,0x20,Read,ACK
6.819907500,7272,0x41,0x20,Read,NAK
6.820162500,7274,0x49,0x5E,Read,ACK
6.820217500,7274,0x49,0x5E,Read,NAK
6.825347500,7276,0x49,0x48,Read,ACK
6.825402500,7276,0x49,0x48,Read,NAK
6.827032500,7278,0x40,0x20,Write,ACK
6.827087500,7278,0x40,0x20,Write,NAK
6.827417500,7280,0x41,0xF5,Read,ACK
6.827472500,7280,0x41,0xF5,Read,NAK
6.827727500,7282,0x49,0x56,Read,ACK
6.827782500,7282,0x49,0x56,Read,NAK
6.832912500,7284,0x49,0x7B,Read,ACK
6.832967500,7284,0x49,0x7B,Read,NAK
6.834597500,7286,0x40,0x24,Write,ACK
6.834652500,7286,0x40,0x24,Write,NAK
6.834982500,7288,0x41,0x10,Read,ACK
6.835037500,7288,0x41,0x10,Read,NAK
6.835292500,7290,0x49,0x5A,Read,ACK
6.835347500,7290,0x49,0x5A,Read,NAK
6.840477500,7292,0x49,0x8D,Read,ACK
6.840532500,7292,0x49,0x8D,Read,NAK
6.842162500,7294,0x40,0x28,Write,ACK
6.842217500,7294,0x40,0x28,Write,NAK
6.842547500,7296,0x41,0x2C,Read,ACK
6.842602500,7296,0x41,0x2C,Read,NAK
6.842857500,7298,0x49,0x80,Read,ACK
6.842912500,7298,0x49,0x80,Read,NAK
6.848042500,7300,0x49,0x3D,Read,ACK
6.848097500,7300,0x49,0x3D,Read,NAK
6.849727500,7302,0x40,0x2C,Write,ACK
6.849782500,7302,0x40,0x2C,Write,NAK
6.850112500,7304,0x41,0xFC,Read,ACK
6.850167500,7304,0x41,0xFC,Read,NAK
6.850422500,7306,0x49,0x32,Read,ACK
6.850477500,7306,0x49,0x32,Read,NAK
6.855607500,7308,0x49,0x52,Read,ACK
6.855662500,7308,0x49,0x52,Read,NAK
6.857292500,7310,0x40,0x30,Write,ACK
6.857347500,7310,0x40,0x30,Write,NAK
6.857677500,7312,0x41,0x1F,Read,ACK
6.857732500,7312,0x41,0x1F,Read,NAK
6.857987500,7314,0x49,0x61,Read,ACK
6.858042500,7314,0x49,0x61,Read,NAK
6.863172500,7316,0x49,0x4F,Read,ACK
6.863227500,7316,0x49,0x4F,Read,NAK
6.864857500,7318,0x40,0x34,Write,ACK
6.864912500,7318,0x40,0x34,Write,NAK
6.865242500,7320,0x41,0x5E,Read,ACK
6.865297500,7320,0x41,0x5E,Read,NAK
6.865552500,7322,0x49,0x40,Read,ACK
6.865607500,7322,0x49,0x40,Read,NAK
6.870737500,7324,0x49,0x59,Read,ACK
6.870792500,7324,0x49,0x59,Read,NAK
6.872422500,7326,0x40,0x38,Write,ACK
6.872477500,7326,0x40,0x38,Write,NAK
6.872807500,7328,0x41,0x43,Read,ACK
6.872862500,7328,0x41,0x43,Read,NAK
6.873117500,7330,0x49,0x3B,Read,ACK
6.873172500,7330,0x49,0x3B,Read,NAK
6.878302500,7332,0x49,0x88,Read,ACK
6.878357500,7332,0x49,0x88,Read,NAK
6.879987500,7334,0x40,0x3C,Write,ACK
6.880042500,7334,0x40,0x3C,Write,NAK
6.880372500,7336,0x41,0x5F,Read,ACK
6.880427500,7336,0x41,0x5F,Read,NAK
6.880682500,7338,0x49,0x3C,Read,ACK
6.880737500,7338,0x49,0x3C,Read,NAK
6.885867500,7340,0x49,0x81,Read,ACK
6.885922500,7340,0x49,0x81,Read,NAK
6.887497500,,0x24,,Write,NAK
6.887827500,7344,0x40,0x40,Write,ACK
6.887882500,7344,0x40,0x40,Write,NAK
6.888212500,7346,0x41,0x24,Read,ACK
6.888267500,7346,0x41,0x24,Read,NAK
6.888522500,7348,0x49,0x98,Read,ACK
6.888577500,7348,0x49,0x98,Read,NAK
6.893707500,7350,0x49,0x89,Read,ACK
6.893762500,7350,0x49,0x89,Read,NAK
6.895392500,7352,0x40,0x44,Write,ACK
6.895447500,7352,0x40,0x44,Write,NAK
6.895777500,7354,0x41,0x4C,Read,ACK
6.895832500,7354,0x41,0x4C,Read,NAK
6.896087500,7356,0x49,0x4A,Read,ACK
6.896142500,7356,0x49,0x4A,Read,NAK
6.901272500,7358,0x49,0xAC,Read,ACK
6.901327500,7358,0x49,0xAC,Read,NAK
6.902957500,7360,0x40,0x48,Write,ACK
6.903012500,7360,0x40,0x48,Write,NAK
6.903342500,7362,0x41,0x20,Read,ACK
6.903397500,7362,0x41,0x20,Read,NAK
6.903652500,7364,0x49,0x49,Read,ACK
6.903707500,7364,0x49,0x49,Read,NAK
6.908837500,7366,0x49,0x95,Read,ACK
6.908892500,7366,0x49,0x95,Read,NAK
6.910522500,7368,0x40,0x4C,Write,ACK
6.910577500,7368,0x40,0x4C,Write,NAK
6.910907500,7370,0x41,0x65,Read,ACK
6.910962500,7370,0x41,0x65,Read,NAK
6.911217500,7372,0x49,0x43,Read,ACK
6.911272500,7372,0x49,0x43,Read,NAK
6.916402500,7374,0x49,0x8A,Read,ACK
6.916457500,7374,0x49,0x8A,Read,NAK
6.918087500,7376,0x40,0x50,Write,ACK
6.918142500,7376,0x40,0x50,Write,NAK
6.918472500,7378,0x41,0x57,Read,ACK
6.918527500,7378,0x41,0x57,Read,NAK
6.918782500,7380,0x49,0x65,Read,ACK
6.918837500,7380,0x49,0x65,Read,NAK
6.923967500,7382,0x49,0x6A,Read,ACK
6.924022500,7382,0x49,0x6A,Read,NAK
6.925652500,7384,0x40,0x54,Write,ACK
6.925707500,7384,0x40,0x54,Write,NAK
6.926037500,7386,0x41,0x54,Read,ACK
6.926092500,7386,0x41,0x54,Read,NAK
6.926347500,7388,0x49,0x7B,Read,ACK
6.926402500,7388,0x49,0x7B,Read,NAK
6.931532500,7390,0x49,0xB3,Read,ACK
6.931587500,7390,0x49,0xB3,Read,NAK
6.933217500,7392,0x40,0x58,Write,ACK
6.933272500,7392,0x40,0x58,Write,NAK
6.933602500,7394,0x41,0x30,Read,ACK
6.933657500,7394,0x41,0x30,Read,NAK
6.933912500,7396,0x49,0x8B,Read,ACK
6.933967500,7396,0x49,0x8B,Read,NAK
6.939097500,7398,0x49,0x8E,Read,ACK
6.939152500,7398,0x49,0x8E,Read,NAK
6.940782500,7400,0x40,0x5C,Write,ACK
6.940837500,7400,0x40,0x5C,Write,NAK
6.941167500,7402,0x41,0x3E,Read,ACK
6.941222500,7402,0x41,0x3E,Read,NAK
6.941477500,7404,0x49,0x5B,Read,ACK
6.941532500,7404,0x49,0x5B,Read,NAK
6.946662500,7406,0x49,0x9A,Read,ACK
6.946717500,7406,0x49,0x9A,Read,NAK
6.948347500,7408,0x40,0x60,Write,ACK
6.948402500,7408,0x40,0x60,Write,NAK
6.948732500,7410,0x41,0x31,Read,ACK
6.948787500,7410,0x41,0x31,Read,NAK
6.949042500,7412,0x49,0x9F,Read,ACK
6.949097500,7412,0x49,0x9F,Read,NAK
6.954227500,7414,0x49,0xA6,Read,ACK
6.954282500,7414,0x49,0xA6,Read,NAK
6.955912500,7416,0x40,0x64,Write,ACK
6.955967500,7416,0x40,0x64,Write,NAK
6.956297500,7418,0x41,0x88,Read,ACK
6.956352500,7418,0x41,0x88,Read,NAK
6.956607500,7420,0x49,0x66,Read,ACK
6.956662500,7420,0x49,0x66,Read,NAK
6.961792500,7422,0x49,0x99,Read,ACK
6.961847500,7422,0x49,0x99,Read,NAK
6.963477500,7424,0x40,0x68,Write,ACK
6.963532500,7424,0x40,0x68,Write,NAK
6.963862500,7426,0x41,0x7E,Read,ACK
6.963917500,7426,0x41,0x7E,Read,NAK
6.964172500,7428,0x49,0x6E,Read,ACK
6.964227500,7428,0x49,0x6E,Read,NAK
6.969357500,7430,0x49,0xBC,Read,ACK
6.969412500,7430,0x49,0xBC,Read,NAK
6.971042500,7432,0x40,0x6C,Write,ACK
6.971097500,7432,0x40,0x6C,Write,NAK
6.971427500,7434,0x41,0x48,Read,ACK
6.971482500,7434,0x41,0x48,Read,NAK
6.971737500,7436,0x49,0x82,Read,ACK
6.971792500,7436,0x49,0x82,Read,NAK
6.976922500,7438,0x49,0x8B,Read,ACK
6.976977500,7438,0x49,0x8B,Read,NAK
6.978607500,7440,0x40,0x70,Write,ACK
6.978662500,7440,0x40,0x70,Write,NAK
6.978992500,7442,0x41,0x4A,Read,ACK
6.979047500,7442,0x41,0x4A,Read,NAK
6.979302500,7444,0x49,0xC6,Read,ACK
6.979357500,7444,0x49,0xC6,Read,NAK
6.984487500,7446,0x49,0xD3,Read,ACK
6.984542500,7446,0x49,0xD3,Read,NAK
6.986172500,7448,0x40,0x74,Write,ACK
6.986227500,7448,0x40,0x74,Write,NAK
6.986557500,7450,0x41,0x9F,Read,ACK
6.986612500,7450,0x41,0x9F,Read,NAK
6.986867500,7452,0x49,0xBB,Read,ACK
6.986922500,7452,0x49,0xBB,Read,NAK
6.992052500,7454,0x49,0xA4,Read,ACK
6.992107500,7454,0x49,0xA4,Read,NAK
6.993737500,7456,0x40,0x78,Write,ACK
6.993792500,7456,0x40,0x78,Write,NAK
6.994122500,7458,0x41,0xA0,Read,ACK
6.994177500,7458,0x41,0xA0,Read,NAK
6.994432500,7460,0x49,0x96,Read,ACK
6.994487500,7460,0x49,0x96,Read,NAK
6.999617500,7462,0x49,0xC2,Read,ACK
6.999672500,7462,0x49,0xC2,Read,NAK
7.001302500,7464,0x40,0x7C,Write,ACK
7.001357500,7464,0x40,0x7C,Write,NAK
7.001687500,7466,0x41,0x47,Read,ACK
7.001742500,7466,0x41,0x47,Read,NAK
7.001997500,7468,0x49,0xBD,Read,ACK
7.002052500,7468,0x49,0xBD,Read,NAK
7.007182500,7470,0x49,0x98,Read,ACK
7.007237500,7470,0x49,0x98,Read,NAK
7.008812500,,0x24,,Write,NAK
7.009142500,7474,0x40,0x80,Write,ACK
7.009197500,7474,0x40,0x80,Write,NAK
7.009527500,7476,0x41,0x7A,Read,ACK
7.009582500,7476,0x41,0x7A,Read,NAK
7.009837500,7478,0x49,0x9A,Read,ACK
7.009892500,7478,0x49,0x9A,Read,NAK
7.015022500,7480,0x49,0xD9,Read,ACK
7.015077500,7480,0x49,0xD9,Read,NAK
7.016707500,7482,0x40,0x84,Write,ACK
7.016762500,7482,0x40,0x84,Write,NAK
7.017092500,7484,0x41,0x7F,Read,ACK
7.017147500,7484,0x41,0x7F,Read,NAK
7.017402500,7486,0x49,0xCA,Read,ACK
7.017457500,7486,0x49,0xCA,Read,NAK
7.022587500,7488,0x49,0xB6,Read,ACK
7.022642500,7488,0x49,0xB6,Read,NAK
7.024272500,7490,0x40,0x88,Write,ACK
7.024327500,7490,0x40,0x88,Write,NAK
7.024657500,7492,0x41,0xB2,Read,ACK
7.024712500,7492,0x41,0xB2,Read,NAK
7.024967500,7494,0x49,0x92,Read,ACK
7.025022500,7494,0x49,0x92,Read,NAK
7.030152500,7496,0x49,0xAF,Read,ACK
7.030207500,7496,0x49,0xAF,Read,NAK
7.031837500,7498,0x40,0x8C,Write,ACK
7.031892500,7498,0x40,0x8C,Write,NAK
7.032222500,7500,0x41,0x5B,Read,ACK
7.032277500,7500,0x41,0x5B,Read,NAK
7.032532500,7502,0x49,0x8B,Read,ACK
7.032587500,7502,0x49,0x8B,Read,NAK
7.037717500,7504,0x49,0xC4,Read,ACK
7.037772500,7504,0x49,0xC4,Read,NAK
7.039402500,7506,0x40,0x90,Write,ACK
7.039457500,7506,0x40,0x90,Write,NAK
7.039787500,7508,0x41,0x93,Read,ACK
7.039842500,7508,0x41,0x93,Read,NAK
7.040097500,7510,0x49,0xB0,Read,ACK
7.040152500,7510,0x49,0xB0,Read,NAK
7.045282500,7512,0x49,0xC2,Read,ACK
7.045337500,7512,0x49,0xC2,Read,NAK
7.046967500,7514,0x40,0x94,Write,ACK
7.047022500,7514,0x40,0x94,Write,NAK
7.047352500,7516,0x41,0xA9,Read,ACK
7.047407500,7516,0x41,0xA9,Read,NAK
7.047662500,7518,0x49,0xAE,Read,ACK
7.047717500,7518,0x49,0xAE,Read,NAK
7.052847500,7520,0x49,0xAD,Read,ACK
7.052902500,7520,0x49,0xAD,Read,NAK
7.054532500,7522,0x40,0x98,Write,ACK
7.054587500,7522,0x40,0x98,Write,NAK
7.054917500,7524,0x41,0x7F,Read,ACK
7.054972500,7524,0x41,0x7F,Read,NAK
7.055227500,7526,0x49,0xB4,Read,ACK
7.055282500,7526,0x49,0xB4,Read,NAK
7.060412500,7528,0x49,0xC7,Read,ACK
7.060467500,7528,0x49,0xC7,Read,NAK
7.062097500,7530,0x40,0x9C,Write,ACK
7.062152500,7530,0x40,0x9C,Write,NAK
7.062482500,7532,0x41,0x73,Read,ACK
7.062537500,7532,0x41,0x73,Read,NAK
7.062792500,7534,0x49,0x9F,Read,ACK
7.062847500,7534,0x49,0x9F,Read,NAK
7.067977500,7536,0x49,0xFE,Read,ACK
7.068032500,7536,0x49,0xFE,Read,NAK
7.069662500,7538,0x40,0xA0,Write,ACK
7.069717500,7538,0x40,0xA0,Write,NAK
7.070047500,7540,0x41,0x9B,Read,ACK
7.070102500,7540,0x41,0x9B,Read,NAK
7.070357500,7542,0x49,0xAF,Read,ACK
7.070412500,7542,0x49,0xAF,Read,NAK
7.075542500,7544,0x49,0xA7,Read,ACK
7.075597500,7544,0x49,0xA7,Read,NAK
7.077227500,7546,0x40,0xA4,Write,ACK
7.077282500,7546,0x40,0xA4,Write,NAK
7.077612500,7548,0x41,0x73,Read,ACK
7.077667500,7548,0x41,0x73,Read,NAK
7.077922500,7550,0x49,0xF9,Read,ACK
7.077977500,7550,0x49,0xF9,Read,NAK
7.083107500,7552,0x49,0xC6,Read,ACK
7.083162500,7552,0x49,0xC6,Read,NAK
7.084792500,7554,0x40,0xA8,Write,ACK
7.084847500,7554,0x40,0xA8,Write,NAK
7.085177500,7556,0x41,0xB5,Read,ACK
7.085232500,7556,0x41,0xB5,Read,NAK
7.085487500,7558,0x49,0xAA,Read,ACK
7.085542500,7558,0x49,0xAA,Read,NAK
7.090672500,7560,0x49,0xC3,Read,ACK
7.090727500,7560,0x49,0xC3,Read,NAK
7.092357500,7562,0x40,0xAC,Write,ACK
7.092412500,7562,0x40,0xAC,Write,NAK
7.092742500,7564,0x41,0x8B,Read,ACK
7.092797500,7564,0x41,0x8B,Read,NAK
7.093052500,7566,0x49,0xE7,Read,ACK
7.093107500,7566,0x49,0xE7,Read,NAK
7.098237500,7568,0x49,0x14,Read,ACK
7.098292500,7568,0x49,0x14,Read,NAK
7.099922500,7570,0x40,0xB0,Write,ACK
7.099977500,7570,0x40,0xB0,Write,NAK
7.100307500,7572,0x41,0xB9,Read,ACK
7.100362500,7572,0x41,0xB9,Read,NAK
7.100617500,7574,0x49,0xCE,Read,ACK
7.100672500,7574,0x49,0xCE,Read,NAK
7.105802500,7576,0x49,0x0B,Read,ACK
7.105857500,7576,0x49,0x0B,Read,NAK
7.107487500,7578,0x40,0xB4,Write,ACK
7.107542500,7578,0x40,0xB4,Write,NAK
7.107872500,7580,0x41,0x9B,Read,ACK
7.107927500,7580,0x41,0x9B,Read,NAK
7.108182500,7582,0x49,0xE1,Read,ACK
7.108237500,7582,0x49,0xE1,Read,NAK
7.113367500,7584,0x49,0xF7,Read,ACK
7.113422500,7584,0x49,0xF7,Read,NAK
7.115052500,7586,0x40,0xB8,Write,ACK
7.115107500,7586,0x40,0xB8,Write,NAK
7.115437500,7588,0x41,0xDF,Read,ACK
7.115492500,7588,0x41,0xDF,Read,NAK
7.115747500,7590,0x49,0xAE,Read,ACK
7.115802500,7590,0x49,0xAE,Read,NAK
7.120932500,7592,0x49,0xE7,Read,ACK
7.120987500,7592,0x49,0xE7,Read,NAK
7.122617500,7594,0x40,0xBC,Write,ACK
7.122672500,7594,0x40,0xBC,Write,NAK
7.123002500,7596,0x41,0xC7,Read,ACK
7.123057500,7596,0x41,0xC7,Read,NAK
7.123312500,7598,0x49,0xD1,Read,ACK
7.123367500,7598,0x49,0xD1,Read,NAK
7.128497500,7600,0x49,0xD6,Read,ACK
7.128552500,7600,0x49,0xD6,Read,NAK
7.130182500,7602,0x40,0xC0,Write,ACK
7.130237500,7602,0x40,0xC0,Write,NAK
7.130567500,7604,0x41,0x92,Read,ACK
7.130622500,7604,0x41,0x92,Read,NAK
7.130877500,7606,0x49,0xFD,Read,ACK
7.130932500,7606,0x49,0xFD,Read,NAK
7.136062500,7608,0x49,0x0C,Read,ACK
7.136117500,7608,0x49,0x0C,Read,NAK
7.137747500,7610,0x40,0xC4,Write,ACK
7.137802500,7610,0x40,0xC4,Write,NAK
7.138132500,7612,0x41,0xA0,Read,ACK
7.138187500,7612,0x41,0xA0,Read,NAK
7.138442500,7614,0x49,0x1A,Read,ACK
7.138497500,7614,0x49,0x1A,Read,NAK
7.143627500,7616,0x49,0xDE,Read,ACK
7.143682500,7616,0x49,0xDE,Read,NAK
7.145312500,7618,0x40,0xC8,Write,ACK
7.145367500,7618,0x40,0xC8,Write,NAK
7.145697500,7620,0x41,0xCE,Read,ACK
7.145752500,7620,0x41,0xCE,Read,NAK
7.146007500,7622,0x49,0xE5,Read,ACK
7.146062500,7622,0x49,0xE5,Read,NAK
7.151192500,7624,0x49,0x0D,Read,ACK
7.151247500,7624,0x49,0x0D,Read,NAK
7.152877500,7626,0x40,0xCC,Write,ACK
7.152932500,7626,0x40,0xCC,Write,NAK
7.153262500,7628,0x41,0xD2,Read,ACK
7.153317500,7628,0x41,0xD2,Read,NAK
7.153572500,7630,0x49,0xFE,Read,ACK
7.153627500,7630,0x49,0xFE,Read,NAK
7.158757500,7632,0x49,0xDE,Read,ACK
7.158812500,7632,0x49,0xDE,Read,NAK
7.160442500,7634,0x40,0xD0,Write,ACK
7.160497500,7634,0x40,0xD0,Write,NAK
7.160827500,7636,0x41,0xCE,Read,ACK
7.160882500,7636,0x41,0xCE,Read,NAK
7.161137500,7638,0x49,0xF6,Read,ACK
7.161192500,7638,0x49,0xF6,Read,NAK
7.166322500,7640,0x49,0x15,Read,ACK
7.166377500,7640,0x49,0x15,Read,NAK
7.168007500,7642,0x40,0xD4,Write,ACK
7.168062500,7642,0x40,0xD4,Write,NAK
7.168392500,7644,0x41,0xA1,Read,ACK
7.168447500,7644,0x41,0xA1,Read,NAK
7.168702500,7646,0x49,0x14,Read,ACK
7.168757500,7646,0x49,0x14,Read,NAK
7.173887500,7648,0x49,0x02,Read,ACK
7.173942500,7648,0x49,0x02,Read,NAK
7.175572500,7650,0x40,0xD8,Write,ACK
7.175627500,7650,0x40,0xD8,Write,NAK
7.175957500,7652,0x41,0xBC,Read,ACK
7.176012500,7652,0x41,0xBC,Read,NAK
7.176267500,7654,0x49,0x1E,Read,ACK
7.176322500,7654,0x49,0x1E,Read,NAK
7.181452500,7656,0x49,0xE5,Read,ACK
7.181507500,7656,0x49,0xE5,Read,NAK
7.183137500,7658,0x40,0xDC,Write,ACK
7.183192500,7658,0x40,0xDC,Write,NAK
7.183522500,7660,0x41,0xE5,Read,ACK
7.183577500,7660,0x41,0xE5,Read,NAK
7.183832500,7662,0x49,0x1F,Read,ACK
7.183887500,7662,0x49,0x1F,Read,NAK
7.189017500,7664,0x49,0x1D,Read,ACK
7.189072500,7664,0x49,0x1D,Read,NAK
7.190702500,7666,0x40,0xE0,Write,ACK
7.190757500,7666,0x40,0xE0,Write,NAK
7.191087500,7668,0x41,0xAB,Read,ACK
7.191142500,7668,0x41,0xAB,Read,NAK
7.191397500,7670,0x49,0x25,Read,ACK
7.191452500,7670,0x49,0x25,Read,NAK
7.196582500,7672,0x49,0x40,Read,ACK
7.196637500,7672,0x49,0x40,Read,NAK
7.198267500,7674,0x40,0xE4,Write,ACK
7.198322500,7674,0x40,0xE4,Write,NAK
7.198652500,7676,0x41,0xC9,Read,ACK
7.198707500,7676,0x41,0xC9,Read,NAK
7.198962500,7678,0x49,0xE2,Read,ACK
7.199017500,7678,0x49,0xE2,Read,NAK
7.204147500,7680,0x49,0xF4,Read,ACK
7.204202500,7680,0x49,0xF4,Read,NAK
7.205832500,7682,0x40,0xE8,Write,ACK
7.205887500,7682,0x40,0xE8,Write,NAK
7.206217500,7684,0x41,0xE1,Read,ACK
7.206272500,7684,0x41,0xE1,Read,NAK
7.206527500,7686,0x49,0x26,Read,ACK
7.206582500,7686,0x49,0x26,Read,NAK
7.211712500,7688,0x49,0x04,Read,ACK
7.211767500,7688,0x49,0x04,Read,NAK
7.213397500,7690,0x40,0xEC,Write,ACK
7.213452500,7690,0x40,0xEC,Write,NAK
7.213782500,7692,0x41,0xD6,Read,ACK
7.213837500,7692,0x41,0xD6,Read,NAK
7.214092500,7694,0x49,0x37,Read,ACK
7.214147500,7694,0x49,0x37,Read,NAK
7.219277500,7696,0x49,0x47,Read,ACK
7.219332500,7696,0x49,0x47,Read,NAK
7.220962500,7698,0x40,0xF0,Write,ACK
7.221017500,7698,0x40,0xF0,Write,NAK
7.221347500,7700,0x41,0xDB,Read,ACK
7.221402500,7700,0x41,0xDB,Read,NAK
7.221657500,7702,0x49,0x14,Read,ACK
7.221712500,7702,0x49,0x14,Read,NAK
7.226842500,7704,0x49,0x09,Read,ACK
7.226897500,7704,0x49,0x09,Read,NAK
7.228527500,7706,0x40,0xF4,Write,ACK
7.228582500,7706,0x40,0xF4,Write,NAK
7.228912500,7708,0x41,0x07,Read,ACK
7.228967500,7708,0x41,0x07,Read,NAK
7.229222500,7710,0x49,0xF3,Read,ACK
7.229277500,7710,0x49,0xF3,Read,NAK
7.234407500,7712,0x49,0x53,Read,ACK
7.234462500,7712,0x49,0x53,Read,NAK
7.236092500,7714,0x40,0xF8,Write,ACK
7.236147500,7714,0x40,0xF8,Write,NAK
7.236477500,7716,0x41,0xEB,Read,ACK
7.236532500,7716,0x41,0xEB,Read,NAK
7.236787500,7718,0x49,0x1C,Read,ACK
7.236842500,7718,0x49,0x1C,Read,NAK
7.241972500,7720,0x49,0x5A,Read,ACK
7.242027500,7720,0x49,0x5A,Read,NAK
7.243657500,7722,0x40,0xFC,Write,ACK
7.243712500,7722,0x40,0xFC,Write,NAK
7.244042500,7724,0x41,0x11,Read,ACK
7.244097500,7724,0x41,0x11,Read,NAK
7.244352500,7726,0x49,0xF3,Read,ACK
7.244407500,7726,0x49,0xF3,Read,NAK
7.249537500,7728,0x49,0x54,Read,ACK
7.249592500,7728,0x49,0x54,Read,NAK
7.251222500,7730,0x40,0x00,Write,ACK
7.251277500,7730,0x40,0x00,Write,NAK
7.251607500,7732,0x41,0x1A,Read,ACK
7.251662500,7732,0x41,0x1A,Read,NAK
7.251917500,7734,0x49,0x3C,Read,ACK
7.251972500,7734,0x49,0x3C,Read,NAK
7.257102500,7736,0x49,0x07,Read,ACK
7.257157500,7736,0x49,0x07,Read,NAK
7.258787500,7738,0x40,0x04,Write,ACK
7.258842500,7738,0x40,0x04,Write,NAK
7.259172500,7740,0x41,0x1D,Read,ACK
7.259227500,7740,0x41,0x1D,Read,NAK
7.259482500,7742,0x49,0x37,Read,ACK
7.259537500,7742,0x49,0x37,Read,NAK
7.264667500,7744,0x49,0x3A,Read,ACK
7.264722500,7744,0x49,0x3A,Read,NAK
7.266352500,7746,0x40,0x08,Write,ACK
7.266407500,7746,0x40,0x08,Write,NAK
7.266737500,7748,0x41,0xF3,Read,ACK
7.266792500,7748,0x41,0xF3,Read,NAK
7.267047500,7750,0x49,0x43,Read,ACK
7.267102500,7750,0x49,0x43,Read,NAK
7.272232500,7752,0x49,0x35,Read,ACK
7.272287500,7752,0x49,0x35,Read,NAK
7.273917500,7754,0x40,0x0C,Write,ACK
7.273972500,7754,0x40,0x0C,Write,NAK
7.274302500,7756,0x41,0x0C,Read,ACK
7.274357500,7756,0x41,0x0C,Read,NAK
7.274612500,7758,0x49,0x18,Read,ACK
7.274667500,7758,0x49,0x18,Read,NAK
7.279797500,7760,0x49,0x49,Read,ACK
7.279852500,7760,0x49,0x49,Read,NAK
7.281482500,7762,0x40,0x10,Write,ACK
7.281537500,7762,0x40,0x10,Write,NAK
7.281867500,7764,0x41,0xEF,Read,ACK
7.281922500,7764,0x41,0xEF,Read,NAK
7.282177500,7766,0x49,0x1E,Read,ACK
7.282232500,7766,0x49,0x1E,Read,NAK
7.287362500,7768,0x49,0x66,Read,ACK
7.287417500,7768,0x49,0x66,Read,NAK
7.289047500,7770,0x40,0x14,Write,ACK
7.289102500,7770,0x40,0x14,Write,NAK
7.289432500,7772,0x41,0xFF,Read,ACK
7.289487500,7772,0x41,0xFF,Read,NAK
7.289742500,7774,0x49,0x1D,Read,ACK
7.289797500,7774,0x49,0x1D,Read,NAK
7.294927500,7776,0x49,0x48,Read,ACK
7.294982500,7776,0x49,0x48,Read,NAK
7.296612500,7778,0x40,0x18,Write,ACK
7.296667500,7778,0x40,0x18,Write,NAK
7.296997500,7780,0x41,0x23,Read,ACK
7.297052500,7780,0x41,0x23,Read,NAK
7.297307500,7782,0x49,0x32,Read,ACK
7.297362500,7782,0x49,0x32,Read,NAK
7.302492500,7784,0x49,0x3F,Read,ACK
7.302547500,7784,0x49,0x3F,Read,NAK
7.304177500,7786,0x40,0x1C,Write,ACK
7.304232500,7786,0x40,0x1C,Write,NAK
7.304562500,7788,0x41,0x3F,Read,ACK
7.304617500,7788,0x41,0x3F,Read,NAK
7.304872500,7790,0x49,0x1F,Read,ACK
7.304927500,7790,0x49,0x1F,Read,NAK
7.310057500,7792,0x49,0x38,Read,ACK
7.310112500,7792,0x49,0x38,Read,NAK
7.311742500,7794,0x40,0x20,Write,ACK
7.311797500,7794,0x40,0x20,Write,NAK
7.312127500,7796,0x41,0x3D,Read,ACK
7.312182500,7796,0x41,0x3D,Read,NAK
7.312437500,7798,0x49,0x5F,Read,ACK
7.312492500,7798,0x49,0x5F,Read,NAK
7.317622500,7800,0x49,0x78,Read,ACK
7.317677500,7800,0x49,0x78,Read,NAK
7.319307500,7802,0x40,0x24,Write,ACK
7.319362500,7802,0x40,0x24,Write,NAK
7.319692500,7804,0x41,0x10,Read,ACK
7.319747500,7804,0x41,0x10,Read,NAK
7.320002500,7806,0x49,0x36,Read,ACK
7.320057500,7806,0x49,0x36,Read,NAK
7.325187500,7808,0x49,0x58,Read,ACK
7.325242500,7808,0x49,0x58,Read,NAK
7.326872500,7810,0x40,0x28,Write,ACK
7.326927500,7810,0x40,0x28,Write,NAK
7.327257500,7812,0x41,0x53,Read,ACK
7.327312500,7812,0x41,0x53,Read,NAK
7.327567500,7814,0x49,0x41,Read,ACK
7.327622500,7814,0x49,0x41,Read,NAK
7.332752500,7816,0x49,0x54,Read,ACK
7.332807500,7816,0x49,0x54,Read,NAK
7.334437500,7818,0x40,0x2C,Write,ACK
7.334492500,7818,0x40,0x2C,Write,NAK
7.334822500,7820,0x41,0x30,Read,ACK
7.334877500,7820,0x41,0x30,Read,NAK
7.335132500,7822,0x49,0x4D,Read,ACK
7.335187500,7822,0x49,0x4D,Read,NAK
7.340317500,7824,0x49,0x91,Read,ACK
7.340372500,7824,0x49,0x91,Read,NAK
7.342002500,7826,0x40,0x30,Write,ACK
7.342057500,7826,0x40,0x30,Write,NAK
7.342387500,7828,0x41,0x3D,Read,ACK
7.342442500,7828,0x41,0x3D,Read,NAK
7.342697500,7830,0x49,0x3F,Read,ACK
7.342752500,7830,0x49,0x3F,Read,NAK
7.347882500,7832,0x49,0x84,Read,ACK
7.347937500,7832,0x49,0x84,Read,NAK
7.349567500,7834,0x40,0x34,Write,ACK
7.349622500,7834,0x40,0x34,Write,NAK
7.349952500,7836,0x41,0x2A,Read,ACK
7.350007500,7836,0x41,0x2A,Read,NAK
7.350262500,7838,0x49,0x40,Read,ACK
7.350317500,7838,0x49,0x40,Read,NAK
7.355447500,7840,0x49,0x87,Read,ACK
7.355502500,7840,0x49,0x87,Read,NAK
7.357132500,7842,0x40,0x38,Write,ACK
7.357187500,7842,0x40,0x38,Write,NAK
7.357517500,7844,0x41,0x0D,Read,ACK
7.357572500,7844,0x41,0x0D,Read,NAK
7.357827500,7846,0x49,0x6A,Read,ACK
7.357882500,7846,0x49,0x6A,Read,NAK
7.363012500,7848,0x49,0x45,Read,ACK
7.363067500,7848,0x49,0x45,Read,NAK
7.364697500,7850,0x40,0x3C,Write,ACK
7.364752500,7850,0x40,0x3C,Write,NAK
7.365082500,7852,0x41,0x4F,Read,ACK
7.365137500,7852,0x41,0x4F,Read,NAK
7.365392500,7854,0x49,0x4D,Read,ACK
7.365447500,7854,0x49,0x4D,Read,NAK
7.370577500,7856,0x49,0x8D,Read,ACK
7.370632500,7856,0x49,0x8D,Read,NAK
7.372262500,7858,0x40,0x40,Write,ACK
7.372317500,7858,0x40,0x40,Write,NAK
7.372647500,7860,0x41,0x0A,Read,ACK
7.372702500,7860,0x41,0x0A,Read,NAK
7.372957500,7862,0x49,0x6D,Read,ACK
7.373012500,7862,0x49,0x6D,Read,NAK
7.378142500,7864,0x49,0x92,Read,ACK
7.378197500,7864,0x49,0x92,Read,NAK
7.379827500,7866,0x40,0x44,Write,ACK
7.379882500,7866,0x40,0x44,Write,NAK
7.380212500,7868,0x41,0x61,Read,ACK
7.380267500,7868,0x41,0x61,Read,NAK
7.380522500,7870,0x49,0x4E,Read,ACK
7.380577500,7870,0x49,0x4E,Read,NAK
7.385707500,7872,0x49,0x81,Read,ACK
7.385762500,7872,0x49,0x81,Read,NAK
7.387392500,7874,0x40,0x48,Write,ACK
7.387447500,7874,0x40,0x48,Write,NAK
7.387777500,7876,0x41,0x49,Read,ACK
7.387832500,7876,0x41,0x49,Read,NAK
7.388087500,7878,0x49,0x6A,Read,ACK
7.388142500,7878,0x49,0x6A,Read,NAK
7.393272500,7880,0x49,0xA7,Read,ACK
7.393327500,7880,0x49,0xA7,Read,NAK
7.394957500,7882,0x40,0x4C,Write,ACK
7.395012500,7882,0x40,0x4C,Write,NAK
7.395342500,7884,0x41,0x6D,Read,ACK
7.395397500,7884,0x41,0x6D,Read,NAK
7.395652500,7886,0x49,0x65,Read,ACK
7.395707500,7886,0x49,0x65,Read,NAK
7.400837500,7888,0x49,0x83,Read,ACK
7.400892500,7888,0x49,0x83,Read,NAK
7.402522500,7890,0x40,0x50,Write,ACK
7.402577500,7890,0x40,0x50,Write,NAK
7.402907500,7892,0x41,0x56,Read,ACK
7.402962500,7892,0x41,0x56,Read,NAK
7.403217500,7894,0x49,0x93,Read,ACK
7.403272500,7894,0x49,0x93,Read,NAK
7.408402500,7896,0x49,0x5F,Read,ACK
7.408457500,7896,0x49,0x5F,Read,NAK
7.410087500,7898,0x40,0x54,Write,ACK
7.410142500,7898,0x40,0x54,Write,NAK
7.410472500,7900,0x41,0x52,Read,ACK
7.410527500,7900,0x41,0x52,Read,NAK
7.410782500,7902,0x49,0x6E,Read,ACK
7.410837500,7902,0x49,0x6E,Read,NAK
7.415967500,7904,0x49,0xA1,Read,ACK
7.416022500,7904,0x49,0xA1,Read,NAK
7.417652500,7906,0x40,0x58,Write,ACK
7.417707500,7906,0x40,0x58,Write,NAK
7.418037500,7908,0x41,0x82,Read,ACK
7.418092500,7908,0x41,0x82,Read,NAK
7.418347500,7910,0x49,0x9A,Read,ACK
7.418402500,7910,0x49,0x9A,Read,NAK
7.423532500,7912,0x49,0x6E,Read,ACK
7.423587500,7912,0x49,0x6E,Read,NAK
7.425217500,7914,0x40,0x5C,Write,ACK
7.425272500,7914,0x40,0x5C,Write,NAK
7.425602500,7916,0x41,0x5D,Read,ACK
7.425657500,7916,0x41,0x5D,Read,NAK
7.425912500,7918,0x49,0x7B,Read,ACK
7.425967500,7918,0x49,0x7B,Read,NAK
7.431097500,7920,0x49,0xB4,Read,ACK
7.431152500,7920,0x49,0xB4,Read,NAK
7.432782500,7922,0x40,0x60,Write,ACK
7.432837500,7922,0x40,0x60,Write,NAK
7.433167500,7924,0x41,0x8A,Read,ACK
7.433222500,7924,0x41,0x8A,Read,NAK
7.433477500,7926,0x49,0x8E,Read,ACK
7.433532500,7926,0x49,0x8E,Read,NAK
7.438662500,7928,0x49,0x91,Read,ACK
7.438717500,7928,0x49,0x91,Read,NAK
7.440347500,7930,0x40,0x64,Write,ACK
7.440402500,7930,0x40,0x64,Write,NAK
7.440732500,7932,0x41,0x7A,Read,ACK
7.440787500,7932,0x41,0x7A,Read,NAK
7.441042500,7934,0x49,0x8A,Read,ACK
7.441097500,7934,0x49,0x8A,Read,NAK
7.446227500,7936,0x49,0x7C,Read,ACK
7.446282500,7936,0x49,0x7C,Read,NAK
7.447912500,7938,0x40,0x68,Write,ACK
7.447967500,7938,0x40,0x68,Write,NAK
7.448297500,7940,0x41,0x8E,Read,ACK
7.448352500,7940,0x41,0x8E,Read,NAK
7.448607500,7942,0x49,0x97,Read,ACK
7.448662500,7942,0x49,0x97,Read,NAK
7.453792500,7944,0x49,0x70,Read,ACK
7.453847500,7944,0x49,0x70,Read,NAK
7.455422500,,0x24,,Write,NAK
7.455752500,7948,0x40,0x6C,Write,ACK
7.455807500,7948,0x40,0x6C,Write,NAK
7.456137500,7950,0x41,0x92,Read,ACK
7.456192500,7950,0x41,0x92,Read,NAK
7.456447500,7952,0x49,0x94,Read,ACK
7.456502500,7952,0x49,0x94,Read,NAK
7.461632500,7954,0x49,0x9A,Read,ACK
7.461687500,7954,0x49,0x9A,Read,NAK
7.463317500,7956,0x40,0x70,Write,ACK
7.463372500,7956,0x40,0x70,Write,NAK
7.463702500,7958,0x41,0x89,Read,ACK
7.463757500,7958,0x41,0x89,Read,NAK
7.464012500,7960,0x49,0x95,Read,ACK
7.464067500,7960,0x49,0x95,Read,NAK
7.469197500,7962,0x49,0x85,Read,ACK
7.469252500,7962,0x49,0x85,Read,NAK
7.470882500,7964,0x40,0x74,Write,ACK
7.470937500,7964,0x40,0x74,Write,NAK
7.471267500,7966,0x41,0x61,Read,ACK
7.471322500,7966,0x41,0x61,Read,NAK
7.471577500,7968,0x49,0x8E,Read,ACK
7.471632500,7968,0x49,0x8E,Read,NAK
7.476762500,7970,0x49,0xA9,Read,ACK
7.476817500,7970,0x49,0xA9,Read,NAK
7.478447500,7972,0x40,0x78,Write,ACK
7.478502500,7972,0x40,0x78,Write,NAK
7.478832500,7974,0x41,0x4F,Read,ACK
7.478887500,7974,0x41,0x4F,Read,NAK
7.479142500,7976,0x49,0xAC,Read,ACK
7.479197500,7976,0x49,0xAC,Read,NAK
7.484327500,7978,0x49,0x83,Read,ACK
7.484382500,7978,0x49,0x83,Read,NAK
7.485957500,,0x24,,Write,NAK
7.486287500,7982,0x40,0x7C,Write,ACK
7.486342500,7982,0x40,0x7C,Write,NAK
7.486672500,7984,0x41,0x7D,Read,ACK
7.486727500,7984,0x41,0x7D,Read,NAK
7.486982500,7986,0x49,0x97,Read,ACK
7.487037500,7986,0x49,0x97,Read,NAK
7.492167500,7988,0x49,0x9F,Read,ACK
7.492222500,7988,0x49,0x9F,Read,NAK
7.493852500,7990,0x40,0x80,Write,ACK
7.493907500,7990,0x40,0x80,Write,NAK
7.494237500,7992,0x41,0xA8,Read,ACK
7.494292500,7992,0x41,0xA8,Read,NAK
7.494547500,7994,0x49,0xBC,Read,ACK
7.494602500,7994,0x49,0xBC,Read,NAK
7.499732500,7996,0x49,0xAB,Read,ACK
7.499787500,7996,0x49,0xAB,Read,NAK
7.501417500,7998,0x40,0x84,Write,ACK
7.501472500,7998,0x40,0x84,Write,NAK
7.501802500,8000,0x41,0x60,Read,ACK
7.501857500,8000,0x41,0x60,Read,NAK
7.502112500,8002,0x49,0x7F,Read,ACK
7.502167500,8002,0x49,0x7F,Read,NAK
7.507297500,8004,0x49,0xC5,Read,ACK
7.507352500,8004,0x49,0xC5,Read,NAK
7.508982500,8006,0x40,0x88,Write,ACK
7.509037500,8006,0x40,0x88,Write,NAK
7.509367500,8008,0x41,0x90,Read,ACK
7.509422500,8008,0x41,0x90,Read,NAK
7.509677500,8010,0x49,0xBA,Read,ACK
7.509732500,8010,0x49,0xBA,Read,NAK
7.514862500,8012,0x49,0xBA,Read,ACK
7.514917500,8012,0x49,0xBA,Read,NAK
7.516547500,8014,0x40,0x8C,Write,ACK
7.516602500,8014,0x40,0x8C,Write,NAK
7.516932500,8016,0x41,0x94,Read,ACK
7.516987500,8016,0x41,0x94,Read,NAK
7.517242500,8018,0x49,0xD4,Read,ACK
7.517297500,8018,0x49,0xD4,Read,NAK
7.522427500,8020,0x49,0x9F,Read,ACK
7.522482500,8020,0x49,0x9F,Read,NAK
7.524112500,8022,0x40,0x90,Write,ACK
7.524167500,8022,0x40,0x90,Write,NAK
7.524497500,8024,0x41,0xAB,Read,ACK
7.524552500,8024,0x41,0xAB,Read,NAK
7.524807500,8026,0x49,0xA0,Read,ACK
7.524862500,8026,0x49,0xA0,Read,NAK
7.529992500,8028,0x49,0xE0,Read,ACK
7.530047500,8028,0x49,0xE0,Read,NAK
7.531677500,8030,0x40,0x94,Write,ACK
7.531732500,8030,0x40,0x94,Write,NAK
7.532062500,8032,0x41,0x6C,Read,ACK
7.532117500,8032,0x41,0x6C,Read,NAK
7.532372500,8034,0x49,0x9D,Read,ACK
7.532427500,8034,0x49,0x9D,Read,NAK
7.537557500,8036,0x49,0xFE,Read,ACK
7.537612500,8036,0x49,0xFE,Read,NAK
7.539242500,8038,0x40,0x98,Write,ACK
7.539297500,8038,0x40,0x98,Write,NAK
7.539627500,8040,0x41,0x83,Read,ACK
7.539682500,8040,0x41,0x83,Read,NAK
7.539937500,8042,0x49,0xC5,Read,ACK
7.539992500,8042,0x49,0xC5,Read,NAK
7.545122500,8044,0x49,0x9F,Read,ACK
7.545177500,8044,0x49,0x9F,Read,NAK
7.546807500,8046,0x40,0x9C,Write,ACK
7.546862500,8046,0x40,0x9C,Write,NAK
7.547192500,8048,0x41,0xC2,Read,ACK
7.547247500,8048,0x41,0xC2,Read,NAK
7.547502500,8050,0x49,0xAE,Read,ACK
7.547557500,8050,0x49,0xAE,Read,NAK
7.552687500,8052,0x49,0x00,Read,ACK
7.552742500,8052,0x49,0x00,Read,NAK
7.554372500,8054,0x40,0xA0,Write,ACK
7.554427500,8054,0x40,0xA0,Write,NAK
7.554757500,8056,0x41,0xCC,Read,ACK
7.554812500,8056,0x41,0xCC,Read,NAK
7.555067500,8058,0x49,0xE7,Read,ACK
7.555122500,8058,0x49,0xE7,Read,NAK
7.560252500,8060,0x49,0xE4,Read,ACK
7.560307500,8060,0x49,0xE4,Read,NAK
7.561937500,8062,0x40,0xA4,Write,ACK
7.561992500,8062,0x40,0xA4,Write,NAK
7.562322500,8064,0x41,0xC4,Read,ACK
7.562377500,8064,0x41,0xC4,Read,NAK
7.562632500,8066,0x49,0xAD,Read,ACK
7.562687500,8066,0x49,0xAD,Read,NAK
7.567817500,8068,0x49,0xCA,Read,ACK
7.567872500,8068,0x49,0xCA,Read,NAK
7.569502500,8070,0x40,0xA8,Write,ACK
7.569557500,8070,0x40,0xA8,Write,NAK
7.569887500,8072,0x41,0xC1,Read,ACK
7.569942500,8072,0x41,0xC1,Read,NAK
7.570197500,8074,0x49,0xB8,Read,ACK
7.570252500,8074,0x49,0xB8,Read,NAK
7.575382500,8076,0x49,0xE6,Read,ACK
7.575437500,8076,0x49,0xE6,Read,NAK
7.577067500,8078,0x40,0xAC,Write,ACK
7.577122500,8078,0x40,0xAC,Write,NAK
7.577452500,8080,0x41,0x7E,Read,ACK
7.577507500,8080,0x41,0x7E,Read,NAK
7.577762500,8082,0x49,0xB5,Read,ACK
7.577817500,8082,0x49,0xB5,Read,NAK
7.582947500,8084,0x49,0xD6,Read,ACK
7.583002500,8084,0x49,0xD6,Read,NAK
7.584632500,8086,0x40,0xB0,Write,ACK
7.584687500,8086,0x40,0xB0,Write,NAK
7.585017500,8088,0x41,0xDB,Read,ACK
7.585072500,8088,0x41,0xDB,Read,NAK
7.585327500,8090,0x49,0xE2,Read,ACK
7.585382500,8090,0x49,0xE2,Read,NAK
7.590512500,8092,0x49,0xC0,Read,ACK
7.590567500,8092,0x49,0xC0,Read,NAK
7.592197500,8094,0x40,0xB4,Write,ACK
7.592252500,8094,0x40,0xB4,Write,NAK
7.592582500,8096,0x41,0x9D,Read,ACK
7.592637500,8096,0x41,0x9D,Read,NAK
7.592892500,8098,0x49,0xE6,Read,ACK
7.592947500,8098,0x49,0xE6,Read,NAK
7.598077500,8100,0x49,0x16,Read,ACK
7.598132500,8100,0x49,0x16,Read,NAK
7.599762500,8102,0x40,0xB8,Write,ACK
7.599817500,8102,0x40,0xB8,Write,NAK
7.600147500,8104,0x41,0x91,Read,ACK
7.600202500,8104,0x41,0x91,Read,NAK
7.600457500,8106,0x49,0xD9,Read,ACK
7.600512500,8106,0x49,0xD9,Read,NAK
7.605642500,8108,0x49,0xC5,Read,ACK
7.605697500,8108,0x49,0xC5,Read,NAK
7.607272500,,0x24,,Write,NAK
7.607602500,8112,0x40,0xBC,Write,ACK
7.607657500,8112,0x40,0xBC,Write,NAK
7.607987500,8114,0x41,0xCD,Read,ACK
7.608042500,8114,0x41,0xCD,Read,NAK
7.608297500,8116,0x49,0xE5,Read,ACK
7.608352500,8116,0x49,0xE5,Read,NAK
7.613482500,8118,0x49,0x25,Read,ACK
7.613537500,8118,0x49,0x25,Read,NAK
7.615167500,8120,0x40,0xC0,Write,ACK
7.615222500,8120,0x40,0xC0,Write,NAK
7.615552500,8122,0x41,0xDE,Read,ACK
7.615607500,8122,0x41,0xDE,Read,NAK
7.615862500,8124,0x49,0xC1,Read,ACK
7.615917500,8124,0x49,0xC1,Read,NAK
7.621047500,8126,0x49,0x21,Read,ACK
7.621102500,8126,0x49,0x21,Read,NAK
7.622732500,8128,0x40,0xC4,Write,ACK
7.622787500,8128,0x40,0xC4,Write,NAK
7.623117500,8130,0x41,0xAD,Read,ACK
7.623172500,8130,0x41,0xAD,Read,NAK
7.623427500,8132,0x49,0x03,Read,ACK
7.623482500,8132,0x49,0x03,Read,NAK
7.628612500,8134,0x49,0x11,Read,ACK
7.628667500,8134,0x49,0x11,Read,NAK
7.630297500,8136,0x40,0xC8,Write,ACK
7.630352500,8136,0x40,0xC8,Write,NAK
7.630682500,8138,0x41,0x92,Read,ACK
7.630737500,8138,0x41,0x92,Read,NAK
7.630992500,8140,0x49,0x0C,Read,ACK
7.631047500,8140,0x49,0x0C,Read,NAK
7.636177500,8142,0x49,0xD7,Read,ACK
7.636232500,8142,0x49,0xD7,Read,NAK
7.637807500,,0x24,,Write,NAK
7.638137500,8146,0x40,0xCC,Write,ACK
7.638192500,8146,0x40,0xCC,Write,NAK
7.638522500,8148,0x41,0xF7,Read,ACK
7.638577500,8148,0x41,0xF7,Read,NAK
7.638832500,8150,0x49,0xED,Read,ACK
7.638887500,8150,0x49,0xED,Read,NAK
7.644017500,8152,0x49,0xD5,Read,ACK
7.644072500,8152,0x49,0xD5,Read,NAK
7.645702500,8154,0x40,0xD0,Write,ACK
7.645757500,8154,0x40,0xD0,Write,NAK
7.646087500,8156,0x41,0xD1,Read,ACK
7.646142500,8156,0x41,0xD1,Read,NAK
7.646397500,8158,0x49,0xD1,Read,ACK
7.646452500,8158,0x49,0xD1,Read,NAK
7.651582500,8160,0x49,0xDE,Read,ACK
7.651637500,8160,0x49,0xDE,Read,NAK
7.653267500,8162,0x40,0xD4,Write,ACK
7.653322500,8162,0x40,0xD4,Write,NAK
7.653652500,8164,0x41,0xE6,Read,ACK
7.653707500,8164,0x41,0xE6,Read,NAK
7.653962500,8166,0x49,0xFC,Read,ACK
7.654017500,8166,0x49,0xFC,Read,NAK
7.659147500,8168,0x49,0xDE,Read,ACK
7.659202500,8168,0x49,0xDE,Read,NAK
7.660832500,8170,0x40,0xD8,Write,ACK
7.660887500,8170,0x40,0xD8,Write,NAK
7.661217500,8172,0x41,0x00,Read,ACK
7.661272500,8172,0x41,0x00,Read,NAK
7.661527500,8174,0x49,0x0B,Read,ACK
7.661582500,8174,0x49,0x0B,Read,NAK
7.666712500,8176,0x49,0x12,Read,ACK
7.666767500,8176,0x49,0x12,Read,NAK
7.668397500,8178,0x40,0xDC,Write,ACK
7.668452500,8178,0x40,0xDC,Write,NAK
7.668782500,8180,0x41,0xE6,Read,ACK
7.668837500,8180,0x41,0xE6,Read,NAK
7.669092500,8182,0x49,0xD4,Read,ACK
7.669147500,8182,0x49,0xD4,Read,NAK
7.674277500,8184,0x49,0x0A,Read,ACK
7.674332500,8184,0x49,0x0A,Read,NAK
7.675962500,8186,0x40,0xE0,Write,ACK
7.676017500,8186,0x40,0xE0,Write,NAK
7.676347500,8188,0x41,0xB7,Read,ACK
7.676402500,8188,0x41,0xB7,Read,NAK
7.676657500,8190,0x49,0x27,Read,ACK
7.676712500,8190,0x49,0x27,Read,NAK
7.681842500,8192,0x49,0x2D,Read,ACK
7.681897500,8192,0x49,0x2D,Read,NAK
7.683527500,8194,0x40,0xE4,Write,ACK
7.683582500,8194,0x40,0xE4,Write,NAK
7.683912500,8196,0x41,0xE4,Read,ACK
7.683967500,8196,0x41,0xE4,Read,NAK
7.684222500,8198,0x49,0x37,Read,ACK
7.684277500,8198,0x49,0x37,Read,NAK
7.689407500,8200,0x49,0xF6,Read,ACK
7.689462500,8200,0x49,0xF6,Read,NAK
7.691092500,8202,0x40,0xE8,Write,ACK
7.691147500,8202,0x40,0xE8,Write,NAK
7.691477500,8204,0x41,0xF9,Read,ACK
7.691532500,8204,0x41,0xF9,Read,NAK
7.691787500,8206,0x49,0xF1,Read,ACK
7.691842500,8206,0x49,0xF1,Read,NAK
7.696972500,8208,0x49,0xFE,Read,ACK
7.697027500,8208,0x49,0xFE,Read,NAK
7.698602500,,0x24,,Write,NAK
7.698932500,8212,0x40,0xEC,Write,ACK
7.698987500,8212,0x40,0xEC,Write,NAK
7.699317500,8214,0x41,0xC4,Read,ACK
7.699372500,8214,0x41,0xC4,Read,NAK
7.699627500,8216,0x49,0x27,Read,ACK
7.699682500,8216,0x49,0x27,Read,NAK
7.704812500,8218,0x49,0x02,Read,ACK
7.704867500,8218,0x49,0x02,Read,NAK
7.706497500,8220,0x40,0xF0,Write,ACK
7.706552500,8220,0x40,0xF0,Write,NAK
7.706882500,8222,0x41,0xDA,Read,ACK
7.706937500,8222,0x41,0xDA,Read,NAK
7.707192500,8224,0x49,0x30,Read,ACK
7.707247500,8224,0x49,0x30,Read,NAK
7.712377500,8226,0x49,0x32,Read,ACK
7.712432500,8226,0x49,0x32,Read,NAK
7.714062500,8228,0x40,0xF4,Write,ACK
7.714117500,8228,0x40,0xF4,Write,NAK
7.714447500,8230,0x41,0xD7,Read,ACK
7.714502500,8230,0x41,0xD7,Read,NAK
7.714757500,8232,0x49,0x29,Read,ACK
7.714812500,8232,0x49,0x29,Read,NAK
7.719942500,8234,0x49,0x2B,Read,ACK
7.719997500,8234,0x49,0x2B,Read,NAK
7.721627500,8236,0x40,0xF8,Write,ACK
7.721682500,8236,0x40,0xF8,Write,NAK
7.722012500,8238,0x41,0x0E,Read,ACK
7.722067500,8238,0x41,0x0E,Read,NAK
7.722322500,8240,0x49,0x51,Read,ACK
7.722377500,8240,0x49,0x51,Read,NAK
7.727507500,8242,0x49,0x23,Read,ACK
7.727562500,8242,0x49,0x23,Read,NAK
7.729192500,8244,0x40,0xFC,Write,ACK
7.729247500,8244,0x40,0xFC,Write,NAK
7.729577500,8246,0x41,0xFB,Read,ACK
7.729632500,8246,0x41,0xFB,Read,NAK
7.729887500,8248,0x49,0x0D,Read,ACK
7.729942500,8248,0x49,0x0D,Read,NAK
7.735072500,8250,0x49,0x60,Read,ACK
7.735127500,8250,0x49,0x60,Read,NAK
7.736757500,8252,0x40,0x00,Write,ACK
7.736812500,8252,0x40,0x00,Write,NAK
7.737142500,8254,0x41,0xD2,Read,ACK
7.737197500,8254,0x41,0xD2,Read,NAK
7.737452500,8256,0x49,0x06,Read,ACK
7.737507500,8256,0x49,0x06,Read,NAK
7.742637500,8258,0x49,0x4A,Read,ACK
7.742692500,8258,0x49,0x4A,Read,NAK
7.744322500,8260,0x40,0x04,Write,ACK
7.744377500,8260,0x40,0x04,Write,NAK
7.744707500,8262,0x41,0xD7,Read,ACK
7.744762500,8262,0x41,0xD7,Read,NAK
7.745017500,8264,0x49,0x48,Read,ACK
7.745072500,8264,0x49,0x48,Read,NAK
7.750202500,8266,0x49,0x50,Read,ACK
7.750257500,8266,0x49,0x50,Read,NAK
7.751887500,8268,0x40,0x08,Write,ACK
7.751942500,8268,0x40,0x08,Write,NAK
7.752272500,8270,0x41,0x03,Read,ACK
7.752327500,8270,0x41,0x03,Read,NAK
7.752582500,8272,0x49,0x22,Read,ACK
7.752637500,8272,0x49,0x22,Read,NAK
7.757767500,8274,0x49,0x43,Read,ACK
7.757822500,8274,0x49,0x43,Read,NAK
7.759452500,8276,0x40,0x0C,Write,ACK
7.759507500,8276,0x40,0x0C,Write,NAK
7.759837500,8278,0x41,0x0F,Read,ACK
7.759892500,8278,0x41,0x0F,Read,NAK
7.760147500,8280,0x49,0x46,Read,ACK
7.760202500,8280,0x49,0x46,Read,NAK
7.765332500,8282,0x49,0x6B,Read,ACK
7.765387500,8282,0x49,0x6B,Read,NAK
7.767017500,8284,0x40,0x10,Write,ACK
7.767072500,8284,0x40,0x10,Write,NAK
7.767402500,8286,0x41,0x38,Read,ACK
7.767457500,8286,0x41,0x38,Read,NAK
7.767712500,8288,0x49,0x36,Read,ACK
7.767767500,8288,0x49,0x36,Read,NAK
7.772897500,8290,0x49,0x45,Read,ACK
7.772952500,8290,0x49,0x45,Read,NAK
7.774582500,8292,0x40,0x14,Write,ACK
7.774637500,8292,0x40,0x14,Write,NAK
7.774967500,8294,0x41,0x1D,Read,ACK
7.775022500,8294,0x41,0x1D,Read,NAK
7.775277500,8296,0x49,0x68,Read,ACK
7.775332500,8296,0x49,0x68,Read,NAK
7.780462500,8298,0x49,0x75,Read,ACK
7.780517500,8298,0x49,0x75,Read,NAK
7.782147500,8300,0x40,0x18,Write,ACK
7.782202500,8300,0x40,0x18,Write,NAK
7.782532500,8302,0x41,0x10,Read,ACK
7.782587500,8302,0x41,0x10,Read,NAK
7.782842500,8304,0x49,0x5D,Read,ACK
7.782897500,8304,0x49,0x5D,Read,NAK
7.788027500,8306,0x49,0x73,Read,ACK
7.788082500,8306,0x49,0x73,Read,NAK
7.789712500,8308,0x40,0x1C,Write,ACK
7.789767500,8308,0x40,0x1C,Write,NAK
7.790097500,8310,0x41,0x20,Read,ACK
7.790152500,8310,0x41,0x20,Read,NAK
7.790407500,8312,0x49,0x30,Read,ACK
7.790462500,8312,0x49,0x30,Read,NAK
7.795592500,8314,0x49,0x69,Read,ACK
7.795647500,8314,0x49,0x69,Read,NAK
7.797277500,8316,0x40,0x20,Write,ACK
7.797332500,8316,0x40,0x20,Write,NAK
7.797662500,8318,0x41,0x18,Read,ACK
7.797717500,8318,0x41,0x18,Read,NAK
7.797972500,8320,0x49,0x3C,Read,ACK
7.798027500,8320,0x49,0x3C,Read,NAK
7.803157500,8322,0x49,0x79,Read,ACK
7.803212500,8322,0x49,0x79,Read,NAK
7.804842500,8324,0x40,0x24,Write,ACK
7.804897500,8324,0x40,0x24,Write,NAK
7.805227500,8326,0x41,0x32,Read,ACK
7.805282500,8326,0x41,0x32,Read,NAK
7.805537500,8328,0x49,0x1D,Read,ACK
7.805592500,8328,0x49,0x1D,Read,NAK
7.810722500,8330,0x49,0x52,Read,ACK
7.810777500,8330,0x49,0x52,Read,NAK
7.812407500,8332,0x40,0x28,Write,ACK
7.812462500,8332,0x40,0x28,Write,NAK
7.812792500,8334,0x41,0x1A,Read,ACK
7.812847500,8334,0x41,0x1A,Read,NAK
7.813102500,8336,0x49,0x49,Read,ACK
7.813157500,8336,0x49,0x49,Read,NAK
7.818287500,8338,0x49,0x54,Read,ACK
7.818342500,8338,0x49,0x54,Read,NAK
7.819972500,8340,0x40,0x2C,Write,ACK
7.820027500,8340,0x40,0x2C,Write,NAK
7.820357500,8342,0x41,0x01,Read,ACK
7.820412500,8342,0x41,0x01,Read,NAK
7.820667500,8344,0x49,0x3C,Read,ACK
7.820722500,8344,0x49,0x3C,Read,NAK
7.825852500,8346,0x49,0x5A,Read,ACK
7.825907500,8346,0x49,0x5A,Read,NAK
7.827537500,8348,0x40,0x30,Write,ACK
7.827592500,8348,0x40,0x30,Write,NAK
7.827922500,8350,0x41,0x44,Read,ACK
7.827977500,8350,0x41,0x44,Read,NAK
7.828232500,8352,0x49,0x4C,Read,ACK
7.828287500,8352,0x49,0x4C,Read,NAK
7.833417500,8354,0x49,0x84,Read,ACK
7.833472500,8354,0x49,0x84,Read,NAK
7.835102500,8356,0x40,0x34,Write,ACK
7.835157500,8356,0x40,0x34,Write,NAK
7.835487500,8358,0x41,0x1E,Read,ACK
7.835542500,8358,0x41,0x1E,Read,NAK
7.835797500,8360,0x49,0x3E,Read,ACK
7.835852500,8360,0x49,0x3E,Read,NAK
7.840982500,8362,0x49,0x57,Read,ACK
7.841037500,8362,0x49,0x57,Read,NAK
7.842667500,8364,0x40,0x38,Write,ACK
7.842722500,8364,0x40,0x38,Write,NAK
7.843052500,8366,0x41,0x35,Read,ACK
7.843107500,8366,0x41,0x35,Read,NAK
7.843362500,8368,0x49,0x6F,Read,ACK
7.843417500,8368,0x49,0x6F,Read,NAK
7.848547500,8370,0x49,0x91,Read,ACK
7.848602500,8370,0x49,0x91,Read,NAK
7.850232500,8372,0x40,0x3C,Write,ACK
7.850287500,8372,0x40,0x3C,Write,NAK
7.850617500,8374,0x41,0x65,Read,ACK
7.850672500,8374,0x41,0x65,Read,NAK
7.850927500,8376,0x49,0x66,Read,ACK
7.850982500,8376,0x49,0x66,Read,NAK
7.856112500,8378,0x49,0x5F,Read,ACK
7.856167500,8378,0x49,0x5F,Read,NAK
7.857797500,8380,0x40,0x40,Write,ACK
7.857852500,8380,0x40,0x40,Write,NAK
7.858182500,8382,0x41,0x34,Read,ACK
7.858237500,8382,0x41,0x34,Read,NAK
7.858492500,8384,0x49,0x74,Read,ACK
7.858547500,8384,0x49,0x74,Read,NAK
7.863677500,8386,0x49,0x47,Read,ACK
7.863732500,8386,0x49,0x47,Read,NAK
7.865362500,8388,0x40,0x44,Write,ACK
7.865417500,8388,0x40,0x44,Write,NAK
7.865747500,8390,0x41,0x50,Read,ACK
7.865802500,8390,0x41,0x50,Read,NAK
7.866057500,8392,0x49,0x95,Read,ACK
7.866112500,8392,0x49,0x95,Read,NAK
7.871242500,8394,0x49,0x6C,Read,ACK
7.871297500,8394,0x49,0x6C,Read,NAK
7.872927500,8396,0x40,0x48,Write,ACK
7.872982500,8396,0x40,0x48,Write,NAK
7.873312500,8398,0x41,0x34,Read,ACK
7.873367500,8398,0x41,0x34,Read,NAK
7.873622500,8400,0x49,0x84,Read,ACK
7.873677500,8400,0x49,0x84,Read,NAK
7.878807500,8402,0x49,0x56,Read,ACK
7.878862500,8402,0x49,0x56,Read,NAK
7.880492500,8404,0x40,0x4C,Write,ACK
7.880547500,8404,0x40,0x4C,Write,NAK
7.880877500,8406,0x41,0x76,Read,ACK
7.880932500,8406,0x41,0x76,Read,NAK
7.881187500,8408,0x49,0x71,Read,ACK
7.881242500,8408,0x49,0x71,Read,NAK
7.886372500,8410,0x49,0x8B,Read,ACK
7.886427500,8410,0x49,0x8B,Read,NAK
7.888057500,8412,0x40,0x50,Write,ACK
7.888112500,8412,0x40,0x50,Write,NAK
7.888442500,8414,0x41,0x6F,Read,ACK
7.888497500,8414,0x41,0x6F,Read,NAK
7.888752500,8416,0x49,0x9B,Read,ACK
7.888807500,8416,0x49,0x9B,Read,NAK
7.893937500,8418,0x49,0x92,Read,ACK
7.893992500,8418,0x49,0x92,Read,NAK
7.895622500,8420,0x40,0x54,Write,ACK
7.895677500,8420,0x40,0x54,Write,NAK
7.896007500,8422,0x41,0x23,Read,ACK
7.896062500,8422,0x41,0x23,Read,NAK
7.896317500,8424,0x49,0x72,Read,ACK
7.896372500,8424,0x49,0x72,Read,NAK
7.901502500,8426,0x49,0x8F,Read,ACK
7.901557500,8426,0x49,0x8F,Read,NAK
7.903187500,8428,0x40,0x58,Write,ACK
7.903242500,8428,0x40,0x58,Write,NAK
7.903572500,8430,0x41,0x5B,Read,ACK
7.903627500,8430,0x41,0x5B,Read,NAK
7.903882500,8432,0x49,0x70,Read,ACK
7.903937500,8432,0x49,0x70,Read,NAK
7.909067500,8434,0x49,0x71,Read,ACK
7.909122500,8434,0x49,0x71,Read,NAK
7.910752500,8436,0x40,0x5C,Write,ACK
7.910807500,8436,0x40,0x5C,Write,NAK
7.911137500,8438,0x41,0x4C,Read,ACK
7.911192500,8438,0x41,0x4C,Read,NAK
7.911447500,8440,0x49,0xB4,Read,ACK
7.911502500,8440,0x49,0xB4,Read,NAK
7.916632500,8442,0x49,0x90,Read,ACK
7.916687500,8442,0x49,0x90,Read,NAK
7.918317500,8444,0x40,0x60,Write,ACK
7.918372500,8444,0x40,0x60,Write,NAK
7.918702500,8446,0x41,0x67,Read,ACK
7.918757500,8446,0x41,0x67,Read,NAK
7.919012500,8448,0x49,0xB7,Read,ACK
7.919067500,8448,0x49,0xB7,Read,NAK
7.924197500,8450,0x49,0x93,Read,ACK
7.924252500,8450,0x49,0x93,Read,NAK
7.925882500,8452,0x40,0x64,Write,ACK
7.925937500,8452,0x40,0x64,Write,NAK
7.926267500,8454,0x41,0x86,Read,ACK
7.926322500,8454,0x41,0x86,Read,NAK
7.926577500,8456,0x49,0xA7,Read,ACK
7.926632500,8456,0x49,0xA7,Read,NAK
7.931762500,8458,0x49,0x90,Read,ACK
7.931817500,8458,0x49,0x90,Read,NAK
7.933447500,8460,0x40,0x68,Write,ACK
7.933502500,8460,0x40,0x68,Write,NAK
7.933832500,8462,0x41,0x61,Read,ACK
7.933887500,8462,0x41,0x61,Read,NAK
7.934142500,8464,0x49,0x8A,Read,ACK
7.934197500,8464,0x49,0x8A,Read,NAK
7.939327500,8466,0x49,0x83,Read,ACK
7.939382500,8466,0x49,0x83,Read,NAK
7.941012500,8468,0x40,0x6C,Write,ACK
7.941067500,8468,0x40,0x6C,Write,NAK
7.941397500,8470,0x41,0x61,Read,ACK
7.941452500,8470,0x41,0x61,Read,NAK
7.941707500,8472,0x49,0xAE,Read,ACK
7.941762500,8472,0x49,0xAE,Read,NAK
7.946892500,8474,0x49,0x85,Read,ACK
7.946947500,8474,0x49,0x85,Read,NAK
7.948522500,,0x24,,Write,NAK
7.948852500,8478,0x40,0x70,Write,ACK
7.948907500,8478,0x40,0x70,Write,NAK
7.949237500,8480,0x41,0x78,Read,ACK
7.949292500,8480,0x41,0x78,Read,NAK
7.949547500,8482,0x49,0x84,Read,ACK
7.949602500,8482,0x49,0x84,Read,NAK
7.954732500,8484,0x49,0x79,Read,ACK
7.954787500,8484,0x49,0x79,Read,NAK
7.956417500,8486,0x40,0x74,Write,ACK
7.956472500,8486,0x40,0x74,Write,NAK
7.956802500,8488,0x41,0x84,Read,ACK
7.956857500,8488,0x41,0x84,Read,NAK
7.957112500,8490,0x49,0xA0,Read,ACK
7.957167500,8490,0x49,0xA0,Read,NAK
7.962297500,8492,0x49,0x97,Read,ACK
7.962352500,8492,0x49,0x97,Read,NAK
7.963982500,8494,0x40,0x78,Write,ACK
7.964037500,8494,0x40,0x78,Write,NAK
7.964367500,8496,0x41,0x6A,Read,ACK
7.964422500,8496,0x41,0x6A,Read,NAK
7.964677500,8498,0x49,0xD0,Read,ACK
7.964732500,8498,0x49,0xD0,Read,NAK
7.969862500,8500,0x49,0x9E,Read,ACK
7.969917500,8500,0x49,0x9E,Read,NAK
7.971547500,8502,0x40,0x7C,Write,ACK
7.971602500,8502,0x40,0x7C,Write,NAK
7.971932500,8504,0x41,0x76,Read,ACK
7.971987500,8504,0x41,0x76,Read,NAK
7.972242500,8506,0x49,0x8E,Read,ACK
7.972297500,8506,0x49,0x8E,Read,NAK
7.977427500,8508,0x49,0xC2,Read,ACK
7.977482500,8508,0x49,0xC2,Read,NAK
7.979112500,8510,0x40,0x80,Write,ACK
7.979167500,8510,0x40,0x80,Write,NAK
7.979497500,8512,0x41,0x97,Read,ACK
7.979552500,8512,0x41,0x97,Read,NAK
7.979807500,8514,0x49,0xB1,Read,ACK
7.979862500,8514,0x49,0xB1,Read,NAK
7.984992500,8516,0x49,0xDF,Read,ACK
7.985047500,8516,0x49,0xDF,Read,NAK
7.986677500,8518,0x40,0x84,Write,ACK
7.986732500,8518,0x40,0x84,Write,NAK
7.987062500,8520,0x41,0xA6,Read,ACK
7.987117500,8520,0x41,0xA6,Read,NAK
7.987372500,8522,0x49,0x93,Read,ACK
7.987427500,8522,0x49,0x93,Read,NAK
7.992557500,8524,0x49,0xB2,Read,ACK
7.992612500,8524,0x49,0xB2,Read,NAK
7.994242500,8526,0x40,0x88,Write,ACK
7.994297500,8526,0x40,0x88,Write,NAK
7.994627500,8528,0x41,0x68,Read,ACK
7.994682500,8528,0x41,0x68,Read,NAK
7.994937500,8530,0x49,0x8A,Read,ACK
7.994992500,8530,0x49,0x8A,Read,NAK
8.000122500,8532,0x49,0xE3,Read,ACK
8.000177500,8532,0x49,0xE3,Read,NAK
8.001807500,8534,0x40,0x8C,Write,ACK
8.001862500,8534,0x40,0x8C,Write,NAK
8.002192500,8536,0x41,0xAE,Read,ACK
8.002247500,8536,0x41,0xAE,Read,NAK
8.002502500,8538,0x49,0x84,Read,ACK
8.002557500,8538,0x49,0x84,Read,NAK
8.007687500,8540,0x49,0xC5,Read,ACK
8.007742500,8540,0x49,0xC5,Read,NAK
8.009372500,8542,0x40,0x90,Write,ACK
8.009427500,8542,0x40,0x90,Write,NAK
8.009757500,8544,0x41,0x7A,Read,ACK
8.009812500,8544,0x41,0x7A,Read,NAK
8.010067500,8546,0x49,0xBA,Read,ACK
8.010122500,8546,0x49,0xBA,Read,NAK
8.015252500,8548,0x49,0xE1,Read,ACK
8.015307500,8548,0x49,0xE1,Read,NAK
8.016937500,8550,0x40,0x94,Write,ACK
8.016992500,8550,0x40,0x94,Write,NAK
8.017322500,8552,0x41,0x98,Read,ACK
8.017377500,8552,0x41,0x98,Read,NAK
8.017632500,8554,0x49,0xC0,Read,ACK
8.017687500,8554,0x49,0xC0,Read,NAK
8.022817500,8556,0x49,0xBC,Read,ACK
8.022872500,8556,0x49,0xBC,Read,NAK
8.024502500,8558,0x40,0x98,Write,ACK
8.024557500,8558,0x40,0x98,Write,NAK
8.024887500,8560,0x41,0x66,Read,ACK
8.024942500,8560,0x41,0x66,Read,NAK
8.025197500,8562,0x49,0x9E,Read,ACK
8.025252500,8562,0x49,0x9E,Read,NAK
8.030382500,8564,0x49,0xBF,Read,ACK
8.030437500,8564,0x49,0xBF,Read,NAK
8.032067500,8566,0x40,0x9C,Write,ACK
8.032122500,8566,0x40,0x9C,Write,NAK
8.032452500,8568,0x41,0x92,Read,ACK
8.032507500,8568,0x41,0x92,Read,NAK
8.032762500,8570,0x49,0xF2,Read,ACK
8.032817500,8570,0x49,0xF2,Read,NAK
8.037947500,8572,0x49,0xE1,Read,ACK
8.038002500,8572,0x49,0xE1,Read,NAK
8.039632500,8574,0x40,0xA0,Write,ACK
8.039687500,8574,0x40,0xA0,Write,NAK
8.040017500,8576,0x41,0xA1,Read,ACK
8.040072500,8576,0x41,0xA1,Read,NAK
8.040327500,8578,0x49,0xC8,Read,ACK
8.040382500,8578,0x49,0xC8,Read,NAK
8.045512500,8580,0x49,0xCD,Read,ACK
8.045567500,8580,0x49,0xCD,Read,NAK
8.047197500,8582,0x40,0xA4,Write,ACK
8.047252500,8582,0x40,0xA4,Write,NAK
8.047582500,8584,0x41,0x8A,Read,ACK
8.047637500,8584,0x41,0x8A,Read,NAK
8.047892500,8586,0x49,0xE8,Read,ACK
8.047947500,8586,0x49,0xE8,Read,NAK
8.053077500,8588,0x49,0xFF,Read,ACK
8.053132500,8588,0x49,0xFF,Read,NAK
8.054762500,8590,0x40,0xA8,Write,ACK
8.054817500,8590,0x40,0xA8,Write,NAK
8.055147500,8592,0x41,0x9C,Read,ACK
8.055202500,8592,0x41,0x9C,Read,NAK
8.055457500,8594,0x49,0xE2,Read,ACK
8.055512500,8594,0x49,0xE2,Read,NAK
8.060642500,8596,0x49,0xC2,Read,ACK
8.060697500,8596,0x49,0xC2,Read,NAK
8.062327500,8598,0x40,0xAC,Write,ACK
8.062382500,8598,0x40,0xAC,Write,NAK
8.062712500,8600,0x41,0x8C,Read,ACK
8.062767500,8600,0x41,0x8C,Read,NAK
8.063022500,8602,0x49,0xE7,Read,ACK
8.063077500,8602,0x49,0xE7,Read,NAK
8.068207500,8604,0x49,0x08,Read,ACK
8.068262500,8604,0x49,0x08,Read,NAK
8.069892500,8606,0x40,0xB0,Write,ACK
8.069947500,8606,0x40,0xB0,Write,NAK
8.070277500,8608,0x41,0xC3,Read,ACK
8.070332500,8608,0x41,0xC3,Read,NAK
8.070587500,8610,0x49,0xB1,Read,ACK
8.070642500,8610,0x49,0xB1,Read,NAK
8.075772500,8612,0x49,0xC4,Read,ACK
8.075827500,8612,0x49,0xC4,Read,NAK
8.077457500,8614,0x40,0xB4,Write,ACK
8.077512500,8614,0x40,0xB4,Write,NAK
8.077842500,8616,0x41,0xBF,Read,ACK
8.077897500,8616,0x41,0xBF,Read,NAK
8.078152500,8618,0x49,0xD9,Read,ACK
8.078207500,8618,0x49,0xD9,Read,NAK
8.083337500,8620,0x49,0xDC,Read,ACK
8.083392500,8620,0x49,0xDC,Read,NAK
8.085022500,8622,0x40,0xB8,Write,ACK
8.085077500,8622,0x40,0xB8,Write,NAK
8.085407500,8624,0x41,0xC1,Read,ACK
8.085462500,8624,0x41,0xC1,Read,NAK
8.085717500,8626,0x49,0xF0,Read,ACK
8.085772500,8626,0x49,0xF0,Read,NAK
8.090902500,8628,0x49,0x08,Read,ACK
8.090957500,8628,0x49,0x08,Read,NAK
8.092532500,,0x24,,Write,NAK
8.092862500,8632,0x40,0xBC,Write,ACK
8.092917500,8632,0x40,0xBC,Write,NAK
8.093247500,8634,0x41,0x94,Read,ACK
8.093302500,8634,0x41,0x94,Read,NAK
8.093557500,8636,0x49,0xD5,Read,ACK
8.093612500,8636,0x49,0xD5,Read,NAK
8.098742500,8638,0x49,0xE4,Read,ACK
8.098797500,8638,0x49,0xE4,Read,NAK
8.100427500,8640,0x40,0xC0,Write,ACK
8.100482500,8640,0x40,0xC0,Write,NAK
8.100812500,8642,0x41,0xB0,Read,ACK
8.100867500,8642,0x41,0xB0,Read,NAK
8.101122500,8644,0x49,0xCE,Read,ACK
8.101177500,8644,0x49,0xCE,Read,NAK
8.106307500,8646,0x49,0xD8,Read,ACK
8.106362500,8646,0x49,0xD8,Read,NAK
8.107992500,8648,0x40,0xC4,Write,ACK
8.108047500,8648,0x40,0xC4,Write,NAK
8.108377500,8650,0x41,0xC4,Read,ACK
8.108432500,8650,0x41,0xC4,Read,NAK
8.108687500,8652,0x49,0xBB,Read,ACK
8.108742500,8652,0x49,0xBB,Read,NAK
8.113872500,8654,0x49,0x0F,Read,ACK
8.113927500,8654,0x49,0x0F,Read,NAK
8.115557500,8656,0x40,0xC8,Write,ACK
8.115612500,8656,0x40,0xC8,Write,NAK
8.115942500,8658,0x41,0xA7,Read,ACK
8.115997500,8658,0x41,0xA7,Read,NAK
8.116252500,8660,0x49,0xE5,Read,ACK
8.116307500,8660,0x49,0xE5,Read,NAK
8.121437500,8662,0x49,0x1D,Read,ACK
8.121492500,8662,0x49,0x1D,Read,NAK
8.123122500,8664,0x40,0xCC,Write,ACK
8.123177500,8664,0x40,0xCC,Write,NAK
8.123507500,8666,0x41,0x9F,Read,ACK
8.123562500,8666,0x41,0x9F,Read,NAK
8.123817500,8668,0x49,0xD1,Read,ACK
8.123872500,8668,0x49,0xD1,Read,NAK
8.129002500,8670,0x49,0xD6,Read,ACK
8.129057500,8670,0x49,0xD6,Read,NAK
8.130687500,8672,0x40,0xD0,Write,ACK
8.130742500,8672,0x40,0xD0,Write,NAK
8.131072500,8674,0x41,0xB4,Read,ACK
8.131127500,8674,0x41,0xB4,Read,NAK
8.131382500,8676,0x49,0xD6,Read,ACK
8.131437500,8676,0x49,0xD6,Read,NAK
8.136567500,8678,0x49,0xE9,Read,ACK
8.136622500,8678,0x49,0xE9,Read,NAK
8.138252500,8680,0x40,0xD4,Write,ACK
8.138307500,8680,0x40,0xD4,Write,NAK
8.138637500,8682,0x41,0xAD,Read,ACK
8.138692500,8682,0x41,0xAD,Read,NAK
8.138947500,8684,0x49,0xCD,Read,ACK
8.139002500,8684,0x49,0xCD,Read,NAK
8.144132500,8686,0x49,0x1B,Read,ACK
8.144187500,8686,0x49,0x1B,Read,NAK
8.145817500,8688,0x40,0xD8,Write,ACK
8.145872500,8688,0x40,0xD8,Write,NAK
8.146202500,8690,0x41,0xB7,Read,ACK
8.146257500,8690,0x41,0xB7,Read,NAK
8.146512500,8692,0x49,0xF4,Read,ACK
8.146567500,8692,0x49,0xF4,Read,NAK
8.151697500,8694,0x49,0x3A,Read,ACK
8.151752500,8694,0x49,0x3A,Read,NAK
8.153382500,8696,0x40,0xDC,Write,ACK
8.153437500,8696,0x40,0xDC,Write,NAK
8.153767500,8698,0x41,0xBF,Read,ACK
8.153822500,8698,0x41,0xBF,Read,NAK
8.154077500,8700,0x49,0x1E,Read,ACK
8.154132500,8700,0x49,0x1E,Read,NAK
8.159262500,8702,0x49,0xEC,Read,ACK
8.159317500,8702,0x49,0xEC,Read,NAK
8.160947500,8704,0x40,0xE0,Write,ACK
8.161002500,8704,0x40,0xE0,Write,NAK
8.161332500,8706,0x41,0xAA,Read,ACK
8.161387500,8706,0x41,0xAA,Read,NAK
8.161642500,8708,0x49,0xF0,Read,ACK
8.161697500,8708,0x49,0xF0,Read,NAK
8.166827500,8710,0x49,0x38,Read,ACK
8.166882500,8710,0x49,0x38,Read,NAK
8.168512500,8712,0x40,0xE4,Write,ACK
8.168567500,8712,0x40,0xE4,Write,NAK
8.168897500,8714,0x41,0xFE,Read,ACK
8.168952500,8714,0x41,0xFE,Read,NAK
8.169207500,8716,0x49,0xDB,Read,ACK
8.169262500,8716,0x49,0xDB,Read,NAK
8.174392500,8718,0x49,0xED,Read,ACK
8.174447500,8718,0x49,0xED,Read,NAK
8.176077500,8720,0x40,0xE8,Write,ACK
8.176132500,8720,0x40,0xE8,Write,NAK
8.176462500,8722,0x41,0x0F,Read,ACK
8.176517500,8722,0x41,0x0F,Read,NAK
8.176772500,8724,0x49,0x2F,Read,ACK
8.176827500,8724,0x49,0x2F,Read,NAK
8.181957500,8726,0x49,0x20,Read,ACK
8.182012500,8726,0x49,0x20,Read,NAK
8.183642500,8728,0x40,0xEC,Write,ACK
8.183697500,8728,0x40,0xEC,Write,NAK
8.184027500,8730,0x41,0x16,Read,ACK
8.184082500,8730,0x41,0x16,Read,NAK
8.184337500,8732,0x49,0xE6,Read,ACK
8.184392500,8732,0x49,0xE6,Read,NAK
8.189522500,8734,0x49,0x4B,Read,ACK
8.189577500,8734,0x49,0x4B,Read,NAK
8.191207500,8736,0x40,0xF0,Write,ACK
8.191262500,8736,0x40,0xF0,Write,NAK
8.191592500,8738,0x41,0x03,Read,ACK
8.191647500,8738,0x41,0x03,Read,NAK
8.191902500,8740,0x49,0xEC,Read,ACK
8.191957500,8740,0x49,0xEC,Read,NAK
8.197087500,8742,0x49,0x3D,Read,ACK
8.197142500,8742,0x49,0x3D,Read,NAK
8.198772500,8744,0x40,0xF4,Write,ACK
8.198827500,8744,0x40,0xF4,Write,NAK
8.199157500,8746,0x41,0xFC,Read,ACK
8.199212500,8746,0x41,0xFC,Read,NAK
8.199467500,8748,0x49,0x0D,Read,ACK
8.199522500,8748,0x49,0x0D,Read,NAK
8.204652500,8750,0x49,0x0E,Read,ACK
8.204707500,8750,0x49,0x0E,Read,NAK
8.206337500,8752,0x40,0xF8,Write,ACK
8.206392500,8752,0x40,0xF8,Write,NAK
8.206722500,8754,0x41,0xDB,Read,ACK
8.206777500,8754,0x41,0xDB,Read,NAK
8.207032500,8756,0x49,0x2C,Read,ACK
8.207087500,8756,0x49,0x2C,Read,NAK
8.212217500,8758,0x49,0x46,Read,ACK
8.212272500,8758,0x49,0x46,Read,NAK
8.213902500,8760,0x40,0xFC,Write,ACK
8.213957500,8760,0x40,0xFC,Write,NAK
8.214287500,8762,0x41,0xED,Read,ACK
8.214342500,8762,0x41,0xED,Read,NAK
8.214597500,8764,0x49,0x42,Read,ACK
8.214652500,8764,0x49,0x42,Read,NAK
8.219782500,8766,0x49,0x15,Read,ACK
8.219837500,8766,0x49,0x15,Read,NAK
8.221467500,8768,0x40,0x00,Write,ACK
8.221522500,8768,0x40,0x00,Write,NAK
8.221852500,8770,0x41,0x04,Read,ACK
8.221907500,8770,0x41,0x04,Read,NAK
8.222162500,8772,0x49,0x59,Read,ACK
8.222217500,8772,0x49,0x59,Read,NAK
8.227347500,8774,0x49,0x69,Read,ACK
8.227402500,8774,0x49,0x69,Read,NAK
8.229032500,8776,0x40,0x04,Write,ACK
8.229087500,8776,0x40,0x04,Write,NAK
8.229417500,8778,0x41,0x03,Read,ACK
8.229472500,8778,0x41,0x03,Read,NAK
8.229727500,8780,0x49,0xFA,Read,ACK
8.229782500,8780,0x49,0xFA,Read,NAK
8.234912500,8782,0x49,0x37,Read,ACK
8.234967500,8782,0x49,0x37,Read,NAK
8.236597500,8784,0x40,0x08,Write,ACK
8.236652500,8784,0x40,0x08,Write,NAK
8.236982500,8786,0x41,0x23,Read,ACK
8.237037500,8786,0x41,0x23,Read,NAK
8.237292500,8788,0x49,0x2B,Read,ACK
8.237347500,8788,0x49,0x2B,Read,NAK
8.242477500,8790,0x49,0x0F,Read,ACK
8.242532500,8790,0x49,0x0F,Read,NAK
8.244162500,8792,0x40,0x0C,Write,ACK
8.244217500,8792,0x40,0x0C,Write,NAK
8.244547500,8794,0x41,0x08,Read,ACK
8.244602500,8794,0x41,0x08,Read,NAK
8.244857500,8796,0x49,0x2A,Read,ACK
8.244912500,8796,0x49,0x2A,Read,NAK
8.250042500,8798,0x49,0x18,Read,ACK
8.250097500,8798,0x49,0x18,Read,NAK
8.251727500,8800,0x40,0x10,Write,ACK
8.251782500,8800,0x40,0x10,Write,NAK
8.252112500,8802,0x41,0x3D,Read,ACK
8.252167500,8802,0x41,0x3D,Read,NAK
8.252422500,8804,0x49,0x51,Read,ACK
8.252477500,8804,0x49,0x51,Read,NAK
8.257607500,8806,0x49,0x22,Read,ACK
8.257662500,8806,0x49,0x22,Read,NAK
8.259292500,8808,0x40,0x14,Write,ACK
8.259347500,8808,0x40,0x14,Write,NAK
8.259677500,8810,0x41,0x1C,Read,ACK
8.259732500,8810,0x41,0x1C,Read,NAK
8.259987500,8812,0x49,0x5D,Read,ACK
8.260042500,8812,0x49,0x5D,Read,NAK
8.265172500,8814,0x49,0x7B,Read,ACK
8.265227500,8814,0x49,0x7B,Read,NAK
8.266857500,8816,0x40,0x18,Write,ACK
8.266912500,8816,0x40,0x18,Write,NAK
8.267242500,8818,0x41,0x43,Read,ACK
8.267297500,8818,0x41,0x43,Read,NAK
8.267552500,8820,0x49,0x51,Read,ACK
8.267607500,8820,0x49,0x51,Read,NAK
8.272737500,8822,0x49,0x79,Read,ACK
8.272792500,8822,0x49,0x79,Read,NAK
8.274422500,8824,0x40,0x1C,Write,ACK
8.274477500,8824,0x40,0x1C,Write,NAK
8.274807500,8826,0x41,0x49,Read,ACK
8.274862500,8826,0x41,0x49,Read,NAK
8.275117500,8828,0x49,0x1A,Read,ACK
8.275172500,8828,0x49,0x1A,Read,NAK
8.280302500,8830,0x49,0x73,Read,ACK
8.280357500,8830,0x49,0x73,Read,NAK
8.281987500,8832,0x40,0x20,Write,ACK
8.282042500,8832,0x40,0x20,Write,NAK
8.282372500,8834,0x41,0x25,Read,ACK
8.282427500,8834,0x41,0x25,Read,NAK
8.282682500,8836,0x49,0x64,Read,ACK
8.282737500,8836,0x49,0x64,Read,NAK
8.287867500,8838,0x49,0x27,Read,ACK
8.287922500,8838,0x49,0x27,Read,NAK
8.289552500,8840,0x40,0x24,Write,ACK
8.289607500,8840,0x40,0x24,Write,NAK
8.289937500,8842,0x41,0x0C,Read,ACK
8.289992500,8842,0x41,0x0C,Read,NAK
8.290247500,8844,0x49,0x7A,Read,ACK
8.290302500,8844,0x49,0x7A,Read,NAK
8.295432500,8846,0x49,0x69,Read,ACK
8.295487500,8846,0x49,0x69,Read,NAK
8.297117500,8848,0x40,0x28,Write,ACK
8.297172500,8848,0x40,0x28,Write,NAK
8.297502500,8850,0x41,0x1C,Read,ACK
8.297557500,8850,0x41,0x1C,Read,NAK
8.297812500,8852,0x49,0x2C,Read,ACK
8.297867500,8852,0x49,0x2C,Read,NAK
8.302997500,8854,0x49,0x8D,Read,ACK
8.303052500,8854,0x49,0x8D,Read,NAK
8.304682500,8856,0x40,0x2C,Write,ACK
8.304737500,8856,0x40,0x2C,Write,NAK
8.305067500,8858,0x41,0x2D,Read,ACK
8.305122500,8858,0x41,0x2D,Read,NAK
8.305377500,8860,0x49,0x85,Read,ACK
8.305432500,8860,0x49,0x85,Read,NAK
8.310562500,8862,0x49,0x76,Read,ACK
8.310617500,8862,0x49,0x76,Read,NAK
8.312247500,8864,0x40,0x30,Write,ACK
8.312302500,8864,0x40,0x30,Write,NAK
8.312632500,8866,0x41,0x14,Read,ACK
8.312687500,8866,0x41,0x14,Read,NAK
8.312942500,8868,0x49,0x74,Read,ACK
8.312997500,8868,0x49,0x74,Read,NAK
8.318127500,8870,0x49,0x46,Read,ACK
8.318182500,8870,0x49,0x46,Read,NAK
8.319812500,8872,0x40,0x34,Write,ACK
8.319867500,8872,0x40,0x34,Write,NAK
8.320197500,8874,0x41,0x0B,Read,ACK
8.320252500,8874,0x41,0x0B,Read,NAK
8.320507500,8876,0x49,0x69,Read,ACK
8.320562500,8876,0x49,0x69,Read,NAK
8.325692500,8878,0x49,0x57,Read,ACK
8.325747500,8878,0x49,0x57,Read,NAK
8.327377500,8880,0x40,0x38,Write,ACK
8.327432500,8880,0x40,0x38,Write,NAK
8.327762500,8882,0x41,0x21,Read,ACK
8.327817500,8882,0x41,0x21,Read,NAK
8.328072500,8884,0x49,0x74,Read,ACK
8.328127500,8884,0x49,0x74,Read,NAK
8.333257500,8886,0x49,0xA2,Read,ACK
8.333312500,8886,0x49,0xA2,Read,NAK
8.334942500,8888,0x40,0x3C,Write,ACK
8.334997500,8888,0x40,0x3C,Write,NAK
8.335327500,8890,0x41,0x24,Read,ACK
8.335382500,8890,0x41,0x24,Read,NAK
8.335637500,8892,0x49,0x51,Read,ACK
8.335692500,8892,0x49,0x51,Read,NAK
8.340822500,8894,0x49,0x9F,Read,ACK
8.340877500,8894,0x49,0x9F,Read,NAK
8.342507500,8896,0x40,0x40,Write,ACK
8.342562500,8896,0x40,0x40,Write,NAK
8.342892500,8898,0x41,0x13,Read,ACK
8.342947500,8898,0x41,0x13,Read,NAK
8.343202500,8900,0x49,0x63,Read,ACK
8.343257500,8900,0x49,0x63,Read,NAK
8.348387500,8902,0x49,0x4D,Read,ACK
8.348442500,8902,0x49,0x4D,Read,NAK
8.350072500,8904,0x40,0x44,Write,ACK
8.350127500,8904,0x40,0x44,Write,NAK
8.350457500,8906,0x41,0x37,Read,ACK
8.350512500,8906,0x41,0x37,Read,NAK
8.350767500,8908,0x49,0x4F,Read,ACK
8.350822500,8908,0x49,0x4F,Read,NAK
8.355952500,8910,0x49,0x83,Read,ACK
8.356007500,8910,0x49,0x83,Read,NAK
8.357637500,8912,0x40,0x48,Write,ACK
8.357692500,8912,0x40,0x48,Write,NAK
8.358022500,8914,0x41,0x35,Read,ACK
8.358077500,8914,0x41,0x35,Read,NAK
8.358332500,8916,0x49,0x70,Read,ACK
8.358387500,8916,0x49,0x70,Read,NAK
8.363517500,8918,0x49,0x6A,Read,ACK
8.363572500,8918,0x49,0x6A,Read,NAK
8.365202500,8920,0x40,0x4C,Write,ACK
8.365257500,8920,0x40,0x4C,Write,NAK
8.365587500,8922,0x41,0x17,Read,ACK
8.365642500,8922,0x41,0x17,Read,NAK
8.365897500,8924,0x49,0xA0,Read,ACK
8.365952500,8924,0x49,0xA0,Read,NAK
8.371082500,8926,0x49,0xB3,Read,ACK
8.371137500,8926,0x49,0xB3,Read,NAK
8.372767500,8928,0x40,0x50,Write,ACK
8.372822500,8928,0x40,0x50,Write,NAK
8.373152500,8930,0x41,0x33,Read,ACK
8.373207500,8930,0x41,0x33,Read,NAK
8.373462500,8932,0x49,0x85,Read,ACK
8.373517500,8932,0x49,0x85,Read,NAK
8.378647500,8934,0x49,0x9B,Read,ACK
8.378702500,8934,0x49,0x9B,Read,NAK
8.380332500,8936,0x40,0x54,Write,ACK
8.380387500,8936,0x40,0x54,Write,NAK
8.380717500,8938,0x41,0x39,Read,ACK
8.380772500,8938,0x41,0x39,Read,NAK
8.381027500,8940,0x49,0x7B,Read,ACK
8.381082500,8940,0x49,0x7B,Read,NAK
8.386212500,8942,0x49,0x5C,Read,ACK
8.386267500,8942,0x49,0x5C,Read,NAK
8.387897500,8944,0x40,0x58,Write,ACK
8.387952500,8944,0x40,0x58,Write,NAK
8.388282500,8946,0x41,0x69,Read,ACK
8.388337500,8946,0x41,0x69,Read,NAK
8.388592500,8948,0x49,0x4F,Read,ACK
8.388647500,8948,0x49,0x4F,Read,NAK
8.393777500,8950,0x49,0x8B,Read,ACK
8.393832500,8950,0x49,0x8B,Read,NAK
8.395462500,8952,0x40,0x5C,Write,ACK
8.395517500,8952,0x40,0x5C,Write,NAK
8.395847500,8954,0x41,0x46,Read,ACK
8.395902500,8954,0x41,0x46,Read,NAK
8.396157500,8956,0x49,0x77,Read,ACK
8.396212500,8956,0x49,0x77,Read,NAK
8.401342500,8958,0x49,0x8F,Read,ACK
8.401397500,8958,0x49,0x8F,Read,NAK
8.403027500,8960,0x40,0x60,Write,ACK
8.403082500,8960,0x40,0x60,Write,NAK
8.403412500,8962,0x41,0x4C,Read,ACK
8.403467500,8962,0x41,0x4C,Read,NAK
8.403722500,8964,0x49,0x58,Read,ACK
8.403777500,8964,0x49,0x58,Read,NAK
8.408907500,8966,0x49,0x8D,Read,ACK
8.408962500,8966,0x49,0x8D,Read,NAK
8.410592500,8968,0x40,0x64,Write,ACK
8.410647500,8968,0x40,0x64,Write,NAK
8.410977500,8970,0x41,0x45,Read,ACK
8.411032500,8970,0x41,0x45,Read,NAK
8.411287500,8972,0x49,0xB8,Read,ACK
8.411342500,8972,0x49,0xB8,Read,NAK
8.416472500,8974,0x49,0xAA,Read,ACK
8.416527500,8974,0x49,0xAA,Read,NAK
8.418157500,8976,0x40,0x68,Write,ACK
8.418212500,8976,0x40,0x68,Write,NAK
8.418542500,8978,0x41,0x5E,Read,ACK
8.418597500,8978,0x41,0x5E,Read,NAK
8.418852500,8980,0x49,0xB8,Read,ACK
8.418907500,8980,0x49,0xB8,Read,NAK
8.424037500,8982,0x49,0xA4,Read,ACK
8.424092500,8982,0x49,0xA4,Read,NAK
8.425722500,8984,0x40,0x6C,Write,ACK
8.425777500,8984,0x40,0x6C,Write,NAK
8.426107500,8986,0x41,0x5B,Read,ACK
8.426162500,8986,0x41,0x5B,Read,NAK
8.426417500,8988,0x49,0x64,Read,ACK
8.426472500,8988,0x49,0x64,Read,NAK
8.431602500,8990,0x49,0x8B,Read,ACK
8.431657500,8990,0x49,0x8B,Read,NAK
8.433287500,8992,0x40,0x70,Write,ACK
8.433342500,8992,0x40,0x70,Write,NAK
8.433672500,8994,0x41,0x7B,Read,ACK
8.433727500,8994,0x41,0x7B,Read,NAK
8.433982500,8996,0x49,0xC3,Read,ACK
8.434037500,8996,0x49,0xC3,Read,NAK
8.439167500,8998,0x49,0x7B,Read,ACK
8.439222500,8998,0x49,0x7B,Read,NAK
8.440852500,9000,0x40,0x74,Write,ACK
8.440907500,9000,0x40,0x74,Write,NAK
8.441237500,9002,0x41,0x9C,Read,ACK
8.441292500,9002,0x41,0x9C,Read,NAK
8.441547500,9004,0x49,0x70,Read,ACK
8.441602500,9004,0x49,0x70,Read,NAK
8.446732500,9006,0x49,0xB1,Read,ACK
8.446787500,9006,0x49,0xB1,Read,NAK
8.448417500,9008,0x40,0x78,Write,ACK
8.448472500,9008,0x40,0x78,Write,NAK
8.448802500,9010,0x41,0x7D,Read,ACK
8.448857500,9010,0x41,0x7D,Read,NAK
8.449112500,9012,0x49,0xD1,Read,ACK
8.449167500,9012,0x49,0xD1,Read,NAK
8.454297500,9014,0x49,0xC2,Read,ACK
8.454352500,9014,0x49,0xC2,Read,NAK
8.455982500,9016,0x40,0x7C,Write,ACK
8.456037500,9016,0x40,0x7C,Write,NAK
8.456367500,9018,0x41,0x9E,Read,ACK
8.456422500,9018,0x41,0x9E,Read,NAK
8.456677500,9020,0x49,0xB1,Read,ACK
8.456732500,9020,0x49,0xB1,Read,NAK
8.461862500,9022,0x49,0xDC,Read,ACK
8.461917500,9022,0x49,0xDC,Read,NAK
8.463547500,9024,0x40,0x80,Write,ACK
8.463602500,9024,0x40,0x80,Write,NAK
8.463932500,9026,0x41,0x8C,Read,ACK
8.463987500,9026,0x41,0x8C,Read,NAK
8.464242500,9028,0x49,0x91,Read,ACK
8.464297500,9028,0x49,0x91,Read,NAK
8.469427500,9030,0x49,0xB8,Read,ACK
8.469482500,9030,0x49,0xB8,Read,NAK
8.471112500,9032,0x40,0x84,Write,ACK
8.471167500,9032,0x40,0x84,Write,NAK
8.471497500,9034,0x41,0x63,Read,ACK
8.471552500,9034,0x41,0x63,Read,NAK
8.471807500,9036,0x49,0x86,Read,ACK
8.471862500,9036,0x49,0x86,Read,NAK
8.476992500,9038,0x49,0x8F,Read,ACK
8.477047500,9038,0x49,0x8F,Read,NAK
8.478677500,9040,0x40,0x88,Write,ACK
8.478732500,9040,0x40,0x88,Write,NAK
8.479062500,9042,0x41,0x89,Read,ACK
8.479117500,9042,0x41,0x89,Read,NAK
8.479372500,9044,0x49,0xB8,Read,ACK
8.479427500,9044,0x49,0xB8,Read,NAK
8.484557500,9046,0x49,0xCD,Read,ACK
8.484612500,9046,0x49,0xCD,Read,NAK
8.486242500,9048,0x40,0x8C,Write,ACK
8.486297500,9048,0x40,0x8C,Write,NAK
8.486627500,9050,0x41,0x92,Read,ACK
8.486682500,9050,0x41,0x92,Read,NAK
8.486937500,9052,0x49,0xD9,Read,ACK
8.486992500,9052,0x49,0xD9,Read,NAK
8.492122500,9054,0x49,0xCD,Read,ACK
8.492177500,9054,0x49,0xCD,Read,NAK
8.493807500,9056,0x40,0x90,Write,ACK
8.493862500,9056,0x40,0x90,Write,NAK
8.494192500,9058,0x41,0xAA,Read,ACK
8.494247500,9058,0x41,0xAA,Read,NAK
8.494502500,9060,0x49,0xC4,Read,ACK
8.494557500,9060,0x49,0xC4,Read,NAK
8.499687500,9062,0x49,0xAD,Read,ACK
8.499742500,9062,0x49,0xAD,Read,NAK
8.501372500,9064,0x40,0x94,Write,ACK
8.501427500,9064,0x40,0x94,Write,NAK
8.501757500,9066,0x41,0x72,Read,ACK
8.501812500,9066,0x41,0x72,Read,NAK
8.502067500,9068,0x49,0xD6,Read,ACK
8.502122500,9068,0x49,0xD6,Read,NAK
8.507252500,9070,0x49,0xF6,Read,ACK
8.507307500,9070,0x49,0xF6,Read,NAK
8.508937500,9072,0x40,0x98,Write,ACK
8.508992500,9072,0x40,0x98,Write,NAK
8.509322500,9074,0x41,0xAD,Read,ACK
8.509377500,9074,0x41,0xAD,Read,NAK
8.509632500,9076,0x49,0x99,Read,ACK
8.509687500,9076,0x49,0x99,Read,NAK
8.514817500,9078,0x49,0xEA,Read,ACK
8.514872500,9078,0x49,0xEA,Read,NAK
8.516502500,9080,0x40,0x9C,Write,ACK
8.516557500,9080,0x40,0x9C,Write,NAK
8.516887500,9082,0x41,0xB0,Read,ACK
8.516942500,9082,0x41,0xB0,Read,NAK
8.517197500,9084,0x49,0xA2,Read,ACK
8.517252500,9084,0x49,0xA2,Read,NAK
8.522382500,9086,0x49,0xC8,Read,ACK
8.522437500,9086,0x49,0xC8,Read,NAK
8.524067500,9088,0x40,0xA0,Write,ACK
8.524122500,9088,0x40,0xA0,Write,NAK
8.524452500,9090,0x41,0x96,Read,ACK
8.524507500,9090,0x41,0x96,Read,NAK
8.524762500,9092,0x49,0xBD,Read,ACK
8.524817500,9092,0x49,0xBD,Read,NAK
8.529947500,9094,0x49,0xFD,Read,ACK
8.530002500,9094,0x49,0xFD,Read,NAK
8.531632500,9096,0x40,0xA4,Write,ACK
8.531687500,9096,0x40,0xA4,Write,NAK
8.532017500,9098,0x41,0x71,Read,ACK
8.532072500,9098,0x41,0x71,Read,NAK
8.532327500,9100,0x49,0xF4,Read,ACK
8.532382500,9100,0x49,0xF4,Read,NAK
8.537512500,9102,0x49,0xCE,Read,ACK
8.537567500,9102,0x49,0xCE,Read,NAK
8.539197500,9104,0x40,0xA8,Write,ACK
8.539252500,9104,0x40,0xA8,Write,NAK
8.539582500,9106,0x41,0x72,Read,ACK
8.539637500,9106,0x41,0x72,Read,NAK
8.539892500,9108,0x49,0xFF,Read,ACK
8.539947500,9108,0x49,0xFF,Read,NAK
8.545077500,9110,0x49,0xE5,Read,ACK
8.545132500,9110,0x49,0xE5,Read,NAK
8.546762500,9112,0x40,0xAC,Write,ACK
8.546817500,9112,0x40,0xAC,Write,NAK
8.547147500,9114,0x41,0xCA,Read,ACK
8.547202500,9114,0x41,0xCA,Read,NAK
8.547457500,9116,0x49,0xAE,Read,ACK
8.547512500,9116,0x49,0xAE,Read,NAK
8.552642500,9118,0x49,0x0D,Read,ACK
8.552697500,9118,0x49,0x0D,Read,NAK
8.554327500,9120,0x40,0xB0,Write,ACK
8.554382500,9120,0x40,0xB0,Write,NAK
8.554712500,9122,0x41,0x95,Read,ACK
8.554767500,9122,0x41,0x95,Read,NAK
8.555022500,9124,0x49,0xB2,Read,ACK
8.555077500,9124,0x49,0xB2,Read,NAK
8.560207500,9126,0x49,0xE1,Read,ACK
8.560262500,9126,0x49,0xE1,Read,NAK
8.561892500,9128,0x40,0xB4,Write,ACK
8.561947500,9128,0x40,0xB4,Write,NAK
8.562277500,9130,0x41,0xA6,Read,ACK
8.562332500,9130,0x41,0xA6,Read,NAK
8.562587500,9132,0x49,0x00,Read,ACK
8.562642500,9132,0x49,0x00,Read,NAK
8.567772500,9134,0x49,0x0A,Read,ACK
8.567827500,9134,0x49,0x0A,Read,NAK
8.569457500,9136,0x40,0xB8,Write,ACK
8.569512500,9136,0x40,0xB8,Write,NAK
8.569842500,9138,0x41,0xE3,Read,ACK
8.569897500,9138,0x41,0xE3,Read,NAK
8.570152500,9140,0x49,0xB4,Read,ACK
8.570207500,9140,0x49,0xB4,Read,NAK
8.575337500,9142,0x49,0x12,Read,ACK
8.575392500,9142,0x49,0x12,Read,NAK
8.577022500,9144,0x40,0xBC,Write,ACK
8.577077500,9144,0x40,0xBC,Write,NAK
8.577407500,9146,0x41,0x9C,Read,ACK
8.577462500,9146,0x41,0x9C,Read,NAK
8.577717500,9148,0x49,0xFB,Read,ACK
8.577772500,9148,0x49,0xFB,Read,NAK
8.582902500,9150,0x49,0x07,Read,ACK
8.582957500,9150,0x49,0x07,Read,NAK
8.584587500,9152,0x40,0xC0,Write,ACK
8.584642500,9152,0x40,0xC0,Write,NAK
8.584972500,9154,0x41,0x96,Read,ACK
8.585027500,9154,0x41,0x96,Read,NAK
8.585282500,9156,0x49,0xEC,Read,ACK
8.585337500,9156,0x49,0xEC,Read,NAK
8.590467500,9158,0x49,0xEB,Read,ACK
8.590522500,9158,0x49,0xEB,Read,NAK
8.592152500,9160,0x40,0xC4,Write,ACK
8.592207500,9160,0x40,0xC4,Write,NAK
8.592537500,9162,0x41,0xEE,Read,ACK
8.592592500,9162,0x41,0xEE,Read,NAK
8.592847500,9164,0x49,0xD1,Read,ACK
8.592902500,9164,0x49,0xD1,Read,NAK
8.598032500,9166,0x49,0x19,Read,ACK
8.598087500,9166,0x49,0x19,Read,NAK
8.599717500,9168,0x40,0xC8,Write,ACK
8.599772500,9168,0x40,0xC8,Write,NAK
8.600102500,9170,0x41,0xA6,Read,ACK
8.600157500,9170,0x41,0xA6,Read,NAK
8.600412500,9172,0x49,0xDE,Read,ACK
8.600467500,9172,0x49,0xDE,Read,NAK
8.605597500,9174,0x49,0x0C,Read,ACK
8.605652500,9174,0x49,0x0C,Read,NAK
8.607282500,9176,0x40,0xCC,Write,ACK
8.607337500,9176,0x40,0xCC,Write,NAK
8.607667500,9178,0x41,0xC3,Read,ACK
8.607722500,9178,0x41,0xC3,Read,NAK
8.607977500,9180,0x49,0xF5,Read,ACK
8.608032500,9180,0x49,0xF5,Read,NAK
8.613162500,9182,0x49,0x1C,Read,ACK
8.613217500,9182,0x49,0x1C,Read,NAK
8.614847500,9184,0x40,0xD0,Write,ACK
8.614902500,9184,0x40,0xD0,Write,NAK
8.615232500,9186,0x41,0xA9,Read,ACK
8.615287500,9186,0x41,0xA9,Read,NAK
8.615542500,9188,0x49,0xD6,Read,ACK
8.615597500,9188,0x49,0xD6,Read,NAK
8.620727500,9190,0x49,0x1E,Read,ACK
8.620782500,9190,0x49,0x1E,Read,NAK
8.622412500,9192,0x40,0xD4,Write,ACK
8.622467500,9192,0x40,0xD4,Write,NAK
8.622797500,9194,0x41,0xD4,Read,ACK
8.622852500,9194,0x41,0xD4,Read,NAK
8.623107500,9196,0x49,0xCC,Read,ACK
8.623162500,9196,0x49,0xCC,Read,NAK
8.628292500,9198,0x49,0x27,Read,ACK
8.628347500,9198,0x49,0x27,Read,NAK
8.629977500,9200,0x40,0xD8,Write,ACK
8.630032500,9200,0x40,0xD8,Write,NAK
8.630362500,9202,0x41,0xDE,Read,ACK
8.630417500,9202,0x41,0xDE,Read,NAK
8.630672500,9204,0x49,0x09,Read,ACK
8.630727500,9204,0x49,0x09,Read,NAK
8.635857500,9206,0x49,0xF9,Read,ACK
8.635912500,9206,0x49,0xF9,Read,NAK
8.637542500,9208,0x40,0xDC,Write,ACK
8.637597500,9208,0x40,0xDC,Write,NAK
8.637927500,9210,0x41,0xFA,Read,ACK
8.637982500,9210,0x41,0xFA,Read,NAK
8.638237500,9212,0x49,0x30,Read,ACK
8.638292500,9212,0x49,0x30,Read,NAK
8.643422500,9214,0x49,0x18,Read,ACK
8.643477500,9214,0x49,0x18,Read,NAK
8.645107500,9216,0x40,0xE0,Write,ACK
8.645162500,9216,0x40,0xE0,Write,NAK
8.645492500,9218,0x41,0xAA,Read,ACK
8.645547500,9218,0x41,0xAA,Read,NAK
8.645802500,9220,0x49,0xFF,Read,ACK
8.645857500,9220,0x49,0xFF,Read,NAK
8.650987500,9222,0x49,0xF7,Read,ACK
8.651042500,9222,0x49,0xF7,Read,NAK
8.652672500,9224,0x40,0xE4,Write,ACK
8.652727500,9224,0x40,0xE4,Write,NAK
8.653057500,9226,0x41,0xEE,Read,ACK
8.653112500,9226,0x41,0xEE,Read,NAK
8.653367500,9228,0x49,0x38,Read,ACK
8.653422500,9228,0x49,0x38,Read,NAK
8.658552500,9230,0x49,0x19,Read,ACK
8.658607500,9230,0x49,0x19,Read,NAK
8.660237500,9232,0x40,0xE8,Write,ACK
8.660292500,9232,0x40,0xE8,Write,NAK
8.660622500,9234,0x41,0xCC,Read,ACK
8.660677500,9234,0x41,0xCC,Read,NAK
8.660932500,9236,0x49,0xE5,Read,ACK
8.660987500,9236,0x49,0xE5,Read,NAK
8.666117500,9238,0x49,0x19,Read,ACK
8.666172500,9238,0x49,0x19,Read,NAK
8.667802500,9240,0x40,0xEC,Write,ACK
8.667857500,9240,0x40,0xEC,Write,NAK
8.668187500,9242,0x41,0xC1,Read,ACK
8.668242500,9242,0x41,0xC1,Read,NAK
8.668497500,9244,0x49,0xF1,Read,ACK
8.668552500,9244,0x49,0xF1,Read,NAK
8.673682500,9246,0x49,0x22,Read,ACK
8.673737500,9246,0x49,0x22,Read,NAK
8.675367500,9248,0x40,0xF0,Write,ACK
8.675422500,9248,0x40,0xF0,Write,NAK
8.675752500,9250,0x41,0x0D,Read,ACK
8.675807500,9250,0x41,0x0D,Read,NAK
8.676062500,9252,0x49,0x2D,Read,ACK
8.676117500,9252,0x49,0x2D,Read,NAK
8.681247500,9254,0x49,0x19,Read,ACK
8.681302500,9254,0x49,0x19,Read,NAK
8.682932500,9256,0x40,0xF4,Write,ACK
8.682987500,9256,0x40,0xF4,Write,NAK
8.683317500,9258,0x41,0xD7,Read,ACK
8.683372500,9258,0x41,0xD7,Read,NAK
8.683627500,9260,0x49,0xF4,Read,ACK
8.683682500,9260,0x49,0xF4,Read,NAK
8.688812500,9262,0x49,0x23,Read,ACK
8.688867500,9262,0x49,0x23,Read,NAK
8.690497500,9264,0x40,0xF8,Write,ACK
8.690552500,9264,0x40,0xF8,Write,NAK
8.690882500,9266,0x41,0xD8,Read,ACK
8.690937500,9266,0x41,0xD8,Read,NAK
8.691192500,9268,0x49,0x31,Read,ACK
8.691247500,9268,0x49,0x31,Read,NAK
8.696377500,9270,0x49,0x14,Read,ACK
8.696432500,9270,0x49,0x14,Read,NAK
8.698062500,9272,0x40,0xFC,Write,ACK
8.698117500,9272,0x40,0xFC,Write,NAK
8.698447500,9274,0x41,0x03,Read,ACK
8.698502500,9274,0x41,0x03,Read,NAK
8.698757500,9276,0x49,0x3C,Read,ACK
8.698812500,9276,0x49,0x3C,Read,NAK
8.703942500,9278,0x49,0x3A,Read,ACK
8.703997500,9278,0x49,0x3A,Read,NAK
8.705627500,9280,0x40,0x00,Write,ACK
8.705682500,9280,0x40,0x00,Write,NAK
8.706012500,9282,0x41,0x0E,Read,ACK
8.706067500,9282,0x41,0x0E,Read,NAK
8.706322500,9284,0x49,0x3D,Read,ACK
8.706377500,9284,0x49,0x3D,Read,NAK
8.711507500,9286,0x49,0x12,Read,ACK
8.711562500,9286,0x49,0x12,Read,NAK
8.713192500,9288,0x40,0x04,Write,ACK
8.713247500,9288,0x40,0x04,Write,NAK
8.713577500,9290,0x41,0x0F,Read,ACK
8.713632500,9290,0x41,0x0F,Read,NAK
8.713887500,9292,0x49,0x33,Read,ACK
8.713942500,9292,0x49,0x33,Read,NAK
8.719072500,9294,0x49,0x50,Read,ACK
8.719127500,9294,0x49,0x50,Read,NAK
8.720757500,9296,0x40,0x08,Write,ACK
8.720812500,9296,0x40,0x08,Write,NAK
8.721142500,9298,0x41,0x12,Read,ACK
8.721197500,9298,0x41,0x12,Read,NAK
8.721452500,9300,0x49,0x09,Read,ACK
8.721507500,9300,0x49,0x09,Read,NAK
8.726637500,9302,0x49,0x52,Read,ACK
8.726692500,9302,0x49,0x52,Read,NAK
8.728322500,9304,0x40,0x0C,Write,ACK
8.728377500,9304,0x40,0x0C,Write,NAK
8.728707500,9306,0x41,0x25,Read,ACK
8.728762500,9306,0x41,0x25,Read,NAK
8.729017500,9308,0x49,0x44,Read,ACK
8.729072500,9308,0x49,0x44,Read,NAK
8.734202500,9310,0x49,0x49,Read,ACK
8.734257500,9310,0x49,0x49,Read,NAK
8.735887500,9312,0x40,0x10,Write,ACK
8.735942500,9312,0x40,0x10,Write,NAK
8.736272500,9314,0x41,0x33,Read,ACK
8.736327500,9314,0x41,0x33,Read,NAK
8.736582500,9316,0x49,0x2E,Read,ACK
8.736637500,9316,0x49,0x2E,Read,NAK
8.741767500,9318,0x49,0x17,Read,ACK
8.741822500,9318,0x49,0x17,Read,NAK
8.743452500,9320,0x40,0x14,Write,ACK
8.743507500,9320,0x40,0x14,Write,NAK
8.743837500,9322,0x41,0x11,Read,ACK
8.743892500,9322,0x41,0x11,Read,NAK
8.744147500,9324,0x49,0x66,Read,ACK
8.744202500,9324,0x49,0x66,Read,NAK
8.749332500,9326,0x49,0x1C,Read,ACK
8.749387500,9326,0x49,0x1C,Read,NAK
8.751017500,9328,0x40,0x18,Write,ACK
8.751072500,9328,0x40,0x18,Write,NAK
8.751402500,9330,0x41,0x1D,Read,ACK
8.751457500,9330,0x41,0x1D,Read,NAK
8.751712500,9332,0x49,0x24,Read,ACK
8.751767500,9332,0x49,0x24,Read,NAK
8.756897500,9334,0x49,0x3E,Read,ACK
8.756952500,9334,0x49,0x3E,Read,NAK
8.758582500,9336,0x40,0x1C,Write,ACK
8.758637500,9336,0x40,0x1C,Write,NAK
8.758967500,9338,0x41,0x16,Read,ACK
8.759022500,9338,0x41,0x16,Read,NAK
8.759277500,9340,0x49,0x68,Read,ACK
8.759332500,9340,0x49,0x68,Read,NAK
8.764462500,9342,0x49,0x46,Read,ACK
8.764517500,9342,0x49,0x46,Read,NAK
8.766147500,9344,0x40,0x20,Write,ACK
8.766202500,9344,0x40,0x20,Write,NAK
8.766532500,9346,0x41,0x23,Read,ACK
8.766587500,9346,0x41,0x23,Read,NAK
8.766842500,9348,0x49,0x44,Read,ACK
8.766897500,9348,0x49,0x44,Read,NAK
8.772027500,9350,0x49,0x5C,Read,ACK
8.772082500,9350,0x49,0x5C,Read,NAK
8.773712500,9352,0x40,0x24,Write,ACK
8.773767500,9352,0x40,0x24,Write,NAK
8.774097500,9354,0x41,0x25,Read,ACK
8.774152500,9354,0x41,0x25,Read,NAK
8.774407500,9356,0x49,0x30,Read,ACK
8.774462500,9356,0x49,0x30,Read,NAK
8.779592500,9358,0x49,0x3D,Read,ACK
8.779647500,9358,0x49,0x3D,Read,NAK
8.781277500,9360,0x40,0x28,Write,ACK
8.781332500,9360,0x40,0x28,Write,NAK
8.781662500,9362,0x41,0x48,Read,ACK
8.781717500,9362,0x41,0x48,Read,NAK
8.781972500,9364,0x49,0x43,Read,ACK
8.782027500,9364,0x49,0x43,Read,NAK
8.787157500,9366,0x49,0x92,Read,ACK
8.787212500,9366,0x49,0x92,Read,NAK
8.788842500,9368,0x40,0x2C,Write,ACK
8.788897500,9368,0x40,0x2C,Write,NAK
8.789227500,9370,0x41,0x2D,Read,ACK
8.789282500,9370,0x41,0x2D,Read,NAK
8.789537500,9372,0x49,0x27,Read,ACK
8.789592500,9372,0x49,0x27,Read,NAK
8.794722500,9374,0x49,0x82,Read,ACK
8.794777500,9374,0x49,0x82,Read,NAK
8.796407500,9376,0x40,0x30,Write,ACK
8.796462500,9376,0x40,0x30,Write,NAK
8.796792500,9378,0x41,0x27,Read,ACK
8.796847500,9378,0x41,0x27,Read,NAK
8.797102500,9380,0x49,0x45,Read,ACK
8.797157500,9380,0x49,0x45,Read,NAK
8.802287500,9382,0x49,0x73,Read,ACK
8.802342500,9382,0x49,0x73,Read,NAK
8.803972500,9384,0x40,0x34,Write,ACK
8.804027500,9384,0x40,0x34,Write,NAK
8.804357500,9386,0x41,0x16,Read,ACK
8.804412500,9386,0x41,0x16,Read,NAK
8.804667500,9388,0x49,0x37,Read,ACK
8.804722500,9388,0x49,0x37,Read,NAK
8.809852500,9390,0x49,0x50,Read,ACK
8.809907500,9390,0x49,0x50,Read,NAK
8.811537500,9392,0x40,0x38,Write,ACK
8.811592500,9392,0x40,0x38,Write,NAK
8.811922500,9394,0x41,0x59,Read,ACK
8.811977500,9394,0x41,0x59,Read,NAK
8.812232500,9396,0x49,0x63,Read,ACK
8.812287500,9396,0x49,0x63,Read,NAK
8.817417500,9398,0x49,0x47,Read,ACK
8.817472500,9398,0x49,0x47,Read,NAK
8.819102500,9400,0x40,0x3C,Write,ACK
8.819157500,9400,0x40,0x3C,Write,NAK
8.819487500,9402,0x41,0x61,Read,ACK
8.819542500,9402,0x41,0x61,Read,NAK
8.819797500,9404,0x49,0x5D,Read,ACK
8.819852500,9404,0x49,0x5D,Read,NAK
8.824982500,9406,0x49,0x7B,Read,ACK
8.825037500,9406,0x49,0x7B,Read,NAK
8.826667500,9408,0x40,0x40,Write,ACK
8.826722500,9408,0x40,0x40,Write,NAK
8.827052500,9410,0x41,0x33,Read,ACK
8.827107500,9410,0x41,0x33,Read,NAK
8.827362500,9412,0x49,0x3F,Read,ACK
8.827417500,9412,0x49,0x3F,Read,NAK
8.832547500,9414,0x49,0x92,Read,ACK
8.832602500,9414,0x49,0x92,Read,NAK
8.834232500,9416,0x40,0x44,Write,ACK
8.834287500,9416,0x40,0x44,Write,NAK
8.834617500,9418,0x41,0x61,Read,ACK
8.834672500,9418,0x41,0x61,Read,NAK
8.834927500,9420,0x49,0x67,Read,ACK
8.834982500,9420,0x49,0x67,Read,NAK
8.840112500,9422,0x49,0x5F,Read,ACK
8.840167500,9422,0x49,0x5F,Read,NAK
8.841797500,9424,0x40,0x48,Write,ACK
8.841852500,9424,0x40,0x48,Write,NAK
8.842182500,9426,0x41,0x34,Read,ACK
8.842237500,9426,0x41,0x34,Read,NAK
8.842492500,9428,0x49,0x51,Read,ACK
8.842547500,9428,0x49,0x51,Read,NAK
8.847677500,9430,0x49,0x75,Read,ACK
8.847732500,9430,0x49,0x75,Read,NAK
8.849362500,9432,0x40,0x4C,Write,ACK
8.849417500,9432,0x40,0x4C,Write,NAK
8.849747500,9434,0x41,0x2E,Read,ACK
8.849802500,9434,0x41,0x2E,Read,NAK
8.850057500,9436,0x49,0x54,Read,ACK
8.850112500,9436,0x49,0x54,Read,NAK
8.855242500,9438,0x49,0xAA,Read,ACK
8.855297500,9438,0x49,0xAA,Read,NAK
8.856927500,9440,0x40,0x50,Write,ACK
8.856982500,9440,0x40,0x50,Write,NAK
8.857312500,9442,0x41,0x1B,Read,ACK
8.857367500,9442,0x41,0x1B,Read,NAK
8.857622500,9444,0x49,0xA9,Read,ACK
8.857677500,9444,0x49,0xA9,Read,NAK
8.862807500,9446,0x49,0x9D,Read,ACK
8.862862500,9446,0x49,0x9D,Read,NAK
8.864492500,9448,0x40,0x54,Write,ACK
8.864547500,9448,0x40,0x54,Write,NAK
8.864877500,9450,0x41,0x2A,Read,ACK
8.864932500,9450,0x41,0x2A,Read,NAK
8.865187500,9452,0x49,0x75,Read,ACK
8.865242500,9452,0x49,0x75,Read,NAK
8.870372500,9454,0x49,0x68,Read,ACK
8.870427500,9454,0x49,0x68,Read,NAK
8.872057500,9456,0x40,0x58,Write,ACK
8.872112500,9456,0x40,0x58,Write,NAK
8.872442500,9458,0x41,0x82,Read,ACK
8.872497500,9458,0x41,0x82,Read,NAK
8.872752500,9460,0x49,0x63,Read,ACK
8.872807500,9460,0x49,0x63,Read,NAK
8.877937500,9462,0x49,0x85,Read,ACK
8.877992500,9462,0x49,0x85,Read,NAK
8.879567500,,0x24,,Write,NAK
8.879897500,9466,0x40,0x5C,Write,ACK
8.879952500,9466,0x40,0x5C,Write,NAK
8.880282500,9468,0x41,0x37,Read,ACK
8.880337500,9468,0x41,0x37,Read,NAK
8.880592500,9470,0x49,0xB0,Read,ACK
8.880647500,9470,0x49,0xB0,Read,NAK
8.885777500,9472,0x49,0x8C,Read,ACK
8.885832500,9472,0x49,0x8C,Read,NAK
8.887462500,9474,0x40,0x60,Write,ACK
8.887517500,9474,0x40,0x60,Write,NAK
8.887847500,9476,0x41,0x61,Read,ACK
8.887902500,9476,0x41,0x61,Read,NAK
8.888157500,9478,0x49,0x66,Read,ACK
8.888212500,9478,0x49,0x66,Read,NAK
8.893342500,9480,0x49,0xA2,Read,ACK
8.893397500,9480,0x49,0xA2,Read,NAK
8.895027500,9482,0x40,0x64,Write,ACK
8.895082500,9482,0x40,0x64,Write,NAK
8.895412500,9484,0x41,0x6C,Read,ACK
8.895467500,9484,0x41,0x6C,Read,NAK
8.895722500,9486,0x49,0xA9,Read,ACK
8.895777500,9486,0x49,0xA9,Read,NAK
8.900907500,9488,0x49,0xA7,Read,ACK
8.900962500,9488,0x49,0xA7,Read,NAK
8.902592500,9490,0x40,0x68,Write,ACK
8.902647500,9490,0x40,0x68,Write,NAK
8.902977500,9492,0x41,0x64,Read,ACK
8.903032500,9492,0x41,0x64,Read,NAK
8.903287500,9494,0x49,0xC1,Read,ACK
8.903342500,9494,0x49,0xC1,Read,NAK
8.908472500,9496,0x49,0xC9,Read,ACK
8.908527500,9496,0x49,0xC9,Read,NAK
8.910157500,9498,0x40,0x6C,Write,ACK
8.910212500,9498,0x40,0x6C,Write,NAK
8.910542500,9500,0x41,0x7B,Read,ACK
8.910597500,9500,0x41,0x7B,Read,NAK
8.910852500,9502,0x49,0xAF,Read,ACK
8.910907500,9502,0x49,0xAF,Read,NAK
8.916037500,9504,0x49,0xA2,Read,ACK
8.916092500,9504,0x49,0xA2,Read,NAK
8.917722500,9506,0x40,0x70,Write,ACK
8.917777500,9506,0x40,0x70,Write,NAK
8.918107500,9508,0x41,0x86,Read,ACK
8.918162500,9508,0x41,0x86,Read,NAK
8.918417500,9510,0x49,0x77,Read,ACK
8.918472500,9510,0x49,0x77,Read,NAK
8.923602500,9512,0x49,0xAB,Read,ACK
8.923657500,9512,0x49,0xAB,Read,NAK
8.925232500,,0x24,,Write,NAK
8.925562500,9516,0x40,0x74,Write,ACK
8.925617500,9516,0x40,0x74,Write,NAK
8.925947500,9518,0x41,0x7B,Read,ACK
8.926002500,9518,0x41,0x7B,Read,NAK
8.926257500,9520,0x49,0xAB,Read,ACK
8.926312500,9520,0x49,0xAB,Read,NAK
8.931442500,9522,0x49,0xD6,Read,ACK
8.931497500,9522,0x49,0xD6,Read,NAK
8.933127500,9524,0x40,0x78,Write,ACK
8.933182500,9524,0x40,0x78,Write,NAK
8.933512500,9526,0x41,0x68,Read,ACK
8.933567500,9526,0x41,0x68,Read,NAK
8.933822500,9528,0x49,0x8C,Read,ACK
8.933877500,9528,0x49,0x8C,Read,NAK
8.939007500,9530,0x49,0xB0,Read,ACK
8.939062500,9530,0x49,0xB0,Read,NAK
8.940692500,9532,0x40,0x7C,Write,ACK
8.940747500,9532,0x40,0x7C,Write,NAK
8.941077500,9534,0x41,0x92,Read,ACK
8.941132500,9534,0x41,0x92,Read,NAK
8.941387500,9536,0x49,0xCC,Read,ACK
8.941442500,9536,0x49,0xCC,Read,NAK
8.946572500,9538,0x49,0xC9,Read,ACK
8.946627500,9538,0x49,0xC9,Read,NAK
8.948257500,9540,0x40,0x80,Write,ACK
8.948312500,9540,0x40,0x80,Write,NAK
8.948642500,9542,0x41,0x85,Read,ACK
8.948697500,9542,0x41,0x85,Read,NAK
8.948952500,9544,0x49,0x93,Read,ACK
8.949007500,9544,0x49,0x93,Read,NAK
8.954137500,9546,0x49,0xCE,Read,ACK
8.954192500,9546,0x49,0xCE,Read,NAK
8.955822500,9548,0x40,0x84,Write,ACK
8.955877500,9548,0x40,0x84,Write,NAK
8.956207500,9550,0x41,0x8A,Read,ACK
8.956262500,9550,0x41,0x8A,Read,NAK
8.956517500,9552,0x49,0xCD,Read,ACK
8.956572500,9552,0x49,0xCD,Read,NAK
8.961702500,9554,0x49,0xA0,Read,ACK
8.961757500,9554,0x49,0xA0,Read,NAK
8.963387500,9556,0x40,0x88,Write,ACK
8.963442500,9556,0x40,0x88,Write,NAK
8.963772500,9558,0x41,0xA4,Read,ACK
8.963827500,9558,0x41,0xA4,Read,NAK
8.964082500,9560,0x49,0x8A,Read,ACK
8.964137500,9560,0x49,0x8A,Read,NAK
8.969267500,9562,0x49,0xE7,Read,ACK
8.969322500,9562,0x49,0xE7,Read,NAK
8.970952500,9564,0x40,0x8C,Write,ACK
8.971007500,9564,0x40,0x8C,Write,NAK
8.971337500,9566,0x41,0xAF,Read,ACK
8.971392500,9566,0x41,0xAF,Read,NAK
8.971647500,9568,0x49,0xD9,Read,ACK
8.971702500,9568,0x49,0xD9,Read,NAK
8.976832500,9570,0x49,0xAD,Read,ACK
8.976887500,9570,0x49,0xAD,Read,NAK
8.978517500,9572,0x40,0x90,Write,ACK
8.978572500,9572,0x40,0x90,Write,NAK
8.978902500,9574,0x41,0x5F,Read,ACK
8.978957500,9574,0x41,0x5F,Read,NAK
8.979212500,9576,0x49,0xA4,Read,ACK
8.979267500,9576,0x49,0xA4,Read,NAK
8.984397500,9578,0x49,0xD1,Read,ACK
8.984452500,9578,0x49,0xD1,Read,NAK
8.986082500,9580,0x40,0x94,Write,ACK
8.986137500,9580,0x40,0x94,Write,NAK
8.986467500,9582,0x41,0xBD,Read,ACK
8.986522500,9582,0x41,0xBD,Read,NAK
8.986777500,9584,0x49,0x8C,Read,ACK
8.986832500,9584,0x49,0x8C,Read,NAK
8.991962500,9586,0x49,0xB6,Read,ACK
8.992017500,9586,0x49,0xB6,Read,NAK
8.993647500,9588,0x40,0x98,Write,ACK
8.993702500,9588,0x40,0x98,Write,NAK
8.994032500,9590,0x41,0x82,Read,ACK
8.994087500,9590,0x41,0x82,Read,NAK
8.994342500,9592,0x49,0xAB,Read,ACK
8.994397500,9592,0x49,0xAB,Read,NAK
8.999527500,9594,0x49,0xCC,Read,ACK
8.999582500,9594,0x49,0xCC,Read,NAK
9.001212500,9596,0x40,0x9C,Write,ACK
9.001267500,9596,0x40,0x9C,Write,NAK
9.001597500,9598,0x41,0xAD,Read,ACK
9.001652500,9598,0x41,0xAD,Read,NAK
9.001907500,9600,0x49,0xA1,Read,ACK
9.001962500,9600,0x49,0xA1,Read,NAK
9.007092500,9602,0x49,0xCB,Read,ACK
9.007147500,9602,0x49,0xCB,Read,NAK
9.008777500,9604,0x40,0xA0,Write,ACK
9.008832500,9604,0x40,0xA0,Write,NAK
9.009162500,9606,0x41,0xCA,Read,ACK
9.009217500,9606,0x41,0xCA,Read,NAK
9.009472500,9608,0x49,0xD5,Read,ACK
9.009527500,9608,0x49,0xD5,Read,NAK
9.014657500,9610,0x49,0xAA,Read,ACK
9.014712500,9610,0x49,0xAA,Read,NAK
9.016342500,9612,0x40,0xA4,Write,ACK
9.016397500,9612,0x40,0xA4,Write,NAK
9.016727500,9614,0x41,0x9D,Read,ACK
9.016782500,9614,0x41,0x9D,Read,NAK
9.017037500,9616,0x49,0xE7,Read,ACK
9.017092500,9616,0x49,0xE7,Read,NAK
9.022222500,9618,0x49,0xF1,Read,ACK
9.022277500,9618,0x49,0xF1,Read,NAK
9.023907500,9620,0x40,0xA8,Write,ACK
9.023962500,9620,0x40,0xA8,Write,NAK
9.024292500,9622,0x41,0xCB,Read,ACK
9.024347500,9622,0x41,0xCB,Read,NAK
9.024602500,9624,0x49,0xA8,Read,ACK
9.024657500,9624,0x49,0xA8,Read,NAK
9.029787500,9626,0x49,0xD4,Read,ACK
9.029842500,9626,0x49,0xD4,Read,NAK
9.031472500,9628,0x40,0xAC,Write,ACK
9.031527500,9628,0x40,0xAC,Write,NAK
9.031857500,9630,0x41,0xD7,Read,ACK
9.031912500,9630,0x41,0xD7,Read,NAK
9.032167500,9632,0x49,0xB1,Read,ACK
9.032222500,9632,0x49,0xB1,Read,NAK
9.037352500,9634,0x49,0xB3,Read,ACK
9.037407500,9634,0x49,0xB3,Read,NAK
9.039037500,9636,0x40,0xB0,Write,ACK
9.039092500,9636,0x40,0xB0,Write,NAK
9.039422500,9638,0x41,0xA7,Read,ACK
9.039477500,9638,0x41,0xA7,Read,NAK
9.039732500,9640,0x49,0xB1,Read,ACK
9.039787500,9640,0x49,0xB1,Read,NAK
9.044917500,9642,0x49,0xFF,Read,ACK
9.044972500,9642,0x49,0xFF,Read,NAK
9.046602500,9644,0x40,0xB4,Write,ACK
9.046657500,9644,0x40,0xB4,Write,NAK
9.046987500,9646,0x41,0x8B,Read,ACK
9.047042500,9646,0x41,0x8B,Read,NAK
9.047297500,9648,0x49,0xAA,Read,ACK
9.047352500,9648,0x49,0xAA,Read,NAK
9.052482500,9650,0x49,0xD8,Read,ACK
9.052537500,9650,0x49,0xD8,Read,NAK
9.054167500,9652,0x40,0xB8,Write,ACK
9.054222500,9652,0x40,0xB8,Write,NAK
9.054552500,9654,0x41,0xD3,Read,ACK
9.054607500,9654,0x41,0xD3,Read,NAK
9.054862500,9656,0x49,0xF8,Read,ACK
9.054917500,9656,0x49,0xF8,Read,NAK
9.060047500,9658,0x49,0xC4,Read,ACK
9.060102500,9658,0x49,0xC4,Read,NAK
9.061732500,9660,0x40,0xBC,Write,ACK
9.061787500,9660,0x40,0xBC,Write,NAK
9.062117500,9662,0x41,0xAF,Read,ACK
9.062172500,9662,0x41,0xAF,Read,NAK
9.062427500,9664,0x49,0x14,Read,ACK
9.062482500,9664,0x49,0x14,Read,NAK
9.067612500,9666,0x49,0x16,Read,ACK
9.067667500,9666,0x49,0x16,Read,NAK
9.069297500,9668,0x40,0xC0,Write,ACK
9.069352500,9668,0x40,0xC0,Write,NAK
9.069682500,9670,0x41,0xC7,Read,ACK
9.069737500,9670,0x41,0xC7,Read,NAK
9.069992500,9672,0x49,0xDC,Read,ACK
9.070047500,9672,0x49,0xDC,Read,NAK
9.075177500,9674,0x49,0xF4,Read,ACK
9.075232500,9674,0x49,0xF4,Read,NAK
9.076807500,,0x24,,Write,NAK
9.077137500,9678,0x40,0xC4,Write,ACK
9.077192500,9678,0x40,0xC4,Write,NAK
9.077522500,9680,0x41,0x9D,Read,ACK
9.077577500,9680,0x41,0x9D,Read,NAK
9.077832500,9682,0x49,0xFD,Read,ACK
9.077887500,9682,0x49,0xFD,Read,NAK
9.083017500,9684,0x49,0x29,Read,ACK
9.083072500,9684,0x49,0x29,Read,NAK
9.084702500,9686,0x40,0xC8,Write,ACK
9.084757500,9686,0x40,0xC8,Write,NAK
9.085087500,9688,0x41,0xDF,Read,ACK
9.085142500,9688,0x41,0xDF,Read,NAK
9.085397500,9690,0x49,0xDD,Read,ACK
9.085452500,9690,0x49,0xDD,Read,NAK
9.090582500,9692,0x49,0xF6,Read,ACK
9.090637500,9692,0x49,0xF6,Read,NAK
9.092267500,9694,0x40,0xCC,Write,ACK
9.092322500,9694,0x40,0xCC,Write,NAK
9.092652500,9696,0x41,0xC4,Read,ACK
9.092707500,9696,0x41,0xC4,Read,NAK
9.092962500,9698,0x49,0xE9,Read,ACK
9.093017500,9698,0x49,0xE9,Read,NAK
9.098147500,9700,0x49,0x24,Read,ACK
9.098202500,9700,0x49,0x24,Read,NAK
9.099832500,9702,0x40,0xD0,Write,ACK
9.099887500,9702,0x40,0xD0,Write,NAK
9.100217500,9704,0x41,0xCC,Read,ACK
9.100272500,9704,0x41,0xCC,Read,NAK
9.100527500,9706,0x49,0xCC,Read,ACK
9.100582500,9706,0x49,0xCC,Read,NAK
9.105712500,9708,0x49,0xFA,Read,ACK
9.105767500,9708,0x49,0xFA,Read,NAK
9.107397500,9710,0x40,0xD4,Write,ACK
9.107452500,9710,0x40,0xD4,Write,NAK
9.107782500,9712,0x41,0xA4,Read,ACK
9.107837500,9712,0x41,0xA4,Read,NAK
9.108092500,9714,0x49,0x0A,Read,ACK
9.108147500,9714,0x49,0x0A,Read,NAK
9.113277500,9716,0x49,0x17,Read,ACK
9.113332500,9716,0x49,0x17,Read,NAK
9.114962500,9718,0x40,0xD8,Write,ACK
9.115017500,9718,0x40,0xD8,Write,NAK
9.115347500,9720,0x41,0xFD,Read,ACK
9.115402500,9720,0x41,0xFD,Read,NAK
9.115657500,9722,0x49,0x10,Read,ACK
9.115712500,9722,0x49,0x10,Read,NAK
9.120842500,9724,0x49,0x3A,Read,ACK
9.120897500,9724,0x49,0x3A,Read,NAK
9.122527500,9726,0x40,0xDC,Write,ACK
9.122582500,9726,0x40,0xDC,Write,NAK
9.122912500,9728,0x41,0xE6,Read,ACK
9.122967500,9728,0x41,0xE6,Read,NAK
9.123222500,9730,0x49,0xEC,Read,ACK
9.123277500,9730,0x49,0xEC,Read,NAK
9.128407500,9732,0x49,0xF9,Read,ACK
9.128462500,9732,0x49,0xF9,Read,NAK
9.130092500,9734,0x40,0xE0,Write,ACK
9.130147500,9734,0x40,0xE0,Write,NAK
9.130477500,9736,0x41,0xBB,Read,ACK
9.130532500,9736,0x41,0xBB,Read,NAK
9.130787500,9738,0x49,0xE9,Read,ACK
9.130842500,9738,0x49,0xE9,Read,NAK
9.135972500,9740,0x49,0x41,Read,ACK
9.136027500,9740,0x49,0x41,Read,NAK
9.137657500,9742,0x40,0xE4,Write,ACK
9.137712500,9742,0x40,0xE4,Write,NAK
9.138042500,9744,0x41,0xD5,Read,ACK
9.138097500,9744,0x41,0xD5,Read,NAK
9.138352500,9746,0x49,0x2E,Read,ACK
9.138407500,9746,0x49,0x2E,Read,NAK
9.143537500,9748,0x49,0x14,Read,ACK
9.143592500,9748,0x49,0x14,Read,NAK
9.145222500,9750,0x40,0xE8,Write,ACK
9.145277500,9750,0x40,0xE8,Write,NAK
9.145607500,9752,0x41,0xF5,Read,ACK
9.145662500,9752,0x41,0xF5,Read,NAK
9.145917500,9754,0x49,0x2E,Read,ACK
9.145972500,9754,0x49,0x2E,Read,NAK
9.151102500,9756,0x49,0x4E,Read,ACK
9.151157500,9756,0x49,0x4E,Read,NAK
9.152787500,9758,0x40,0xEC,Write,ACK
9.152842500,9758,0x40,0xEC,Write,NAK
9.153172500,9760,0x41,0xC9,Read,ACK
9.153227500,9760,0x41,0xC9,Read,NAK
9.153482500,9762,0x49,0xFF,Read,ACK
9.153537500,9762,0x49,0xFF,Read,NAK
9.158667500,9764,0x49,0xFB,Read,ACK
9.158722500,9764,0x49,0xFB,Read,NAK
9.160352500,9766,0x40,0xF0,Write,ACK
9.160407500,9766,0x40,0xF0,Write,NAK
9.160737500,9768,0x41,0xDD,Read,ACK
9.160792500,9768,0x41,0xDD,Read,NAK
9.161047500,9770,0x49,0x11,Read,ACK
9.161102500,9770,0x49,0x11,Read,NAK
9.166232500,9772,0x49,0x1C,Read,ACK
9.166287500,9772,0x49,0x1C,Read,NAK
9.167917500,9774,0x40,0xF4,Write,ACK
9.167972500,9774,0x40,0xF4,Write,NAK
9.168302500,9776,0x41,0xF9,Read,ACK
9.168357500,9776,0x41,0xF9,Read,NAK
9.168612500,9778,0x49,0x4C,Read,ACK
9.168667500,9778,0x49,0x4C,Read,NAK
9.173797500,9780,0x49,0x1B,Read,ACK
9.173852500,9780,0x49,0x1B,Read,NAK
9.175482500,9782,0x40,0xF8,Write,ACK
9.175537500,9782,0x40,0xF8,Write,NAK
9.175867500,9784,0x41,0xD2,Read,ACK
9.175922500,9784,0x41,0xD2,Read,NAK
9.176177500,9786,0x49,0x39,Read,ACK
9.176232500,9786,0x49,0x39,Read,NAK
9.181362500,9788,0x49,0x22,Read,ACK
9.181417500,9788,0x49,0x22,Read,NAK
9.183047500,9790,0x40,0xFC,Write,ACK
9.183102500,9790,0x40,0xFC,Write,NAK
9.183432500,9792,0x41,0xC8,Read,ACK
9.183487500,9792,0x41,0xC8,Read,NAK
9.183742500,9794,0x49,0xFB,Read,ACK
9.183797500,9794,0x49,0xFB,Read,NAK
9.188927500,9796,0x49,0x0C,Read,ACK
9.188982500,9796,0x49,0x0C,Read,NAK
9.190612500,9798,0x40,0x00,Write,ACK
9.190667500,9798,0x40,0x00,Write,NAK
9.190997500,9800,0x41,0xE6,Read,ACK
9.191052500,9800,0x41,0xE6,Read,NAK
9.191307500,9802,0x49,0x29,Read,ACK
9.191362500,9802,0x49,0x29,Read,NAK
9.196492500,9804,0x49,0x0A,Read,ACK
9.196547500,9804,0x49,0x0A,Read,NAK
9.198177500,9806,0x40,0x04,Write,ACK
9.198232500,9806,0x40,0x04,Write,NAK
9.198562500,9808,0x41,0xF1,Read,ACK
9.198617500,9808,0x41,0xF1,Read,NAK
9.198872500,9810,0x49,0x26,Read,ACK
9.198927500,9810,0x49,0x26,Read,NAK
9.204057500,9812,0x49,0x2F,Read,ACK
9.204112500,9812,0x49,0x2F,Read,NAK
9.205742500,9814,0x40,0x08,Write,ACK
9.205797500,9814,0x40,0x08,Write,NAK
9.206127500,9816,0x41,0x1E,Read,ACK
9.206182500,9816,0x41,0x1E,Read,NAK
9.206437500,9818,0x49,0x51,Read,ACK
9.206492500,9818,0x49,0x51,Read,NAK
9.211622500,9820,0x49,0x22,Read,ACK
9.211677500,9820,0x49,0x22,Read,NAK
9.213307500,9822,0x40,0x0C,Write,ACK
9.213362500,9822,0x40,0x0C,Write,NAK
9.213692500,9824,0x41,0xE2,Read,ACK
9.213747500,9824,0x41,0xE2,Read,NAK
9.214002500,9826,0x49,0x1D,Read,ACK
9.214057500,9826,0x49,0x1D,Read,NAK
9.219187500,9828,0x49,0x59,Read,ACK
9.219242500,9828,0x49,0x59,Read,NAK
9.220872500,9830,0x40,0x10,Write,ACK
9.220927500,9830,0x40,0x10,Write,NAK
9.221257500,9832,0x41,0xF0,Read,ACK
9.221312500,9832,0x41,0xF0,Read,NAK
9.221567500,9834,0x49,0x0D,Read,ACK
9.221622500,9834,0x49,0x0D,Read,NAK
9.226752500,9836,0x49,0x3F,Read,ACK
9.226807500,9836,0x49,0x3F,Read,NAK
9.228437500,9838,0x40,0x14,Write,ACK
9.228492500,9838,0x40,0x14,Write,NAK
9.228822500,9840,0x41,0x17,Read,ACK
9.228877500,9840,0x41,0x17,Read,NAK
9.229132500,9842,0x49,0x22,Read,ACK
9.229187500,9842,0x49,0x22,Read,NAK
9.234317500,9844,0x49,0x3F,Read,ACK
9.234372500,9844,0x49,0x3F,Read,NAK
9.236002500,9846,0x40,0x18,Write,ACK
9.236057500,9846,0x40,0x18,Write,NAK
9.236387500,9848,0x41,0xE2,Read,ACK
9.236442500,9848,0x41,0xE2,Read,NAK
9.236697500,9850,0x49,0x25,Read,ACK
9.236752500,9850,0x49,0x25,Read,NAK
9.241882500,9852,0x49,0x58,Read,ACK
9.241937500,9852,0x49,0x58,Read,NAK
9.243567500,9854,0x40,0x1C,Write,ACK
9.243622500,9854,0x40,0x1C,Write,NAK
9.243952500,9856,0x41,0x06,Read,ACK
9.244007500,9856,0x41,0x06,Read,NAK
9.244262500,9858,0x49,0x25,Read,ACK
9.244317500,9858,0x49,0x25,Read,NAK
9.249447500,9860,0x49,0x6C,Read,ACK
9.249502500,9860,0x49,0x6C,Read,NAK
9.251132500,9862,0x40,0x20,Write,ACK
9.251187500,9862,0x40,0x20,Write,NAK
9.251517500,9864,0x41,0x30,Read,ACK
9.251572500,9864,0x41,0x30,Read,NAK
9.251827500,9866,0x49,0x32,Read,ACK
9.251882500,9866,0x49,0x32,Read,NAK
9.257012500,9868,0x49,0x47,Read,ACK
9.257067500,9868,0x49,0x47,Read,NAK
9.258697500,9870,0x40,0x24,Write,ACK
9.258752500,9870,0x40,0x24,Write,NAK
9.259082500,9872,0x41,0x07,Read,ACK
9.259137500,9872,0x41,0x07,Read,NAK
9.259392500,9874,0x49,0x5E,Read,ACK
9.259447500,9874,0x49,0x5E,Read,NAK
9.264577500,9876,0x49,0x37,Read,ACK
9.264632500,9876,0x49,0x37,Read,NAK
9.266262500,9878,0x40,0x28,Write,ACK
9.266317500,9878,0x40,0x28,Write,NAK
9.266647500,9880,0x41,0xF6,Read,ACK
9.266702500,9880,0x41,0xF6,Read,NAK
9.266957500,9882,0x49,0x3E,Read,ACK
9.267012500,9882,0x49,0x3E,Read,NAK
9.272142500,9884,0x49,0x60,Read,ACK
9.272197500,9884,0x49,0x60,Read,NAK
9.273827500,9886,0x40,0x2C,Write,ACK
9.273882500,9886,0x40,0x2C,Write,NAK
9.274212500,9888,0x41,0x31,Read,ACK
9.274267500,9888,0x41,0x31,Read,NAK
9.274522500,9890,0x49,0x69,Read,ACK
9.274577500,9890,0x49,0x69,Read,NAK
9.279707500,9892,0x49,0x43,Read,ACK
9.279762500,9892,0x49,0x43,Read,NAK
9.281392500,9894,0x40,0x30,Write,ACK
9.281447500,9894,0x40,0x30,Write,NAK
9.281777500,9896,0x41,0x49,Read,ACK
9.281832500,9896,0x41,0x49,Read,NAK
9.282087500,9898,0x49,0x2E,Read,ACK
9.282142500,9898,0x49,0x2E,Read,NAK
9.287272500,9900,0x49,0x7B,Read,ACK
9.287327500,9900,0x49,0x7B,Read,NAK
9.288957500,9902,0x40,0x34,Write,ACK
9.289012500,9902,0x40,0x34,Write,NAK
9.289342500,9904,0x41,0x1F,Read,ACK
9.289397500,9904,0x41,0x1F,Read,NAK
9.289652500,9906,0x49,0x2E,Read,ACK
9.289707500,9906,0x49,0x2E,Read,NAK
9.294837500,9908,0x49,0x49,Read,ACK
9.294892500,9908,0x49,0x49,Read,NAK
9.296522500,9910,0x40,0x38,Write,ACK
9.296577500,9910,0x40,0x38,Write,NAK
9.296907500,9912,0x41,0x1E,Read,ACK
9.296962500,9912,0x41,0x1E,Read,NAK
9.297217500,9914,0x49,0x75,Read,ACK
9.297272500,9914,0x49,0x75,Read,NAK
9.302402500,9916,0x49,0x66,Read,ACK
9.302457500,9916,0x49,0x66,Read,NAK
9.304087500,9918,0x40,0x3C,Write,ACK
9.304142500,9918,0x40,0x3C,Write,NAK
9.304472500,9920,0x41,0x60,Read,ACK
9.304527500,9920,0x41,0x60,Read,NAK
9.304782500,9922,0x49,0x72,Read,ACK
9.304837500,9922,0x49,0x72,Read,NAK
9.309967500,9924,0x49,0x5C,Read,ACK
9.310022500,9924,0x49,0x5C,Read,NAK
9.311652500,9926,0x40,0x40,Write,ACK
9.311707500,9926,0x40,0x40,Write,NAK
9.312037500,9928,0x41,0x66,Read,ACK
9.312092500,9928,0x41,0x66,Read,NAK
9.312347500,9930,0x49,0x40,Read,ACK
9.312402500,9930,0x49,0x40,Read,NAK
9.317532500,9932,0x49,0x8E,Read,ACK
9.317587500,9932,0x49,0x8E,Read,NAK
9.319217500,9934,0x40,0x44,Write,ACK
9.319272500,9934,0x40,0x44,Write,NAK
9.319602500,9936,0x41,0x2C,Read,ACK
9.319657500,9936,0x41,0x2C,Read,NAK
9.319912500,9938,0x49,0x8D,Read,ACK
9.319967500,9938,0x49,0x8D,Read,NAK
9.325097500,9940,0x49,0x92,Read,ACK
9.325152500,9940,0x49,0x92,Read,NAK
9.326782500,9942,0x40,0x48,Write,ACK
9.326837500,9942,0x40,0x48,Write,NAK
9.327167500,9944,0x41,0x21,Read,ACK
9.327222500,9944,0x41,0x21,Read,NAK
9.327477500,9946,0x49,0x86,Read,ACK
9.327532500,9946,0x49,0x86,Read,NAK
9.332662500,9948,0x49,0x52,Read,ACK
9.332717500,9948,0x49,0x52,Read,NAK
9.334347500,9950,0x40,0x4C,Write,ACK
9.334402500,9950,0x40,0x4C,Write,NAK
9.334732500,9952,0x41,0x42,Read,ACK
9.334787500,9952,0x41,0x42,Read,NAK
9.335042500,9954,0x49,0x55,Read,ACK
9.335097500,9954,0x49,0x55,Read,NAK
9.340227500,9956,0x49,0x5C,Read,ACK
9.340282500,9956,0x49,0x5C,Read,NAK
9.341912500,9958,0x40,0x50,Write,ACK
9.341967500,9958,0x40,0x50,Write,NAK
9.342297500,9960,0x41,0x69,Read,ACK
9.342352500,9960,0x41,0x69,Read,NAK
9.342607500,9962,0x49,0x93,Read,ACK
9.342662500,9962,0x49,0x93,Read,NAK
9.347792500,9964,0x49,0x96,Read,ACK
9.347847500,9964,0x49,0x96,Read,NAK
9.349477500,9966,0x40,0x54,Write,ACK
9.349532500,9966,0x40,0x54,Write,NAK
9.349862500,9968,0x41,0x3F,Read,ACK
9.349917500,9968,0x41,0x3F,Read,NAK
9.350172500,9970,0x49,0x97,Read,ACK
9.350227500,9970,0x49,0x97,Read,NAK
9.355357500,9972,0x49,0x8C,Read,ACK
9.355412500,9972,0x49,0x8C,Read,NAK
9.357042500,9974,0x40,0x58,Write,ACK
9.357097500,9974,0x40,0x58,Write,NAK
9.357427500,9976,0x41,0x53,Read,ACK
9.357482500,9976,0x41,0x53,Read,NAK
9.357737500,9978,0x49,0xA6,Read,ACK
9.357792500,9978,0x49,0xA6,Read,NAK
9.362922500,9980,0x49,0x79,Read,ACK
9.362977500,9980,0x49,0x79,Read,NAK
9.364607500,9982,0x40,0x5C,Write,ACK
9.364662500,9982,0x40,0x5C,Write,NAK
9.364992500,9984,0x41,0x5A,Read,ACK
9.365047500,9984,0x41,0x5A,Read,NAK
9.365302500,9986,0x49,0x55,Read,ACK
9.365357500,9986,0x49,0x55,Read,NAK
9.370487500,9988,0x49,0x67,Read,ACK
9.370542500,9988,0x49,0x67,Read,NAK
9.372172500,9990,0x40,0x60,Write,ACK
9.372227500,9990,0x40,0x60,Write,NAK
9.372557500,9992,0x41,0x37,Read,ACK
9.372612500,9992,0x41,0x37,Read,NAK
9.372867500,9994,0x49,0xA1,Read,ACK
9.372922500,9994,0x49,0xA1,Read,NAK
9.378052500,9996,0x49,0xA9,Read,ACK
9.378107500,9996,0x49,0xA9,Read,NAK
9.379737500,9998,0x40,0x64,Write,ACK
9.379792500,9998,0x40,0x64,Write,NAK
9.380122500,10000,0x41,0x69,Read,ACK
9.380177500,10000,0x41,0x69,Read,NAK
9.380432500,10002,0x49,0xB3,Read,ACK
9.380487500,10002,0x49,0xB3,Read,NAK
9.385617500,10004,0x49,0xB9,Read,ACK
9.385672500,10004,0x49,0xB9,Read,NAK
9.387302500,10006,0x40,0x68,Write,ACK
9.387357500,10006,0x40,0x68,Write,NAK
9.387687500,10008,0x41,0x70,Read,ACK
9.387742500,10008,0x41,0x70,Read,NAK
9.387997500,10010,0x49,0xAF,Read,ACK
9.388052500,10010,0x49,0xAF,Read,NAK
9.393182500,10012,0x49,0x70,Read,ACK
9.393237500,10012,0x49,0x70,Read,NAK
9.394867500,10014,0x40,0x6C,Write,ACK
9.394922500,10014,0x40,0x6C,Write,NAK
9.395252500,10016,0x41,0x6A,Read,ACK
9.395307500,10016,0x41,0x6A,Read,NAK
9.395562500,10018,0x49,0xA0,Read,ACK
9.395617500,10018,0x49,0xA0,Read,NAK
9.400747500,10020,0x49,0xC4,Read,ACK
9.400802500,10020,0x49,0xC4,Read,NAK
9.402432500,10022,0x40,0x70,Write,ACK
9.402487500,10022,0x40,0x70,Write,NAK
9.402817500,10024,0x41,0x95,Read,ACK
9.402872500,10024,0x41,0x95,Read,NAK
9.403127500,10026,0x49,0x92,Read,ACK
9.403182500,10026,0x49,0x92,Read,NAK
9.408312500,10028,0x49,0xD7,Read,ACK
9.408367500,10028,0x49,0xD7,Read,NAK
9.409997500,10030,0x40,0x74,Write,ACK
9.410052500,10030,0x40,0x74,Write,NAK
9.410382500,10032,0x41,0x54,Read,ACK
9.410437500,10032,0x41,0x54,Read,NAK
9.410692500,10034,0x49,0xCC,Read,ACK
9.410747500,10034,0x49,0xCC,Read,NAK
9.415877500,10036,0x49,0xA1,Read,ACK
9.415932500,10036,0x49,0xA1,Read,NAK
9.417562500,10038,0x40,0x78,Write,ACK
9.417617500,10038,0x40,0x78,Write,NAK
9.417947500,10040,0x41,0x98,Read,ACK
9.418002500,10040,0x41,0x98,Read,NAK
9.418257500,10042,0x49,0x7E,Read,ACK
9.418312500,10042,0x49,0x7E,Read,NAK
9.423442500,10044,0x49,0x8D,Read,ACK
9.423497500,10044,0x49,0x8D,Read,NAK
9.425127500,10046,0x40,0x7C,Write,ACK
9.425182500,10046,0x40,0x7C,Write,NAK
9.425512500,10048,0x41,0x5A,Read,ACK
9.425567500,10048,0x41,0x5A,Read,NAK
9.425822500,10050,0x49,0x85,Read,ACK
9.425877500,10050,0x49,0x85,Read,NAK
9.431007500,10052,0x49,0xAB,Read,ACK
9.431062500,10052,0x49,0xAB,Read,NAK
9.432692500,10054,0x40,0x80,Write,ACK
9.432747500,10054,0x40,0x80,Write,NAK
9.433077500,10056,0x41,0x78,Read,ACK
9.433132500,10056,0x41,0x78,Read,NAK
9.433387500,10058,0x49,0x7C,Read,ACK
9.433442500,10058,0x49,0x7C,Read,NAK
9.438572500,10060,0x49,0xA4,Read,ACK
9.438627500,10060,0x49,0xA4,Read,NAK
9.440257500,10062,0x40,0x84,Write,ACK
9.440312500,10062,0x40,0x84,Write,NAK
9.440642500,10064,0x41,0xAE,Read,ACK
9.440697500,10064,0x41,0xAE,Read,NAK
9.440952500,10066,0x49,0xB6,Read,ACK
9.441007500,10066,0x49,0xB6,Read,NAK
9.446137500,10068,0x49,0xAB,Read,ACK
9.446192500,10068,0x49,0xAB,Read,NAK
9.447822500,10070,0x40,0x88,Write,ACK
9.447877500,10070,0x40,0x88,Write,NAK
9.448207500,10072,0x41,0xAF,Read,ACK
9.448262500,10072,0x41,0xAF,Read,NAK
9.448517500,10074,0x49,0xD3,Read,ACK
9.448572500,10074,0x49,0xD3,Read,NAK
9.453702500,10076,0x49,0x9F,Read,ACK
9.453757500,10076,0x49,0x9F,Read,NAK
9.455387500,10078,0x40,0x8C,Write,ACK
9.455442500,10078,0x40,0x8C,Write,NAK
9.455772500,10080,0x41,0x86,Read,ACK
9.455827500,10080,0x41,0x86,Read,NAK
9.456082500,10082,0x49,0xB3,Read,ACK
9.456137500,10082,0x49,0xB3,Read,NAK
9.461267500,10084,0x49,0xE5,Read,ACK
9.461322500,10084,0x49,0xE5,Read,NAK
9.462952500,10086,0x40,0x90,Write,ACK
9.463007500,10086,0x40,0x90,Write,NAK
9.463337500,10088,0x41,0xB7,Read,ACK
9.463392500,10088,0x41,0xB7,Read,NAK
9.463647500,10090,0x49,0xA4,Read,ACK
9.463702500,10090,0x49,0xA4,Read,NAK
9.468832500,10092,0x49,0xA7,Read,ACK
9.468887500,10092,0x49,0xA7,Read,NAK
9.470517500,10094,0x40,0x94,Write,ACK
9.470572500,10094,0x40,0x94,Write,NAK
9.470902500,10096,0x41,0x7A,Read,ACK
9.470957500,10096,0x41,0x7A,Read,NAK
9.471212500,10098,0x49,0x91,Read,ACK
9.471267500,10098,0x49,0x91,Read,NAK
9.476397500,10100,0x49,0xC5,Read,ACK
9.476452500,10100,0x49,0xC5,Read,NAK
9.478082500,10102,0x40,0x98,Write,ACK
9.478137500,10102,0x40,0x98,Write,NAK
9.478467500,10104,0x41,0xAD,Read,ACK
9.478522500,10104,0x41,0xAD,Read,NAK
9.478777500,10106,0x49,0x97,Read,ACK
9.478832500,10106,0x49,0x97,Read,NAK
9.483962500,10108,0x49,0xD9,Read,ACK
9.484017500,10108,0x49,0xD9,Read,NAK
9.485647500,10110,0x40,0x9C,Write,ACK
9.485702500,10110,0x40,0x9C,Write,NAK
9.486032500,10112,0x41,0x82,Read,ACK
9.486087500,10112,0x41,0x82,Read,NAK
9.486342500,10114,0x49,0xF4,Read,ACK
9.486397500,10114,0x49,0xF4,Read,NAK
9.491527500,10116,0x49,0xC4,Read,ACK
9.491582500,10116,0x49,0xC4,Read,NAK
9.493212500,10118,0x40,0xA0,Write,ACK
9.493267500,10118,0x40,0xA0,Write,NAK
9.493597500,10120,0x41,0xA2,Read,ACK
9.493652500,10120,0x41,0xA2,Read,NAK
9.493907500,10122,0x49,0xA4,Read,ACK
9.493962500,10122,0x49,0xA4,Read,NAK
9.499092500,10124,0x49,0xC7,Read,ACK
9.499147500,10124,0x49,0xC7,Read,NAK
9.500777500,10126,0x40,0xA4,Write,ACK
9.500832500,10126,0x40,0xA4,Write,NAK
9.501162500,10128,0x41,0x88,Read,ACK
9.501217500,10128,0x41,0x88,Read,NAK
9.501472500,10130,0x49,0xAA,Read,ACK
9.501527500,10130,0x49,0xAA,Read,NAK
9.506657500,10132,0x49,0xB9,Read,ACK
9.506712500,10132,0x49,0xB9,Read,NAK
9.508342500,10134,0x40,0xA8,Write,ACK
9.508397500,10134,0x40,0xA8,Write,NAK
9.508727500,10136,0x41,0x73,Read,ACK
9.508782500,10136,0x41,0x73,Read,NAK
9.509037500,10138,0x49,0xF0,Read,ACK
9.509092500,10138,0x49,0xF0,Read,NAK
9.514222500,10140,0x49,0xF5,Read,ACK
9.514277500,10140,0x49,0xF5,Read,NAK
9.515907500,10142,0x40,0xAC,Write,ACK
9.515962500,10142,0x40,0xAC,Write,NAK
9.516292500,10144,0x41,0x95,Read,ACK
9.516347500,10144,0x41,0x95,Read,NAK
9.516602500,10146,0x49,0xD6,Read,ACK
9.516657500,10146,0x49,0xD6,Read,NAK
9.521787500,10148,0x49,0xDC,Read,ACK
9.521842500,10148,0x49,0xDC,Read,NAK
9.523472500,10150,0x40,0xB0,Write,ACK
9.523527500,10150,0x40,0xB0,Write,NAK
9.523857500,10152,0x41,0xCC,Read,ACK
9.523912500,10152,0x41,0xCC,Read,NAK
9.524167500,10154,0x49,0xAF,Read,ACK
9.524222500,10154,0x49,0xAF,Read,NAK
9.529352500,10156,0x49,0x17,Read,ACK
9.529407500,10156,0x49,0x17,Read,NAK
9.531037500,10158,0x40,0xB4,Write,ACK
9.531092500,10158,0x40,0xB4,Write,NAK
9.531422500,10160,0x41,0xC2,Read,ACK
9.531477500,10160,0x41,0xC2,Read,NAK
9.531732500,10162,0x49,0xD1,Read,ACK
9.531787500,10162,0x49,0xD1,Read,NAK
9.536917500,10164,0x49,0x09,Read,ACK
9.536972500,10164,0x49,0x09,Read,NAK
9.538602500,10166,0x40,0xB8,Write,ACK
9.538657500,10166,0x40,0xB8,Write,NAK
9.538987500,10168,0x41,0xB2,Read,ACK
9.539042500,10168,0x41,0xB2,Read,NAK
9.539297500,10170,0x49,0x06,Read,ACK
9.539352500,10170,0x49,0x06,Read,NAK
9.544482500,10172,0x49,0xEA,Read,ACK
9.544537500,10172,0x49,0xEA,Read,NAK
9.546167500,10174,0x40,0xBC,Write,ACK
9.546222500,10174,0x40,0xBC,Write,NAK
9.546552500,10176,0x41,0xDC,Read,ACK
9.546607500,10176,0x41,0xDC,Read,NAK
9.546862500,10178,0x49,0xCE,Read,ACK
9.546917500,10178,0x49,0xCE,Read,NAK
9.552047500,10180,0x49,0xF9,Read,ACK
9.552102500,10180,0x49,0xF9,Read,NAK
9.553732500,10182,0x40,0xC0,Write,ACK
9.553787500,10182,0x40,0xC0,Write,NAK
9.554117500,10184,0x41,0xB5,Read,ACK
9.554172500,10184,0x41,0xB5,Read,NAK
9.554427500,10186,0x49,0xDC,Read,ACK
9.554482500,10186,0x49,0xDC,Read,NAK
9.559612500,10188,0x49,0x2A,Read,ACK
9.559667500,10188,0x49,0x2A,Read,NAK
9.561297500,10190,0x40,0xC4,Write,ACK
9.561352500,10190,0x40,0xC4,Write,NAK
9.561682500,10192,0x41,0xC4,Read,ACK
9.561737500,10192,0x41,0xC4,Read,NAK
9.561992500,10194,0x49,0xFB,Read,ACK
9.562047500,10194,0x49,0xFB,Read,NAK
9.567177500,10196,0x49,0x28,Read,ACK
9.567232500,10196,0x49,0x28,Read,NAK
9.568862500,10198,0x40,0xC8,Write,ACK
9.568917500,10198,0x40,0xC8,Write,NAK
9.569247500,10200,0x41,0xC2,Read,ACK
9.569302500,10200,0x41,0xC2,Read,NAK
9.569557500,10202,0x49,0xFD,Read,ACK
9.569612500,10202,0x49,0xFD,Read,NAK
9.574742500,10204,0x49,0xD4,Read,ACK
9.574797500,10204,0x49,0xD4,Read,NAK
9.576427500,10206,0x40,0xCC,Write,ACK
9.576482500,10206,0x40,0xCC,Write,NAK
9.576812500,10208,0x41,0xA5,Read,ACK
9.576867500,10208,0x41,0xA5,Read,NAK
9.577122500,10210,0x49,0x24,Read,ACK
9.577177500,10210,0x49,0x24,Read,NAK
9.582307500,10212,0x49,0xDB,Read,ACK
9.582362500,10212,0x49,0xDB,Read,NAK
9.583992500,10214,0x40,0xD0,Write,ACK
9.584047500,10214,0x40,0xD0,Write,NAK
9.584377500,10216,0x41,0xD6,Read,ACK
9.584432500,10216,0x41,0xD6,Read,NAK
9.584687500,10218,0x49,0xCB,Read,ACK
9.584742500,10218,0x49,0xCB,Read,NAK
9.589872500,10220,0x49,0xE4,Read,ACK
9.589927500,10220,0x49,0xE4,Read,NAK
9.591502500,,0x24,,Write,NAK
9.591832500,10224,0x40,0xD4,Write,ACK
9.591887500,10224,0x40,0xD4,Write,NAK
9.592217500,10226,0x41,0xFE,Read,ACK
9.592272500,10226,0x41,0xFE,Read,NAK
9.592527500,10228,0x49,0xF5,Read,ACK
9.592582500,10228,0x49,0xF5,Read,NAK
9.597712500,10230,0x49,0x27,Read,ACK
9.597767500,10230,0x49,0x27,Read,NAK
9.599397500,10232,0x40,0xD8,Write,ACK
9.599452500,10232,0x40,0xD8,Write,NAK
9.599782500,10234,0x41,0xC1,Read,ACK
9.599837500,10234,0x41,0xC1,Read,NAK
9.600092500,10236,0x49,0xE2,Read,ACK
9.600147500,10236,0x49,0xE2,Read,NAK
9.605277500,10238,0x49,0xF7,Read,ACK
9.605332500,10238,0x49,0xF7,Read,NAK
9.606962500,10240,0x40,0xDC,Write,ACK
9.607017500,10240,0x40,0xDC,Write,NAK
9.607347500,10242,0x41,0xD6,Read,ACK
9.607402500,10242,0x41,0xD6,Read,NAK
9.607657500,10244,0x49,0x20,Read,ACK
9.607712500,10244,0x49,0x20,Read,NAK
9.612842500,10246,0x49,0x22,Read,ACK
9.612897500,10246,0x49,0x22,Read,NAK
9.614527500,10248,0x40,0xE0,Write,ACK
9.614582500,10248,0x40,0xE0,Write,NAK
9.614912500,10250,0x41,0xBB,Read,ACK
9.614967500,10250,0x41,0xBB,Read,NAK
9.615222500,10252,0x49,0xE4,Read,ACK
9.615277500,10252,0x49,0xE4,Read,NAK
9.620407500,10254,0x49,0x28,Read,ACK
9.620462500,10254,0x49,0x28,Read,NAK
9.622092500,10256,0x40,0xE4,Write,ACK
9.622147500,10256,0x40,0xE4,Write,NAK
9.622477500,10258,0x41,0xCE,Read,ACK
9.622532500,10258,0x41,0xCE,Read,NAK
9.622787500,10260,0x49,0x14,Read,ACK
9.622842500,10260,0x49,0x14,Read,NAK
9.627972500,10262,0x49,0x06,Read,ACK
9.628027500,10262,0x49,0x06,Read,NAK
9.629657500,10264,0x40,0xE8,Write,ACK
9.629712500,10264,0x40,0xE8,Write,NAK
9.630042500,10266,0x41,0xC8,Read,ACK
9.630097500,10266,0x41,0xC8,Read,NAK
9.630352500,10268,0x49,0x33,Read,ACK
9.630407500,10268,0x49,0x33,Read,NAK
9.635537500,10270,0x49,0xFE,Read,ACK
9.635592500,10270,0x49,0xFE,Read,NAK
9.637222500,10272,0x40,0xEC,Write,ACK
9.637277500,10272,0x40,0xEC,Write,NAK
9.637607500,10274,0x41,0xD9,Read,ACK
9.637662500,10274,0x41,0xD9,Read,NAK
9.637917500,10276,0x49,0xFA,Read,ACK
9.637972500,10276,0x49,0xFA,Read,NAK
9.643102500,10278,0x49,0x4E,Read,ACK
9.643157500,10278,0x49,0x4E,Read,NAK
9.644787500,10280,0x40,0xF0,Write,ACK
9.644842500,10280,0x40,0xF0,Write,NAK
9.645172500,10282,0x41,0x0B,Read,ACK
9.645227500,10282,0x41,0x0B,Read,NAK
9.645482500,10284,0x49,0xEA,Read,ACK
9.645537500,10284,0x49,0xEA,Read,NAK
9.650667500,10286,0x49,0x13,Read,ACK
9.650722500,10286,0x49,0x13,Read,NAK
9.652352500,10288,0x40,0xF4,Write,ACK
9.652407500,10288,0x40,0xF4,Write,NAK
9.652737500,10290,0x41,0x21,Read,ACK
9.652792500,10290,0x41,0x21,Read,NAK
9.653047500,10292,0x49,0xEE,Read,ACK
9.653102500,10292,0x49,0xEE,Read,NAK
9.658232500,10294,0x49,0x14,Read,ACK
9.658287500,10294,0x49,0x14,Read,NAK
9.659917500,10296,0x40,0xF8,Write,ACK
9.659972500,10296,0x40,0xF8,Write,NAK
9.660302500,10298,0x41,0x0E,Read,ACK
9.660357500,10298,0x41,0x0E,Read,NAK
9.660612500,10300,0x49,0x1F,Read,ACK
9.660667500,10300,0x49,0x1F,Read,NAK
9.665797500,10302,0x49,0x32,Read,ACK
9.665852500,10302,0x49,0x32,Read,NAK
9.667482500,10304,0x40,0xFC,Write,ACK
9.667537500,10304,0x40,0xFC,Write,NAK
9.667867500,10306,0x41,0x15,Read,ACK
9.667922500,10306,0x41,0x15,Read,NAK
9.668177500,10308,0x49,0x35,Read,ACK
9.668232500,10308,0x49,0x35,Read,NAK
9.673362500,10310,0x49,0x17,Read,ACK
9.673417500,10310,0x49,0x17,Read,NAK
9.675047500,10312,0x40,0x00,Write,ACK
9.675102500,10312,0x40,0x00,Write,NAK
9.675432500,10314,0x41,0xEB,Read,ACK
9.675487500,10314,0x41,0xEB,Read,NAK
9.675742500,10316,0x49,0x4B,Read,ACK
9.675797500,10316,0x49,0x4B,Read,NAK
9.680927500,10318,0x49,0x1B,Read,ACK
9.680982500,10318,0x49,0x1B,Read,NAK
9.682612500,10320,0x40,0x04,Write,ACK
9.682667500,10320,0x40,0x04,Write,NAK
9.682997500,10322,0x41,0xFA,Read,ACK
9.683052500,10322,0x41,0xFA,Read,NAK
9.683307500,10324,0x49,0x5D,Read,ACK
9.683362500,10324,0x49,0x5D,Read,NAK
9.688492500,10326,0x49,0x3C,Read,ACK
9.688547500,10326,0x49,0x3C,Read,NAK
9.690177500,10328,0x40,0x08,Write,ACK
9.690232500,10328,0x40,0x08,Write,NAK
9.690562500,10330,0x41,0xF6,Read,ACK
9.690617500,10330,0x41,0xF6,Read,NAK
9.690872500,10332,0x49,0x3F,Read,ACK
9.690927500,10332,0x49,0x3F,Read,NAK
9.696057500,10334,0x49,0x4A,Read,ACK
9.696112500,10334,0x49,0x4A,Read,NAK
9.697742500,10336,0x40,0x0C,Write,ACK
9.697797500,10336,0x40,0x0C,Write,NAK
9.698127500,10338,0x41,0xFF,Read,ACK
9.698182500,10338,0x41,0xFF,Read,NAK
9.698437500,10340,0x49,0x35,Read,ACK
9.698492500,10340,0x49,0x35,Read,NAK
9.703622500,10342,0x49,0x5A,Read,ACK
9.703677500,10342,0x49,0x5A,Read,NAK
9.705307500,10344,0x40,0x10,Write,ACK
9.705362500,10344,0x40,0x10,Write,NAK
9.705692500,10346,0x41,0xE1,Read,ACK
9.705747500,10346,0x41,0xE1,Read,NAK
9.706002500,10348,0x49,0x69,Read,ACK
9.706057500,10348,0x49,0x69,Read,NAK
9.711187500,10350,0x49,0x1A,Read,ACK
9.711242500,10350,0x49,0x1A,Read,NAK
9.712872500,10352,0x40,0x14,Write,ACK
9.712927500,10352,0x40,0x14,Write,NAK
9.713257500,10354,0x41,0x16,Read,ACK
9.713312500,10354,0x41,0x16,Read,NAK
9.713567500,10356,0x49,0x26,Read,ACK
9.713622500,10356,0x49,0x26,Read,NAK
9.718752500,10358,0x49,0x40,Read,ACK
9.718807500,10358,0x49,0x40,Read,NAK
9.720437500,10360,0x40,0x18,Write,ACK
9.720492500,10360,0x40,0x18,Write,NAK
9.720822500,10362,0x41,0x2F,Read,ACK
9.720877500,10362,0x41,0x2F,Read,NAK
9.721132500,10364,0x49,0x67,Read,ACK
9.721187500,10364,0x49,0x67,Read,NAK
9.726317500,10366,0x49,0x28,Read,ACK
9.726372500,10366,0x49,0x28,Read,NAK
9.728002500,10368,0x40,0x1C,Write,ACK
9.728057500,10368,0x40,0x1C,Write,NAK
9.728387500,10370,0x41,0x1E,Read,ACK
9.728442500,10370,0x41,0x1E,Read,NAK
9.728697500,10372,0x49,0x30,Read,ACK
9.728752500,10372,0x49,0x30,Read,NAK
9.733882500,10374,0x49,0x28,Read,ACK
9.733937500,10374,0x49,0x28,Read,NAK
9.735567500,10376,0x40,0x20,Write,ACK
9.735622500,10376,0x40,0x20,Write,NAK
9.735952500,10378,0x41,0x2D,Read,ACK
9.736007500,10378,0x41,0x2D,Read,NAK
9.736262500,10380,0x49,0x63,Read,ACK
9.736317500,10380,0x49,0x63,Read,NAK
9.741447500,10382,0x49,0x2E,Read,ACK
9.741502500,10382,0x49,0x2E,Read,NAK
9.743132500,10384,0x40,0x24,Write,ACK
9.743187500,10384,0x40,0x24,Write,NAK
9.743517500,10386,0x41,0x0A,Read,ACK
9.743572500,10386,0x41,0x0A,Read,NAK
9.743827500,10388,0x49,0x52,Read,ACK
9.743882500,10388,0x49,0x52,Read,NAK
9.749012500,10390,0x49,0x7C,Read,ACK
9.749067500,10390,0x49,0x7C,Read,NAK
9.750697500,10392,0x40,0x28,Write,ACK
9.750752500,10392,0x40,0x28,Write,NAK
9.751082500,10394,0x41,0x3B,Read,ACK
9.751137500,10394,0x41,0x3B,Read,NAK
9.751392500,10396,0x49,0x47,Read,ACK
9.751447500,10396,0x49,0x47,Read,NAK
9.756577500,10398,0x49,0x88,Read,ACK
9.756632500,10398,0x49,0x88,Read,NAK
9.758262500,10400,0x40,0x2C,Write,ACK
9.758317500,10400,0x40,0x2C,Write,NAK
9.758647500,10402,0x41,0x52,Read,ACK
9.758702500,10402,0x41,0x52,Read,NAK
9.758957500,10404,0x49,0x5E,Read,ACK
9.759012500,10404,0x49,0x5E,Read,NAK
9.764142500,10406,0x49,0x8B,Read,ACK
9.764197500,10406,0x49,0x8B,Read,NAK
9.765827500,10408,0x40,0x30,Write,ACK
9.765882500,10408,0x40,0x30,Write,NAK
9.766212500,10410,0x41,0x06,Read,ACK
9.766267500,10410,0x41,0x06,Read,NAK
9.766522500,10412,0x49,0x81,Read,ACK
9.766577500,10412,0x49,0x81,Read,NAK
9.771707500,10414,0x49,0x71,Read,ACK
9.771762500,10414,0x49,0x71,Read,NAK
9.773337500,,0x24,,Write,NAK
9.773667500,10418,0x40,0x34,Write,ACK
9.773722500,10418,0x40,0x34,Write,NAK
9.774052500,10420,0x41,0x45,Read,ACK
9.774107500,10420,0x41,0x45,Read,NAK
9.774362500,10422,0x49,0x8A,Read,ACK
9.774417500,10422,0x49,0x8A,Read,NAK
9.779547500,10424,0x49,0x3F,Read,ACK
9.779602500,10424,0x49,0x3F,Read,NAK
9.781177500,,0x24,,Write,NAK
9.781507500,10428,0x40,0x38,Write,ACK
9.781562500,10428,0x40,0x38,Write,NAK
9.781892500,10430,0x41,0x27,Read,ACK
9.781947500,10430,0x41,0x27,Read,NAK
9.782202500,10432,0x49,0x3C,Read,ACK
9.782257500,10432,0x49,0x3C,Read,NAK
9.787387500,10434,0x49,0x48,Read,ACK
9.787442500,10434,0x49,0x48,Read,NAK
9.789072500,10436,0x40,0x3C,Write,ACK
9.789127500,10436,0x40,0x3C,Write,NAK
9.789457500,10438,0x41,0x66,Read,ACK
9.789512500,10438,0x41,0x66,Read,NAK
9.789767500,10440,0x49,0x74,Read,ACK
9.789822500,10440,0x49,0x74,Read,NAK
9.794952500,10442,0x49,0x99,Read,ACK
9.795007500,10442,0x49,0x99,Read,NAK
9.796637500,10444,0x40,0x40,Write,ACK
9.796692500,10444,0x40,0x40,Write,NAK
9.797022500,10446,0x41,0x35,Read,ACK
9.797077500,10446,0x41,0x35,Read,NAK
9.797332500,10448,0x49,0x63,Read,ACK
9.797387500,10448,0x49,0x63,Read,NAK
9.802517500,10450,0x49,0x96,Read,ACK
9.802572500,10450,0x49,0x96,Read,NAK
9.804202500,10452,0x40,0x44,Write,ACK
9.804257500,10452,0x40,0x44,Write,NAK
9.804587500,10454,0x41,0x10,Read,ACK
9.804642500,10454,0x41,0x10,Read,NAK
9.804897500,10456,0x49,0x46,Read,ACK
9.804952500,10456,0x49,0x46,Read,NAK
9.810082500,10458,0x49,0xA3,Read,ACK
9.810137500,10458,0x49,0xA3,Read,NAK
9.811767500,10460,0x40,0x48,Write,ACK
9.811822500,10460,0x40,0x48,Write,NAK
9.812152500,10462,0x41,0x47,Read,ACK
9.812207500,10462,0x41,0x47,Read,NAK
9.812462500,10464,0x49,0x8B,Read,ACK
9.812517500,10464,0x49,0x8B,Read,NAK
9.817647500,10466,0x49,0x79,Read,ACK
9.817702500,10466,0x49,0x79,Read,NAK
9.819332500,10468,0x40,0x4C,Write,ACK
9.819387500,10468,0x40,0x4C,Write,NAK
9.819717500,10470,0x41,0x70,Read,ACK
9.819772500,10470,0x41,0x70,Read,NAK
9.820027500,10472,0x49,0x94,Read,ACK
9.820082500,10472,0x49,0x94,Read,NAK
9.825212500,10474,0x49,0x84,Read,ACK
9.825267500,10474,0x49,0x84,Read,NAK
9.826897500,10476,0x40,0x50,Write,ACK
9.826952500,10476,0x40,0x50,Write,NAK
9.827282500,10478,0x41,0x34,Read,ACK
9.827337500,10478,0x41,0x34,Read,NAK
9.827592500,10480,0x49,0x4D,Read,ACK
9.827647500,10480,0x49,0x4D,Read,NAK
9.832777500,10482,0x49,0xA1,Read,ACK
9.832832500,10482,0x49,0xA1,Read,NAK
9.834462500,10484,0x40,0x54,Write,ACK
9.834517500,10484,0x40,0x54,Write,NAK
9.834847500,10486,0x41,0x55,Read,ACK
9.834902500,10486,0x41,0x55,Read,NAK
9.835157500,10488,0x49,0x98,Read,ACK
9.835212500,10488,0x49,0x98,Read,NAK
9.840342500,10490,0x49,0xBD,Read,ACK
9.840397500,10490,0x49,0xBD,Read,NAK
9.842027500,10492,0x40,0x58,Write,ACK
9.842082500,10492,0x40,0x58,Write,NAK
9.842412500,10494,0x41,0x4E,Read,ACK
9.842467500,10494,0x41,0x4E,Read,NAK
9.842722500,10496,0x49,0x89,Read,ACK
9.842777500,10496,0x49,0x89,Read,NAK
9.847907500,10498,0x49,0xB8,Read,ACK
9.847962500,10498,0x49,0xB8,Read,NAK
9.849537500,,0x24,,Write,NAK
9.849867500,10502,0x40,0x5C,Write,ACK
9.849922500,10502,0x40,0x5C,Write,NAK
9.850252500,10504,0x41,0x3F,Read,ACK
9.850307500,10504,0x41,0x3F,Read,NAK
9.850562500,10506,0x49,0x6E,Read,ACK
9.850617500,10506,0x49,0x6E,Read,NAK
9.855747500,10508,0x49,0x6B,Read,ACK
9.855802500,10508,0x49,0x6B,Read,NAK
9.857377500,,0x24,,Write,NAK
9.857707500,10512,0x40,0x60,Write,ACK
9.857762500,10512,0x40,0x60,Write,NAK
9.858092500,10514,0x41,0x73,Read,ACK
9.858147500,10514,0x41,0x73,Read,NAK
9.858402500,10516,0x49,0xAD,Read,ACK
9.858457500,10516,0x49,0xAD,Read,NAK
9.863587500,10518,0x49,0xC2,Read,ACK
9.863642500,10518,0x49,0xC2,Read,NAK
9.865272500,10520,0x40,0x64,Write,ACK
9.865327500,10520,0x40,0x64,Write,NAK
9.865657500,10522,0x41,0x91,Read,ACK
9.865712500,10522,0x41,0x91,Read,NAK
9.865967500,10524,0x49,0x7A,Read,ACK
9.866022500,10524,0x49,0x7A,Read,NAK
9.871152500,10526,0x49,0xA2,Read,ACK
9.871207500,10526,0x49,0xA2,Read,NAK
9.872837500,10528,0x40,0x68,Write,ACK
9.872892500,10528,0x40,0x68,Write,NAK
9.873222500,10530,0x41,0x3B,Read,ACK
9.873277500,10530,0x41,0x3B,Read,NAK
9.873532500,10532,0x49,0x8F,Read,ACK
9.873587500,10532,0x49,0x8F,Read,NAK
9.878717500,10534,0x49,0x71,Read,ACK
9.878772500,10534,0x49,0x71,Read,NAK
9.880402500,10536,0x40,0x6C,Write,ACK
9.880457500,10536,0x40,0x6C,Write,NAK
9.880787500,10538,0x41,0x55,Read,ACK
9.880842500,10538,0x41,0x55,Read,NAK
9.881097500,10540,0x49,0x65,Read,ACK
9.881152500,10540,0x49,0x65,Read,NAK
9.886282500,10542,0x49,0x78,Read,ACK
9.886337500,10542,0x49,0x78,Read,NAK
9.887967500,10544,0x40,0x70,Write,ACK
9.888022500,10544,0x40,0x70,Write,NAK
9.888352500,10546,0x41,0x79,Read,ACK
9.888407500,10546,0x41,0x79,Read,NAK
9.888662500,10548,0x49,0xB5,Read,ACK
9.888717500,10548,0x49,0xB5,Read,NAK
9.893847500,10550,0x49,0x7E,Read,ACK
9.893902500,10550,0x49,0x7E,Read,NAK
9.895532500,10552,0x40,0x74,Write,ACK
9.895587500,10552,0x40,0x74,Write,NAK
9.895917500,10554,0x41,0x78,Read,ACK
9.895972500,10554,0x41,0x78,Read,NAK
9.896227500,10556,0x49,0xA3,Read,ACK
9.896282500,10556,0x49,0xA3,Read,NAK
9.901412500,10558,0x49,0x8A,Read,ACK
9.901467500,10558,0x49,0x8A,Read,NAK
9.903097500,10560,0x40,0x78,Write,ACK
9.903152500,10560,0x40,0x78,Write,NAK
9.903482500,10562,0x41,0x52,Read,ACK
9.903537500,10562,0x41,0x52,Read,NAK
9.903792500,10564,0x49,0x72,Read,ACK
9.903847500,10564,0x49,0x72,Read,NAK
9.908977500,10566,0x49,0xDE,Read,ACK
9.909032500,10566,0x49,0xDE,Read,NAK
9.910662500,10568,0x40,0x7C,Write,ACK
9.910717500,10568,0x40,0x7C,Write,NAK
9.911047500,10570,0x41,0x9A,Read,ACK
9.911102500,10570,0x41,0x9A,Read,NAK
9.911357500,10572,0x49,0x75,Read,ACK
9.911412500,10572,0x49,0x75,Read,NAK
9.916542500,10574,0x49,0xC0,Read,ACK
9.916597500,10574,0x49,0xC0,Read,NAK
9.918227500,10576,0x40,0x80,Write,ACK
9.918282500,10576,0x40,0x80,Write,NAK
9.918612500,10578,0x41,0x74,Read,ACK
9.918667500,10578,0x41,0x74,Read,NAK
9.918922500,10580,0x49,0x7A,Read,ACK
9.918977500,10580,0x49,0x7A,Read,NAK
9.924107500,10582,0x49,0xDC,Read,ACK
9.924162500,10582,0x49,0xDC,Read,NAK
9.925792500,10584,0x40,0x84,Write,ACK
9.925847500,10584,0x40,0x84,Write,NAK
9.926177500,10586,0x41,0x72,Read,ACK
9.926232500,10586,0x41,0x72,Read,NAK
9.926487500,10588,0x49,0xD6,Read,ACK
9.926542500,10588,0x49,0xD6,Read,NAK
9.931672500,10590,0x49,0xED,Read,ACK
9.931727500,10590,0x49,0xED,Read,NAK
9.933357500,10592,0x40,0x88,Write,ACK
9.933412500,10592,0x40,0x88,Write,NAK
9.933742500,10594,0x41,0x7B,Read,ACK
9.933797500,10594,0x41,0x7B,Read,NAK
9.934052500,10596,0x49,0xB3,Read,ACK
9.934107500,10596,0x49,0xB3,Read,NAK
9.939237500,10598,0x49,0xC0,Read,ACK
9.939292500,10598,0x49,0xC0,Read,NAK
9.940922500,10600,0x40,0x8C,Write,ACK
9.940977500,10600,0x40,0x8C,Write,NAK
9.941307500,10602,0x41,0x8E,Read,ACK
9.941362500,10602,0x41,0x8E,Read,NAK
9.941617500,10604,0x49,0xB9,Read,ACK
9.941672500,10604,0x49,0xB9,Read,NAK
9.946802500,10606,0x49,0xE5,Read,ACK
9.946857500,10606,0x49,0xE5,Read,NAK
9.948487500,10608,0x40,0x90,Write,ACK
9.948542500,10608,0x40,0x90,Write,NAK
9.948872500,10610,0x41,0xB0,Read,ACK
9.948927500,10610,0x41,0xB0,Read,NAK
9.949182500,10612,0x49,0xDF,Read,ACK
9.949237500,10612,0x49,0xDF,Read,NAK
9.954367500,10614,0x49,0xF1,Read,ACK
9.954422500,10614,0x49,0xF1,Read,NAK
9.956052500,10616,0x40,0x94,Write,ACK
9.956107500,10616,0x40,0x94,Write,NAK
9.956437500,10618,0x41,0x8C,Read,ACK
9.956492500,10618,0x41,0x8C,Read,NAK
9.956747500,10620,0x49,0x8F,Read,ACK
9.956802500,10620,0x49,0x8F,Read,NAK
9.961932500,10622,0x49,0xFE,Read,ACK
9.961987500,10622,0x49,0xFE,Read,NAK
9.963617500,10624,0x40,0x98,Write,ACK
9.963672500,10624,0x40,0x98,Write,NAK
9.964002500,10626,0x41,0x9F,Read,ACK
9.964057500,10626,0x41,0x9F,Read,NAK
9.964312500,10628,0x49,0xEC,Read,ACK
9.964367500,10628,0x49,0xEC,Read,NAK
9.969497500,10630,0x49,0xD6,Read,ACK
9.969552500,10630,0x49,0xD6,Read,NAK
9.971182500,10632,0x40,0x9C,Write,ACK
9.971237500,10632,0x40,0x9C,Write,NAK
9.971567500,10634,0x41,0x97,Read,ACK
9.971622500,10634,0x41,0x97,Read,NAK
9.971877500,10636,0x49,0xA2,Read,ACK
9.971932500,10636,0x49,0xA2,Read,NAK
9.977062500,10638,0x49,0xDB,Read,ACK
9.977117500,10638,0x49,0xDB,Read,NAK
9.978747500,10640,0x40,0xA0,Write,ACK
9.978802500,10640,0x40,0xA0,Write,NAK
9.979132500,10642,0x41,0xB3,Read,ACK
9.979187500,10642,0x41,0xB3,Read,NAK
9.979442500,10644,0x49,0xBF,Read,ACK
9.979497500,10644,0x49,0xBF,Read,NAK
9.984627500,10646,0x49,0xFB,Read,ACK
9.984682500,10646,0x49,0xFB,Read,NAK
9.986312500,10648,0x40,0xA4,Write,ACK
9.986367500,10648,0x40,0xA4,Write,NAK
9.986697500,10650,0x41,0xC4,Read,ACK
9.986752500,10650,0x41,0xC4,Read,NAK
9.987007500,10652,0x49,0xBD,Read,ACK
9.987062500,10652,0x49,0xBD,Read,NAK
9.992192500,10654,0x49,0xE6,Read,ACK
9.992247500,10654,0x49,0xE6,Read,NAK
9.993877500,10656,0x40,0xA8,Write,ACK
9.993932500,10656,0x40,0xA8,Write,NAK
9.994262500,10658,0x41,0xCA,Read,ACK
9.994317500,10658,0x41,0xCA,Read,NAK
9.994572500,10660,0x49,0xDB,Read,ACK
9.994627500,10660,0x49,0xDB,Read,NAK
9.999757500,10662,0x49,0xAF,Read,ACK
9.999812500,10662,0x49,0xAF,Read,NAK
10.001442500,10664,0x40,0xAC,Write,ACK
10.001497500,10664,0x40,0xAC,Write,NAK
10.001827500,10666,0x41,0xBA,Read,ACK
10.001882500,10666,0x41,0xBA,Read,NAK
10.002137500,10668,0x49,0xF5,Read,ACK
10.002192500,10668,0x49,0xF5,Read,NAK
10.007322500,10670,0x49,0xF7,Read,ACK
10.007377500,10670,0x49,0xF7,Read,NAK
10.009007500,10672,0x40,0xB0,Write,ACK
10.009062500,10672,0x40,0xB0,Write,NAK
10.009392500,10674,0x41,0x92,Read,ACK
10.009447500,10674,0x41,0x92,Read,NAK
10.009702500,10676,0x49,0xB0,Read,ACK
10.009757500,10676,0x49,0xB0,Read,NAK
10.014887500,10678,0x49,0xEA,Read,ACK
10.014942500,10678,0x49,0xEA,Read,NAK
10.016572500,10680,0x40,0xB4,Write,ACK
10.016627500,10680,0x40,0xB4,Write,NAK
10.016957500,10682,0x41,0x8D,Read,ACK
10.017012500,10682,0x41,0x8D,Read,NAK
10.017267500,10684,0x49,0xDC,Read,ACK
10.017322500,10684,0x49,0xDC,Read,NAK
10.022452500,10686,0x49,0xDC,Read,ACK
10.022507500,10686,0x49,0xDC,Read,NAK
10.024137500,10688,0x40,0xB8,Write,ACK
10.024192500,10688,0x40,0xB8,Write,NAK
10.024522500,10690,0x41,0xAE,Read,ACK
10.024577500,10690,0x41,0xAE,Read,NAK
10.024832500,10692,0x49,0xD7,Read,ACK
10.024887500,10692,0x49,0xD7,Read,NAK
10.030017500,10694,0x49,0xD9,Read,ACK
10.030072500,10694,0x49,0xD9,Read,NAK
10.031702500,10696,0x40,0xBC,Write,ACK
10.031757500,10696,0x40,0xBC,Write,NAK
10.032087500,10698,0x41,0x8F,Read,ACK
10.032142500,10698,0x41,0x8F,Read,NAK
10.032397500,10700,0x49,0x04,Read,ACK
10.032452500,10700,0x49,0x04,Read,NAK
10.037582500,10702,0x49,0xE7,Read,ACK
10.037637500,10702,0x49,0xE7,Read,NAK
10.039267500,10704,0x40,0xC0,Write,ACK
10.039322500,10704,0x40,0xC0,Write,NAK
10.039652500,10706,0x41,0xD6,Read,ACK
10.039707500,10706,0x41,0xD6,Read,NAK
10.039962500,10708,0x49,0xFE,Read,ACK
10.040017500,10708,0x49,0xFE,Read,NAK
10.045147500,10710,0x49,0x27,Read,ACK
10.045202500,10710,0x49,0x27,Read,NAK
10.046832500,10712,0x40,0xC4,Write,ACK
10.046887500,10712,0x40,0xC4,Write,NAK
10.047217500,10714,0x41,0x95,Read,ACK
10.047272500,10714,0x41,0x95,Read,NAK
10.047527500,10716,0x49,0xC1,Read,ACK
10.047582500,10716,0x49,0xC1,Read,NAK
10.052712500,10718,0x49,0x24,Read,ACK
10.052767500,10718,0x49,0x24,Read,NAK
10.054397500,10720,0x40,0xC8,Write,ACK
10.054452500,10720,0x40,0xC8,Write,NAK
10.054782500,10722,0x41,0xD6,Read,ACK
10.054837500,10722,0x41,0xD6,Read,NAK
10.055092500,10724,0x49,0xE8,Read,ACK
10.055147500,10724,0x49,0xE8,Read,NAK
10.060277500,10726,0x49,0xFB,Read,ACK
10.060332500,10726,0x49,0xFB,Read,NAK
10.061962500,10728,0x40,0xCC,Write,ACK
10.062017500,10728,0x40,0xCC,Write,NAK
10.062347500,10730,0x41,0xAF,Read,ACK
10.062402500,10730,0x41,0xAF,Read,NAK
10.062657500,10732,0x49,0xCE,Read,ACK
10.062712500,10732,0x49,0xCE,Read,NAK
10.067842500,10734,0x49,0xFE,Read,ACK
10.067897500,10734,0x49,0xFE,Read,NAK
10.069527500,10736,0x40,0xD0,Write,ACK
10.069582500,10736,0x40,0xD0,Write,NAK
10.069912500,10738,0x41,0xB0,Read,ACK
10.069967500,10738,0x41,0xB0,Read,NAK
10.070222500,10740,0x49,0x24,Read,ACK
10.070277500,10740,0x49,0x24,Read,NAK
10.075407500,10742,0x49,0x1F,Read,ACK
10.075462500,10742,0x49,0x1F,Read,NAK
10.077092500,10744,0x40,0xD4,Write,ACK
10.077147500,10744,0x40,0xD4,Write,NAK
10.077477500,10746,0x41,0xCA,Read,ACK
10.077532500,10746,0x41,0xCA,Read,NAK
10.077787500,10748,0x49,0x04,Read,ACK
10.077842500,10748,0x49,0x04,Read,NAK
10.082972500,10750,0x49,0x20,Read,ACK
10.083027500,10750,0x49,0x20,Read,NAK
10.084602500,,0x24,,Write,NAK
10.084932500,10754,0x40,0xD8,Write,ACK
10.084987500,10754,0x40,0xD8,Write,NAK
10.085317500,10756,0x41,0x05,Read,ACK
10.085372500,10756,0x41,0x05,Read,NAK
10.085627500,10758,0x49,0x2E,Read,ACK
10.085682500,10758,0x49,0x2E,Read,NAK
10.090812500,10760,0x49,0x34,Read,ACK
10.090867500,10760,0x49,0x34,Read,NAK
10.092497500,10762,0x40,0xDC,Write,ACK
10.092552500,10762,0x40,0xDC,Write,NAK
10.092882500,10764,0x41,0xF4,Read,ACK
10.092937500,10764,0x41,0xF4,Read,NAK
10.093192500,10766,0x49,0x1B,Read,ACK
10.093247500,10766,0x49,0x1B,Read,NAK
10.098377500,10768,0x49,0x0E,Read,ACK
10.098432500,10768,0x49,0x0E,Read,NAK
10.100062500,10770,0x40,0xE0,Write,ACK
10.100117500,10770,0x40,0xE0,Write,NAK
10.100447500,10772,0x41,0x0B,Read,ACK
10.100502500,10772,0x41,0x0B,Read,NAK
10.100757500,10774,0x49,0xFD,Read,ACK
10.100812500,10774,0x49,0xFD,Read,NAK
10.105942500,10776,0x49,0xF7,Read,ACK
10.105997500,10776,0x49,0xF7,Read,NAK
10.107627500,10778,0x40,0xE4,Write,ACK
10.107682500,10778,0x40,0xE4,Write,NAK
10.108012500,10780,0x41,0xDC,Read,ACK
10.108067500,10780,0x41,0xDC,Read,NAK
10.108322500,10782,0x49,0xE0,Read,ACK
10.108377500,10782,0x49,0xE0,Read,NAK
10.113507500,10784,0x49,0x1F,Read,ACK
10.113562500,10784,0x49,0x1F,Read,NAK
10.115192500,10786,0x40,0xE8,Write,ACK
10.115247500,10786,0x40,0xE8,Write,NAK
10.115577500,10788,0x41,0xE2,Read,ACK
10.115632500,10788,0x41,0xE2,Read,NAK
10.115887500,10790,0x49,0x0E,Read,ACK
10.115942500,10790,0x49,0x0E,Read,NAK
10.121072500,10792,0x49,0x26,Read,ACK
10.121127500,10792,0x49,0x26,Read,NAK
10.122757500,10794,0x40,0xEC,Write,ACK
10.122812500,10794,0x40,0xEC,Write,NAK
10.123142500,10796,0x41,0xC2,Read,ACK
10.123197500,10796,0x41,0xC2,Read,NAK
10.123452500,10798,0x49,0x44,Read,ACK
10.123507500,10798,0x49,0x44,Read,NAK
10.128637500,10800,0x49,0x0D,Read,ACK
10.128692500,10800,0x49,0x0D,Read,NAK
10.130322500,10802,0x40,0xF0,Write,ACK
10.130377500,10802,0x40,0xF0,Write,NAK
10.130707500,10804,0x41,0xE6,Read,ACK
10.130762500,10804,0x41,0xE6,Read,NAK
10.131017500,10806,0x49,0x49,Read,ACK
10.131072500,10806,0x49,0x49,Read,NAK
10.136202500,10808,0x49,0x42,Read,ACK
10.136257500,10808,0x49,0x42,Read,NAK
10.137832500,,0x24,,Write,NAK
10.138162500,10812,0x40,0xF4,Write,ACK
10.138217500,10812,0x40,0xF4,Write,NAK
10.138547500,10814,0x41,0xC7,Read,ACK
10.138602500,10814,0x41,0xC7,Read,NAK
10.138857500,10816,0x49,0x17,Read,ACK
10.138912500,10816,0x49,0x17,Read,NAK
10.144042500,10818,0x49,0x4B,Read,ACK
10.144097500,10818,0x49,0x4B,Read,NAK
10.145727500,10820,0x40,0xF8,Write,ACK
10.145782500,10820,0x40,0xF8,Write,NAK
10.146112500,10822,0x41,0x1F,Read,ACK
10.146167500,10822,0x41,0x1F,Read,NAK
10.146422500,10824,0x49,0xFF,Read,ACK
10.146477500,10824,0x49,0xFF,Read,NAK
10.151607500,10826,0x49,0x0F,Read,ACK
10.151662500,10826,0x49,0x0F,Read,NAK
10.153292500,10828,0x40,0xFC,Write,ACK
10.153347500,10828,0x40,0xFC,Write,NAK
10.153677500,10830,0x41,0xF0,Read,ACK
10.153732500,10830,0x41,0xF0,Read,NAK
10.153987500,10832,0x49,0xFD,Read,ACK
10.154042500,10832,0x49,0xFD,Read,NAK
10.159172500,10834,0x49,0x1D,Read,ACK
10.159227500,10834,0x49,0x1D,Read,NAK
10.160802500,,0x24,,Write,NAK
10.161132500,10838,0x40,0x00,Write,ACK
10.161187500,10838,0x40,0x00,Write,NAK
10.161517500,10840,0x41,0xFC,Read,ACK
10.161572500,10840,0x41,0xFC,Read,NAK
10.161827500,10842,0x49,0x54,Read,ACK
10.161882500,10842,0x49,0x54,Read,NAK
10.167012500,10844,0x49,0x68,Read,ACK
10.167067500,10844,0x49,0x68,Read,NAK
10.168697500,10846,0x40,0x04,Write,ACK
10.168752500,10846,0x40,0x04,Write,NAK
10.169082500,10848,0x41,0x02,Read,ACK
10.169137500,10848,0x41,0x02,Read,NAK
10.169392500,10850,0x49,0x2B,Read,ACK
10.169447500,10850,0x49,0x2B,Read,NAK
10.174577500,10852,0x49,0x1B,Read,ACK
10.174632500,10852,0x49,0x1B,Read,NAK
10.176262500,10854,0x40,0x08,Write,ACK
10.176317500,10854,0x40,0x08,Write,NAK
10.176647500,10856,0x41,0x04,Read,ACK
10.176702500,10856,0x41,0x04,Read,NAK
10.176957500,10858,0x49,0x45,Read,ACK
10.177012500,10858,0x49,0x45,Read,NAK
10.182142500,10860,0x49,0x2C,Read,ACK
10.182197500,10860,0x49,0x2C,Read,NAK
10.183827500,10862,0x40,0x0C,Write,ACK
10.183882500,10862,0x40,0x0C,Write,NAK
10.184212500,10864,0x41,0xEC,Read,ACK
10.184267500,10864,0x41,0xEC,Read,NAK
10.184522500,10866,0x49,0x3A,Read,ACK
10.184577500,10866,0x49,0x3A,Read,NAK
10.189707500,10868,0x49,0x44,Read,ACK
10.189762500,10868,0x49,0x44,Read,NAK
10.191392500,10870,0x40,0x10,Write,ACK
10.191447500,10870,0x40,0x10,Write,NAK
10.191777500,10872,0x41,0xE1,Read,ACK
10.191832500,10872,0x41,0xE1,Read,NAK
10.192087500,10874,0x49,0x52,Read,ACK
10.192142500,10874,0x49,0x52,Read,NAK
10.197272500,10876,0x49,0x1E,Read,ACK
10.197327500,10876,0x49,0x1E,Read,NAK
10.198957500,10878,0x40,0x14,Write,ACK
10.199012500,10878,0x40,0x14,Write,NAK
10.199342500,10880,0x41,0x27,Read,ACK
10.199397500,10880,0x41,0x27,Read,NAK
10.199652500,10882,0x49,0x31,Read,ACK
10.199707500,10882,0x49,0x31,Read,NAK
10.204837500,10884,0x49,0x33,Read,ACK
10.204892500,10884,0x49,0x33,Read,NAK
10.206522500,10886,0x40,0x18,Write,ACK
10.206577500,10886,0x40,0x18,Write,NAK
10.206907500,10888,0x41,0xEB,Read,ACK
10.206962500,10888,0x41,0xEB,Read,NAK
10.207217500,10890,0x49,0x6A,Read,ACK
10.207272500,10890,0x49,0x6A,Read,NAK
10.212402500,10892,0x49,0x45,Read,ACK
10.212457500,10892,0x49,0x45,Read,NAK
10.214087500,10894,0x40,0x1C,Write,ACK
10.214142500,10894,0x40,0x1C,Write,NAK
10.214472500,10896,0x41,0x1E,Read,ACK
10.214527500,10896,0x41,0x1E,Read,NAK
10.214782500,10898,0x49,0x22,Read,ACK
10.214837500,10898,0x49,0x22,Read,NAK
10.219967500,10900,0x49,0x7E,Read,ACK
10.220022500,10900,0x49,0x7E,Read,NAK
10.221652500,10902,0x40,0x20,Write,ACK
10.221707500,10902,0x40,0x20,Write,NAK
10.222037500,10904,0x41,0x28,Read,ACK
10.222092500,10904,0x41,0x28,Read,NAK
10.222347500,10906,0x49,0x6E,Read,ACK
10.222402500,10906,0x49,0x6E,Read,NAK
10.227532500,10908,0x49,0x2E,Read,ACK
10.227587500,10908,0x49,0x2E,Read,NAK
10.229217500,10910,0x40,0x24,Write,ACK
10.229272500,10910,0x40,0x24,Write,NAK
10.229602500,10912,0x41,0x48,Read,ACK
10.229657500,10912,0x41,0x48,Read,NAK
10.229912500,10914,0x49,0x31,Read,ACK
10.229967500,10914,0x49,0x31,Read,NAK
10.235097500,10916,0x49,0x6E,Read,ACK
10.235152500,10916,0x49,0x6E,Read,NAK
10.236782500,10918,0x40,0x28,Write,ACK
10.236837500,10918,0x40,0x28,Write,NAK
10.237167500,10920,0x41,0x51,Read,ACK
10.237222500,10920,0x41,0x51,Read,NAK
10.237477500,10922,0x49,0x4F,Read,ACK
10.237532500,10922,0x49,0x4F,Read,NAK
10.242662500,10924,0x49,0x65,Read,ACK
10.242717500,10924,0x49,0x65,Read,NAK
10.244347500,10926,0x40,0x2C,Write,ACK
10.244402500,10926,0x40,0x2C,Write,NAK
10.244732500,10928,0x41,0xFB,Read,ACK
10.244787500,10928,0x41,0xFB,Read,NAK
10.245042500,10930,0x49,0x59,Read,ACK
10.245097500,10930,0x49,0x59,Read,NAK
10.250227500,10932,0x49,0x56,Read,ACK
10.250282500,10932,0x49,0x56,Read,NAK
10.251912500,10934,0x40,0x30,Write,ACK
10.251967500,10934,0x40,0x30,Write,NAK
10.252297500,10936,0x41,0x1A,Read,ACK
10.252352500,10936,0x41,0x1A,Read,NAK
10.252607500,10938,0x49,0x84,Read,ACK
10.252662500,10938,0x49,0x84,Read,NAK
10.257792500,10940,0x49,0x87,Read,ACK
10.257847500,10940,0x49,0x87,Read,NAK
10.259477500,10942,0x40,0x34,Write,ACK
10.259532500,10942,0x40,0x34,Write,NAK
10.259862500,10944,0x41,0x20,Read,ACK
10.259917500,10944,0x41,0x20,Read,NAK
10.260172500,10946,0x49,0x62,Read,ACK
10.260227500,10946,0x49,0x62,Read,NAK
10.265357500,10948,0x49,0x53,Read,ACK
10.265412500,10948,0x49,0x53,Read,NAK
10.267042500,10950,0x40,0x38,Write,ACK
10.267097500,10950,0x40,0x38,Write,NAK
10.267427500,10952,0x41,0x02,Read,ACK
10.267482500,10952,0x41,0x02,Read,NAK
10.267737500,10954,0x49,0x3C,Read,ACK
10.267792500,10954,0x49,0x3C,Read,NAK
10.272922500,10956,0x49,0x6D,Read,ACK
10.272977500,10956,0x49,0x6D,Read,NAK
10.274607500,10958,0x40,0x3C,Write,ACK
10.274662500,10958,0x40,0x3C,Write,NAK
10.274992500,10960,0x41,0x24,Read,ACK
10.275047500,10960,0x41,0x24,Read,NAK
10.275302500,10962,0x49,0x8C,Read,ACK
10.275357500,10962,0x49,0x8C,Read,NAK
10.280487500,10964,0x49,0x86,Read,ACK
10.280542500,10964,0x49,0x86,Read,NAK
10.282172500,10966,0x40,0x40,Write,ACK
10.282227500,10966,0x40,0x40,Write,NAK
10.282557500,10968,0x41,0x58,Read,ACK
10.282612500,10968,0x41,0x58,Read,NAK
10.282867500,10970,0x49,0x80,Read,ACK
10.282922500,10970,0x49,0x80,Read,NAK
10.288052500,10972,0x49,0x82,Read,ACK
10.288107500,10972,0x49,0x82,Read,NAK
10.289682500,,0x24,,Write,NAK
10.290012500,10976,0x40,0x44,Write,ACK
10.290067500,10976,0x40,0x44,Write,NAK
10.290397500,10978,0x41,0x70,Read,ACK
10.290452500,10978,0x41,0x70,Read,NAK
10.290707500,10980,0x49,0x89,Read,ACK
10.290762500,10980,0x49,0x89,Read,NAK
10.295892500,10982,0x49,0x57,Read,ACK
10.295947500,10982,0x49,0x57,Read,NAK
10.297577500,10984,0x40,0x48,Write,ACK
10.297632500,10984,0x40,0x48,Write,NAK
10.297962500,10986,0x41,0x2E,Read,ACK
10.298017500,10986,0x41,0x2E,Read,NAK
10.298272500,10988,0x49,0x51,Read,ACK
10.298327500,10988,0x49,0x51,Read,NAK
10.303457500,10990,0x49,0x5D,Read,ACK
10.303512500,10990,0x49,0x5D,Read,NAK
10.305142500,10992,0x40,0x4C,Write,ACK
10.305197500,10992,0x40,0x4C,Write,NAK
10.305527500,10994,0x41,0x60,Read,ACK
10.305582500,10994,0x41,0x60,Read,NAK
10.305837500,10996,0x49,0x43,Read,ACK
10.305892500,10996,0x49,0x43,Read,NAK
10.311022500,10998,0x49,0x84,Read,ACK
10.311077500,10998,0x49,0x84,Read,NAK
10.312707500,11000,0x40,0x50,Write,ACK
10.312762500,11000,0x40,0x50,Write,NAK
10.313092500,11002,0x41,0x7A,Read,ACK
10.313147500,11002,0x41,0x7A,Read,NAK
10.313402500,11004,0x49,0x97,Read,ACK
10.313457500,11004,0x49,0x97,Read,NAK
10.318587500,11006,0x49,0x67,Read,ACK
10.318642500,11006,0x49,0x67,Read,NAK
10.320272500,11008,0x40,0x54,Write,ACK
10.320327500,11008,0x40,0x54,Write,NAK
10.320657500,11010,0x41,0x43,Read,ACK
10.320712500,11010,0x41,0x43,Read,NAK
10.320967500,11012,0x49,0x72,Read,ACK
10.321022500,11012,0x49,0x72,Read,NAK
10.326152500,11014,0x49,0xA8,Read,ACK
10.326207500,11014,0x49,0xA8,Read,NAK
10.327837500,11016,0x40,0x58,Write,ACK
10.327892500,11016,0x40,0x58,Write,NAK
10.328222500,11018,0x41,0x58,Read,ACK
10.328277500,11018,0x41,0x58,Read,NAK
10.328532500,11020,0x49,0x99,Read,ACK
10.328587500,11020,0x49,0x99,Read,NAK
10.333717500,11022,0x49,0xC1,Read,ACK
10.333772500,11022,0x49,0xC1,Read,NAK
10.335402500,11024,0x40,0x5C,Write,ACK
10.335457500,11024,0x40,0x5C,Write,NAK
10.335787500,11026,0x41,0x67,Read,ACK
10.335842500,11026,0x41,0x67,Read,NAK
10.336097500,11028,0x49,0x93,Read,ACK
10.336152500,11028,0x49,0x93,Read,NAK
10.341282500,11030,0x49,0x7F,Read,ACK
10.341337500,11030,0x49,0x7F,Read,NAK
10.342967500,11032,0x40,0x60,Write,ACK
10.343022500,11032,0x40,0x60,Write,NAK
10.343352500,11034,0x41,0x51,Read,ACK
10.343407500,11034,0x41,0x51,Read,NAK
10.343662500,11036,0x49,0x7E,Read,ACK
10.343717500,11036,0x49,0x7E,Read,NAK
10.348847500,11038,0x49,0x77,Read,ACK
10.348902500,11038,0x49,0x77,Read,NAK
10.350532500,11040,0x40,0x64,Write,ACK
10.350587500,11040,0x40,0x64,Write,NAK
10.350917500,11042,0x41,0x41,Read,ACK
10.350972500,11042,0x41,0x41,Read,NAK
10.351227500,11044,0x49,0xAB,Read,ACK
10.351282500,11044,0x49,0xAB,Read,NAK
10.356412500,11046,0x49,0xC1,Read,ACK
10.356467500,11046,0x49,0xC1,Read,NAK
10.358097500,11048,0x40,0x68,Write,ACK
10.358152500,11048,0x40,0x68,Write,NAK
10.358482500,11050,0x41,0x32,Read,ACK
10.358537500,11050,0x41,0x32,Read,NAK
10.358792500,11052,0x49,0x5E,Read,ACK
10.358847500,11052,0x49,0x5E,Read,NAK
10.363977500,11054,0x49,0x8F,Read,ACK
10.364032500,11054,0x49,0x8F,Read,NAK
10.365662500,11056,0x40,0x6C,Write,ACK
10.365717500,11056,0x40,0x6C,Write,NAK
10.366047500,11058,0x41,0x6C,Read,ACK
10.366102500,11058,0x41,0x6C,Read,NAK
10.366357500,11060,0x49,0xB3,Read,ACK
10.366412500,11060,0x49,0xB3,Read,NAK
10.371542500,11062,0x49,0xC8,Read,ACK
10.371597500,11062,0x49,0xC8,Read,NAK
10.373227500,11064,0x40,0x70,Write,ACK
10.373282500,11064,0x40,0x70,Write,NAK
10.373612500,11066,0x41,0x48,Read,ACK
10.373667500,11066,0x41,0x48,Read,NAK
10.373922500,11068,0x49,0x67,Read,ACK
10.373977500,11068,0x49,0x67,Read,NAK
10.379107500,11070,0x49,0xCB,Read,ACK
10.379162500,11070,0x49,0xCB,Read,NAK
10.380792500,11072,0x40,0x74,Write,ACK
10.380847500,11072,0x40,0x74,Write,NAK
10.381177500,11074,0x41,0x9B,Read,ACK
10.381232500,11074,0x41,0x9B,Read,NAK
10.381487500,11076,0x49,0x77,Read,ACK
10.381542500,11076,0x49,0x77,Read,NAK
10.386672500,11078,0x49,0xD7,Read,ACK
10.386727500,11078,0x49,0xD7,Read,NAK
10.388357500,11080,0x40,0x78,Write,ACK
10.388412500,11080,0x40,0x78,Write,NAK
10.388742500,11082,0x41,0x9A,Read,ACK
10.388797500,11082,0x41,0x9A,Read,NAK
10.389052500,11084,0x49,0x98,Read,ACK
10.389107500,11084,0x49,0x98,Read,NAK
10.394237500,11086,0x49,0xA2,Read,ACK
10.394292500,11086,0x49,0xA2,Read,NAK
10.395922500,11088,0x40,0x7C,Write,ACK
10.395977500,11088,0